#Parameters = {d=0.2609296482412; l2=5.218592964824; lambda=10.437185929648; r=0.035162879396984}
#"Frequency / GHz"	"S1,1 (lambda=10.4372) [Re]"	"S1,1 (lambda=10.4372) [Im]"	"Ref.Imp. [Re]"	"Ref.Imp. [Im]"
#-----------------------------------------------------------------------------------------------------------
25.000000000000	-0.024961320683360	-0.16821941733360	65.000000000000	0.00000000000000
25.010000228882	-0.025089297443628	-0.16597194969654	65.000000000000	0.00000000000000
25.020000457764	-0.025206675752997	-0.16372506320477	65.000000000000	0.00000000000000
25.030000686646	-0.025313496589661	-0.16147883236408	65.000000000000	0.00000000000000
25.040000915527	-0.025409631431103	-0.15923339128494	65.000000000000	0.00000000000000
25.049999237061	-0.025495255365968	-0.15698872506618	65.000000000000	0.00000000000000
25.059999465942	-0.025570319965482	-0.15474493801594	65.000000000000	0.00000000000000
25.069999694824	-0.025634845718741	-0.15250214934349	65.000000000000	0.00000000000000
25.079999923706	-0.025688841938972	-0.15026035904884	65.000000000000	0.00000000000000
25.090000152588	-0.025732325389981	-0.14801968634129	65.000000000000	0.00000000000000
25.100000381470	-0.025765307247639	-0.14578020572662	65.000000000000	0.00000000000000
25.110000610352	-0.025787923485041	-0.14354193210602	65.000000000000	0.00000000000000
25.120000839233	-0.025800036266446	-0.14130498468876	65.000000000000	0.00000000000000
25.129999160767	-0.025801647454500	-0.13906946778297	65.000000000000	0.00000000000000
25.139999389648	-0.025792879983783	-0.13683538138866	65.000000000000	0.00000000000000
25.149999618530	-0.025773778557777	-0.13460281491280	65.000000000000	0.00000000000000
25.159999847412	-0.025744261220098	-0.13237185776234	65.000000000000	0.00000000000000
25.170000076294	-0.025704495608807	-0.13014255464077	65.000000000000	0.00000000000000
25.180000305176	-0.025654252618551	-0.12791500985622	65.000000000000	0.00000000000000
25.190000534058	-0.025593878701329	-0.12568925321102	65.000000000000	0.00000000000000
25.200000762939	-0.025523127987981	-0.12346536666155	65.000000000000	0.00000000000000
25.209999084473	-0.025442142039537	-0.12124343961477	65.000000000000	0.00000000000000
25.219999313354	-0.025350967422128	-0.11902350932360	65.000000000000	0.00000000000000
25.229999542236	-0.025249592959881	-0.11680565029383	65.000000000000	0.00000000000000
25.239999771118	-0.025138059630990	-0.11458994448185	65.000000000000	0.00000000000000
25.250000000000	-0.025016384199262	-0.11237643659115	65.000000000000	0.00000000000000
25.260000228882	-0.024884527549148	-0.11016522347927	65.000000000000	0.00000000000000
25.270000457764	-0.024742648005486	-0.10795634239912	65.000000000000	0.00000000000000
25.280000686646	-0.024590728804469	-0.10574986040592	65.000000000000	0.00000000000000
25.290000915527	-0.024428738281131	-0.10354585945606	65.000000000000	0.00000000000000
25.299999237061	-0.024256734177470	-0.10134439170361	65.000000000000	0.00000000000000
25.309999465942	-0.024074802175164	-0.099145524203777	65.000000000000	0.00000000000000
25.319999694824	-0.023882955312729	-0.096949309110641	65.000000000000	0.00000000000000
25.329999923706	-0.023681139573455	-0.094755835831165	65.000000000000	0.00000000000000
25.340000152588	-0.023469472303987	-0.092565149068832	65.000000000000	0.00000000000000
25.350000381470	-0.023247946053743	-0.090377315878868	65.000000000000	0.00000000000000
25.360000610352	-0.023016655817628	-0.088192395865917	65.000000000000	0.00000000000000
25.370000839233	-0.022775579243898	-0.086010441184044	65.000000000000	0.00000000000000
25.379999160767	-0.022524749860168	-0.083831541240215	65.000000000000	0.00000000000000
25.389999389648	-0.022264204919338	-0.081655725836754	65.000000000000	0.00000000000000
25.399999618530	-0.021993981674314	-0.079483076930046	65.000000000000	0.00000000000000
25.409999847412	-0.021714145317674	-0.077313646674156	65.000000000000	0.00000000000000
25.420000076294	-0.021424671635032	-0.075147487223148	65.000000000000	0.00000000000000
25.430000305176	-0.021125676110387	-0.072984665632248	65.000000000000	0.00000000000000
25.440000534058	-0.020817130804062	-0.070825241506100	65.000000000000	0.00000000000000
25.450000762939	-0.020499082282186	-0.068669266998768	65.000000000000	0.00000000000000
25.459999084473	-0.020171569660306	-0.066516801714897	65.000000000000	0.00000000000000
25.469999313354	-0.019834645092487	-0.064367920160294	65.000000000000	0.00000000000000
25.479999542236	-0.019488355144858	-0.062222640961409	65.000000000000	0.00000000000000
25.489999771118	-0.019132727757096	-0.060081042349339	65.000000000000	0.00000000000000
25.500000000000	-0.018767764791846	-0.057943198829889	65.000000000000	0.00000000000000
25.510000228882	-0.018393572419882	-0.055809129029512	65.000000000000	0.00000000000000
25.520000457764	-0.018010130152106	-0.053678914904594	65.000000000000	0.00000000000000
25.530000686646	-0.017617501318455	-0.051552597433329	65.000000000000	0.00000000000000
25.540000915527	-0.017215738072991	-0.049430239945650	65.000000000000	0.00000000000000
25.549999237061	-0.016804877668619	-0.047311879694462	65.000000000000	0.00000000000000
25.559999465942	-0.016384940594435	-0.045197583734989	65.000000000000	0.00000000000000
25.569999694824	-0.015955986455083	-0.043087407946587	65.000000000000	0.00000000000000
25.579999923706	-0.015518055297434	-0.040981393307447	65.000000000000	0.00000000000000
25.590000152588	-0.015071201138198	-0.038879580795765	65.000000000000	0.00000000000000
25.600000381470	-0.014615433290601	-0.036782052367926	65.000000000000	0.00000000000000
25.610000610352	-0.014150804840028	-0.034688837826252	65.000000000000	0.00000000000000
25.620000839233	-0.013677391223609	-0.032599985599518	65.000000000000	0.00000000000000
25.629999160767	-0.013195204548538	-0.030515551567078	65.000000000000	0.00000000000000
25.639999389648	-0.012704289518297	-0.028435584157705	65.000000000000	0.00000000000000
25.649999618530	-0.012204702012241	-0.026360131800175	65.000000000000	0.00000000000000
25.659999847412	-0.011696481145918	-0.024289235472679	65.000000000000	0.00000000000000
25.670000076294	-0.011179662309587	-0.022222958505154	65.000000000000	0.00000000000000
25.680000305176	-0.010654305107892	-0.020161332562566	65.000000000000	0.00000000000000
25.690000534058	-0.010120457038283	-0.018104406073689	65.000000000000	0.00000000000000
25.700000762939	-0.0095781404525042	-0.016052236780524	65.000000000000	0.00000000000000
25.709999084473	-0.0090274261310697	-0.014004854485393	65.000000000000	0.00000000000000
25.719999313354	-0.0084683438763022	-0.011962315998971	65.000000000000	0.00000000000000
25.729999542236	-0.0079009560868144	-0.0099246548488736	65.000000000000	0.00000000000000
25.739999771118	-0.0073252897709608	-0.0078919278457761	65.000000000000	0.00000000000000
25.750000000000	-0.0067414036020637	-0.0058641680516303	65.000000000000	0.00000000000000
25.760000228882	-0.0061493385583162	-0.0038414245937020	65.000000000000	0.00000000000000
25.770000457764	-0.0055491486564279	-0.0018237342592329	65.000000000000	0.00000000000000
25.780000686646	-0.0049408753402531	0.00018885479948949	65.000000000000	0.00000000000000
25.790000915527	-0.0043245684355497	0.0021963061299175	65.000000000000	0.00000000000000
25.799999237061	-0.0037002770695835	0.0041985763236880	65.000000000000	0.00000000000000
25.809999465942	-0.0030680471099913	0.0061956257559359	65.000000000000	0.00000000000000
25.819999694824	-0.0024279248900712	0.0081874150782824	65.000000000000	0.00000000000000
25.829999923706	-0.0017799639608711	0.010173905640841	65.000000000000	0.00000000000000
25.840000152588	-0.0011242111213505	0.012155054137111	65.000000000000	0.00000000000000
25.850000381470	-0.00046071005635895	0.014130827970803	65.000000000000	0.00000000000000
25.860000610352	0.00021048972848803	0.016101187095046	65.000000000000	0.00000000000000
25.870000839233	0.00088932336075231	0.018066091462970	65.000000000000	0.00000000000000
25.879999160767	0.0015757575165480	0.020025506615639	65.000000000000	0.00000000000000
25.889999389648	0.0022697434760630	0.021979399025440	65.000000000000	0.00000000000000
25.899999618530	0.0029712226241827	0.023927729576826	65.000000000000	0.00000000000000
25.909999847412	0.0036801558453590	0.025870461016893	65.000000000000	0.00000000000000
25.920000076294	0.0043964902870357	0.027807561680675	65.000000000000	0.00000000000000
25.930000305176	0.0051201661117375	0.029738996177912	65.000000000000	0.00000000000000
25.940000534058	0.0058511304669082	0.031664732843637	65.000000000000	0.00000000000000
25.950000762939	0.0065893442369998	0.033584740012884	65.000000000000	0.00000000000000
25.959999084473	0.0073347776196897	0.035498976707458	65.000000000000	0.00000000000000
25.969999313354	0.0080873472616076	0.037407413125038	65.000000000000	0.00000000000000
25.979999542236	0.0088470065966249	0.039310023188591	65.000000000000	0.00000000000000
25.989999771118	0.0096136946231127	0.041206777095795	65.000000000000	0.00000000000000
26.000000000000	0.010387403890491	0.043097633868456	65.000000000000	0.00000000000000
26.010000228882	0.011168069206178	0.044982559978962	65.000000000000	0.00000000000000
26.020000457764	0.011955587193370	0.046861547976732	65.000000000000	0.00000000000000
26.030000686646	0.012749978341162	0.048734549432993	65.000000000000	0.00000000000000
26.040000915527	0.013551172800362	0.050601534545422	65.000000000000	0.00000000000000
26.049999237061	0.014359065331519	0.052462488412857	65.000000000000	0.00000000000000
26.059999465942	0.015173693187535	0.054317370057106	65.000000000000	0.00000000000000
26.069999694824	0.015994902700186	0.056166168302298	65.000000000000	0.00000000000000
26.079999923706	0.016822732985020	0.058008842170238	65.000000000000	0.00000000000000
26.090000152588	0.017657089978456	0.059845365583897	65.000000000000	0.00000000000000
26.100000381470	0.018497942015529	0.061675712466240	65.000000000000	0.00000000000000
26.110000610352	0.019345203414559	0.063499867916107	65.000000000000	0.00000000000000
26.120000839233	0.020198840647936	0.065317802131176	65.000000000000	0.00000000000000
26.129999160767	0.021058831363916	0.067129485309124	65.000000000000	0.00000000000000
26.139999389648	0.021925065666437	0.068934895098209	65.000000000000	0.00000000000000
26.149999618530	0.022797562181950	0.070734016597271	65.000000000000	0.00000000000000
26.159999847412	0.023676190525293	0.072526820003986	65.000000000000	0.00000000000000
26.170000076294	0.024560960009694	0.074313275516033	65.000000000000	0.00000000000000
26.180000305176	0.025451790541410	0.076093375682831	65.000000000000	0.00000000000000
26.190000534058	0.026348689571023	0.077867068350315	65.000000000000	0.00000000000000
26.200000762939	0.027251480147243	0.079634390771389	65.000000000000	0.00000000000000
26.209999084473	0.028160221874714	0.081395275890827	65.000000000000	0.00000000000000
26.219999313354	0.029074808582664	0.083149708807468	65.000000000000	0.00000000000000
26.229999542236	0.029995217919350	0.084897682070732	65.000000000000	0.00000000000000
26.239999771118	0.030921364203095	0.086639165878296	65.000000000000	0.00000000000000
26.250000000000	0.031853280961514	0.088374122977257	65.000000000000	0.00000000000000
26.260000228882	0.032790821045637	0.090102590620518	65.000000000000	0.00000000000000
26.270000457764	0.033733930438757	0.091824509203434	65.000000000000	0.00000000000000
26.280000686646	0.034682624042034	0.093539863824844	65.000000000000	0.00000000000000
26.290000915527	0.035636767745018	0.095248669385910	65.000000000000	0.00000000000000
26.299999237061	0.036596409976482	0.096950858831406	65.000000000000	0.00000000000000
26.309999465942	0.037561450153589	0.098646439611912	65.000000000000	0.00000000000000
26.319999694824	0.038531836122274	0.10033539682627	65.000000000000	0.00000000000000
26.329999923706	0.039507485926151	0.10201773047447	65.000000000000	0.00000000000000
26.340000152588	0.040488377213478	0.10369340330362	65.000000000000	0.00000000000000
26.350000381470	0.041474502533674	0.10536240041256	65.000000000000	0.00000000000000
26.360000610352	0.042465716600418	0.10702472925186	65.000000000000	0.00000000000000
26.370000839233	0.043462079018354	0.10868036001921	65.000000000000	0.00000000000000
26.379999160767	0.044463437050581	0.11032927781343	65.000000000000	0.00000000000000
26.389999389648	0.045469798147678	0.11197147518396	65.000000000000	0.00000000000000
26.399999618530	0.046481076627970	0.11360695958138	65.000000000000	0.00000000000000
26.409999847412	0.047497261315584	0.11523568630219	65.000000000000	0.00000000000000
26.420000076294	0.048518281430006	0.11685765534639	65.000000000000	0.00000000000000
26.430000305176	0.049544077366590	0.11847284436226	65.000000000000	0.00000000000000
26.440000534058	0.050574608147144	0.12008128315210	65.000000000000	0.00000000000000
26.450000762939	0.051609814167023	0.12168291956186	65.000000000000	0.00000000000000
26.459999084473	0.052649646997452	0.12327776104212	65.000000000000	0.00000000000000
26.469999313354	0.053694061934948	0.12486580759287	65.000000000000	0.00000000000000
26.479999542236	0.054743044078350	0.12644702196121	65.000000000000	0.00000000000000
26.489999771118	0.055796470493078	0.12802141904831	65.000000000000	0.00000000000000
26.500000000000	0.056854337453842	0.12958897650242	65.000000000000	0.00000000000000
26.510000228882	0.057916563004255	0.13114972412586	65.000000000000	0.00000000000000
26.520000457764	0.058983147144318	0.13270358741283	65.000000000000	0.00000000000000
26.530000686646	0.060053989291191	0.13425062596798	65.000000000000	0.00000000000000
26.540000915527	0.061129089444876	0.13579079508781	65.000000000000	0.00000000000000
26.549999237061	0.062208380550146	0.13732407987118	65.000000000000	0.00000000000000
26.559999465942	0.063291765749454	0.13885052502155	65.000000000000	0.00000000000000
26.569999694824	0.064379259943962	0.14037005603313	65.000000000000	0.00000000000000
26.579999923706	0.065470799803734	0.14188273251057	65.000000000000	0.00000000000000
26.590000152588	0.066566318273544	0.14338850975037	65.000000000000	0.00000000000000
26.600000381470	0.067665763199329	0.14488741755486	65.000000000000	0.00000000000000
26.610000610352	0.068769074976444	0.14637939631939	65.000000000000	0.00000000000000
26.620000839233	0.069876290857792	0.14786450564861	65.000000000000	0.00000000000000
26.629999160767	0.070987254381180	0.14934270083904	65.000000000000	0.00000000000000
26.639999389648	0.072101943194866	0.15081399679184	65.000000000000	0.00000000000000
26.649999618530	0.073220342397690	0.15227837860584	65.000000000000	0.00000000000000
26.659999847412	0.074342414736748	0.15373586118221	65.000000000000	0.00000000000000
26.670000076294	0.075468100607395	0.15518642961979	65.000000000000	0.00000000000000
26.680000305176	0.076597273349762	0.15663008391857	65.000000000000	0.00000000000000
26.690000534058	0.077729977667332	0.15806680917740	65.000000000000	0.00000000000000
26.700000762939	0.078866131603718	0.15949663519859	65.000000000000	0.00000000000000
26.709999084473	0.080005720257759	0.16091954708099	65.000000000000	0.00000000000000
26.719999313354	0.081148684024811	0.16233552992344	65.000000000000	0.00000000000000
26.729999542236	0.082294948399067	0.16374462842941	65.000000000000	0.00000000000000
26.739999771118	0.083444453775883	0.16514679789543	65.000000000000	0.00000000000000
26.750000000000	0.084597177803516	0.16654205322266	65.000000000000	0.00000000000000
26.760000228882	0.085753127932549	0.16793039441109	65.000000000000	0.00000000000000
26.770000457764	0.086912162601948	0.16931185126305	65.000000000000	0.00000000000000
26.780000686646	0.088074319064617	0.17068637907505	65.000000000000	0.00000000000000
26.790000915527	0.089239478111267	0.17205399274826	65.000000000000	0.00000000000000
26.799999237061	0.090407684445381	0.17341472208500	65.000000000000	0.00000000000000
26.809999465942	0.091578833758831	0.17476853728294	65.000000000000	0.00000000000000
26.819999694824	0.092752844095230	0.17611546814442	65.000000000000	0.00000000000000
26.829999923706	0.093929708003998	0.17745549976826	65.000000000000	0.00000000000000
26.840000152588	0.095109388232231	0.17878864705563	65.000000000000	0.00000000000000
26.850000381470	0.096291892230511	0.18011492490768	65.000000000000	0.00000000000000
26.860000610352	0.097477063536644	0.18143428862095	65.000000000000	0.00000000000000
26.870000839233	0.098664931952953	0.18274678289890	65.000000000000	0.00000000000000
26.879999160767	0.099855437874794	0.18405240774155	65.000000000000	0.00000000000000
26.889999389648	0.10104852169752	0.18535117805004	65.000000000000	0.00000000000000
26.899999618530	0.10224415361881	0.18664307892323	65.000000000000	0.00000000000000
26.909999847412	0.10344233363867	0.18792814016342	65.000000000000	0.00000000000000
26.920000076294	0.10464295744896	0.18920634686947	65.000000000000	0.00000000000000
26.930000305176	0.10584598779678	0.19047769904137	65.000000000000	0.00000000000000
26.940000534058	0.10705135017633	0.19174224138260	65.000000000000	0.00000000000000
26.950000762939	0.10825909674168	0.19299992918968	65.000000000000	0.00000000000000
26.959999084473	0.10946914553642	0.19425079226494	65.000000000000	0.00000000000000
26.969999313354	0.11068139225245	0.19549484550953	65.000000000000	0.00000000000000
26.979999542236	0.11189591884613	0.19673210382462	65.000000000000	0.00000000000000
26.989999771118	0.11311257630587	0.19796256721020	65.000000000000	0.00000000000000
27.000000000000	0.11433130502701	0.19918623566628	65.000000000000	0.00000000000000
27.010000228882	0.11555214226246	0.20040312409401	65.000000000000	0.00000000000000
27.020000457764	0.11677505075932	0.20161324739456	65.000000000000	0.00000000000000
27.030000686646	0.11799995601177	0.20281659066677	65.000000000000	0.00000000000000
27.040000915527	0.11922682821751	0.20401318371296	65.000000000000	0.00000000000000
27.049999237061	0.12045554816723	0.20520304143429	65.000000000000	0.00000000000000
27.059999465942	0.12168621271849	0.20638614892960	65.000000000000	0.00000000000000
27.069999694824	0.12291870266199	0.20756252110004	65.000000000000	0.00000000000000
27.079999923706	0.12415297329426	0.20873221755028	65.000000000000	0.00000000000000
27.090000152588	0.12538899481297	0.20989519357681	65.000000000000	0.00000000000000
27.100000381470	0.12662672996521	0.21105146408081	65.000000000000	0.00000000000000
27.110000610352	0.12786619365215	0.21220104396343	65.000000000000	0.00000000000000
27.120000839233	0.12910722196102	0.21334396302700	65.000000000000	0.00000000000000
27.129999160767	0.13034990429878	0.21448023617268	65.000000000000	0.00000000000000
27.139999389648	0.13159416615963	0.21560983359814	65.000000000000	0.00000000000000
27.149999618530	0.13283990323544	0.21673281490803	65.000000000000	0.00000000000000
27.159999847412	0.13408721983433	0.21784913539886	65.000000000000	0.00000000000000
27.170000076294	0.13533584773540	0.21895889937878	65.000000000000	0.00000000000000
27.180000305176	0.13658601045609	0.22006201744080	65.000000000000	0.00000000000000
27.190000534058	0.13783749938011	0.22115854918957	65.000000000000	0.00000000000000
27.200000762939	0.13909031450748	0.22224852442741	65.000000000000	0.00000000000000
27.209999084473	0.14034445583820	0.22333191335201	65.000000000000	0.00000000000000
27.219999313354	0.14159980416298	0.22440877556801	65.000000000000	0.00000000000000
27.229999542236	0.14285638928413	0.22547906637192	65.000000000000	0.00000000000000
27.239999771118	0.14411419630051	0.22654289007187	65.000000000000	0.00000000000000
27.250000000000	0.14537315070629	0.22760017216206	65.000000000000	0.00000000000000
27.260000228882	0.14663325250149	0.22865092754364	65.000000000000	0.00000000000000
27.270000457764	0.14789441227913	0.22969524562359	65.000000000000	0.00000000000000
27.280000686646	0.14915663003922	0.23073308169842	65.000000000000	0.00000000000000
27.290000915527	0.15041983127594	0.23176446557045	65.000000000000	0.00000000000000
27.299999237061	0.15168404579163	0.23278941214085	65.000000000000	0.00000000000000
