#Parameters = {d=0.2569095477387; l2=5.138190954774; lambda=10.276381909548; r=0.034621130653267}
#"Frequency / GHz"	"S1,1 (lambda=10.2764) [Re]"	"S1,1 (lambda=10.2764) [Im]"	"Ref.Imp. [Re]"	"Ref.Imp. [Im]"
#-----------------------------------------------------------------------------------------------------------
25.000000000000	-0.012463716790080	-0.25364315509796	65.000000000000	0.00000000000000
25.010000228882	-0.012989873997867	-0.25145974755287	65.000000000000	0.00000000000000
25.020000457764	-0.013505671173334	-0.24927417933941	65.000000000000	0.00000000000000
25.030000686646	-0.014011142775416	-0.24708645045757	65.000000000000	0.00000000000000
25.040000915527	-0.014506321400404	-0.24489666521549	65.000000000000	0.00000000000000
25.049999237061	-0.014991064555943	-0.24270488321781	65.000000000000	0.00000000000000
25.059999465942	-0.015465461649001	-0.24051119387150	65.000000000000	0.00000000000000
25.069999694824	-0.015929497778416	-0.23831565678120	65.000000000000	0.00000000000000
25.079999923706	-0.016383251175284	-0.23611836135387	65.000000000000	0.00000000000000
25.090000152588	-0.016826476901770	-0.23391936719418	65.000000000000	0.00000000000000
25.100000381470	-0.017259372398257	-0.23171876370907	65.000000000000	0.00000000000000
25.110000610352	-0.017681909725070	-0.22951661050320	65.000000000000	0.00000000000000
25.120000839233	-0.018093958497047	-0.22731296718121	65.000000000000	0.00000000000000
25.129999160767	-0.018495706841350	-0.22510793805122	65.000000000000	0.00000000000000
25.139999389648	-0.018886813893914	-0.22290162742138	65.000000000000	0.00000000000000
25.149999618530	-0.019267676398158	-0.22069402039051	65.000000000000	0.00000000000000
25.159999847412	-0.019638057798147	-0.21848526597023	65.000000000000	0.00000000000000
25.170000076294	-0.019998040050268	-0.21627537906170	65.000000000000	0.00000000000000
25.180000305176	-0.020347489044070	-0.21406449377537	65.000000000000	0.00000000000000
25.190000534058	-0.020686591044068	-0.21185263991356	65.000000000000	0.00000000000000
25.200000762939	-0.021015213802457	-0.20963992178440	65.000000000000	0.00000000000000
25.209999084473	-0.021333334967494	-0.20742638409138	65.000000000000	0.00000000000000
25.219999313354	-0.021641125902534	-0.20521213114262	65.000000000000	0.00000000000000
25.229999542236	-0.021938456222415	-0.20299719274044	65.000000000000	0.00000000000000
25.239999771118	-0.022225305438042	-0.20078168809414	65.000000000000	0.00000000000000
25.250000000000	-0.022501735016704	-0.19856566190720	65.000000000000	0.00000000000000
25.260000228882	-0.022767726331949	-0.19634920358658	65.000000000000	0.00000000000000
25.270000457764	-0.023023426532745	-0.19413235783577	65.000000000000	0.00000000000000
25.280000686646	-0.023268535733223	-0.19191525876522	65.000000000000	0.00000000000000
25.290000915527	-0.023503294214606	-0.18969790637493	65.000000000000	0.00000000000000
25.299999237061	-0.023727584630251	-0.18748040497303	65.000000000000	0.00000000000000
25.309999465942	-0.023941552266479	-0.18526282906532	65.000000000000	0.00000000000000
25.319999694824	-0.024145167320967	-0.18304525315762	65.000000000000	0.00000000000000
25.329999923706	-0.024338304996490	-0.18082773685455	65.000000000000	0.00000000000000
25.340000152588	-0.024521101266146	-0.17861035466194	65.000000000000	0.00000000000000
25.350000381470	-0.024693446233869	-0.17639321088791	65.000000000000	0.00000000000000
25.360000610352	-0.024855630472302	-0.17417630553246	65.000000000000	0.00000000000000
25.370000839233	-0.025007201358676	-0.17195980250835	65.000000000000	0.00000000000000
25.379999160767	-0.025148697197437	-0.16974367201328	65.000000000000	0.00000000000000
25.389999389648	-0.025279667228460	-0.16752804815769	65.000000000000	0.00000000000000
25.399999618530	-0.025400396436453	-0.16531300544739	65.000000000000	0.00000000000000
25.409999847412	-0.025510916486382	-0.16309858858585	65.000000000000	0.00000000000000
25.420000076294	-0.025610946118832	-0.16088488698006	65.000000000000	0.00000000000000
25.430000305176	-0.025700900703669	-0.15867193043232	65.000000000000	0.00000000000000
25.440000534058	-0.025780502706766	-0.15645983815193	65.000000000000	0.00000000000000
25.450000762939	-0.025849850848317	-0.15424866974354	65.000000000000	0.00000000000000
25.459999084473	-0.025908967480063	-0.15203846991062	65.000000000000	0.00000000000000
25.469999313354	-0.025957936421037	-0.14982929825783	65.000000000000	0.00000000000000
25.479999542236	-0.025996772572398	-0.14762124419212	65.000000000000	0.00000000000000
25.489999771118	-0.026025338098407	-0.14541439712048	65.000000000000	0.00000000000000
25.500000000000	-0.026043783873320	-0.14320880174637	65.000000000000	0.00000000000000
25.510000228882	-0.026052037253976	-0.14100453257561	65.000000000000	0.00000000000000
25.520000457764	-0.026050234213471	-0.13880164921284	65.000000000000	0.00000000000000
25.530000686646	-0.026038294658065	-0.13660021126270	65.000000000000	0.00000000000000
25.540000915527	-0.026016335934401	-0.13440030813217	65.000000000000	0.00000000000000
25.549999237061	-0.025984337553382	-0.13220196962357	65.000000000000	0.00000000000000
25.559999465942	-0.025942211970687	-0.13000530004501	65.000000000000	0.00000000000000
25.569999694824	-0.025890180841088	-0.12781034410000	65.000000000000	0.00000000000000
25.579999923706	-0.025828018784523	-0.12561717629433	65.000000000000	0.00000000000000
25.590000152588	-0.025755992159247	-0.12342587113380	65.000000000000	0.00000000000000
25.600000381470	-0.025674099102616	-0.12123645097017	65.000000000000	0.00000000000000
25.610000610352	-0.025582171976566	-0.11904904246330	65.000000000000	0.00000000000000
25.620000839233	-0.025480424985290	-0.11686365306377	65.000000000000	0.00000000000000
25.629999160767	-0.025368843227625	-0.11468036472797	65.000000000000	0.00000000000000
25.639999389648	-0.025247391313314	-0.11249925941229	65.000000000000	0.00000000000000
25.649999618530	-0.025116093456745	-0.11032038927078	65.000000000000	0.00000000000000
25.659999847412	-0.024975003674626	-0.10814381390810	65.000000000000	0.00000000000000
25.670000076294	-0.024824211373925	-0.10596959292889	65.000000000000	0.00000000000000
25.680000305176	-0.024663744494319	-0.10379777103662	65.000000000000	0.00000000000000
25.690000534058	-0.024493459612131	-0.10162845253944	65.000000000000	0.00000000000000
25.700000762939	-0.024313552305102	-0.099461674690247	65.000000000000	0.00000000000000
25.709999084473	-0.024124043062329	-0.097297489643097	65.000000000000	0.00000000000000
25.719999313354	-0.023924931883812	-0.095135949552059	65.000000000000	0.00000000000000
25.729999542236	-0.023716202005744	-0.092977151274681	65.000000000000	0.00000000000000
25.739999771118	-0.023497905582190	-0.090821139514446	65.000000000000	0.00000000000000
25.750000000000	-0.023270148783922	-0.088667951524258	65.000000000000	0.00000000000000
25.760000228882	-0.023032885044813	-0.086517654359341	65.000000000000	0.00000000000000
25.770000457764	-0.022786157205701	-0.084370337426662	65.000000000000	0.00000000000000
25.780000686646	-0.022530017420650	-0.082226023077965	65.000000000000	0.00000000000000
25.790000915527	-0.022264525294304	-0.080084770917892	65.000000000000	0.00000000000000
25.799999237061	-0.021989647299051	-0.077946655452251	65.000000000000	0.00000000000000
25.809999465942	-0.021705465391278	-0.075811728835106	65.000000000000	0.00000000000000
25.819999694824	-0.021411970257759	-0.073680035769939	65.000000000000	0.00000000000000
25.829999923706	-0.021109260618687	-0.071551643311977	65.000000000000	0.00000000000000
25.840000152588	-0.020797329023480	-0.069426603615284	65.000000000000	0.00000000000000
25.850000381470	-0.020476210862398	-0.067304976284504	65.000000000000	0.00000000000000
25.860000610352	-0.020145947113633	-0.065186798572540	65.000000000000	0.00000000000000
25.870000839233	-0.019806582480669	-0.063072137534618	65.000000000000	0.00000000000000
25.879999160767	-0.019458152353764	-0.060961052775383	65.000000000000	0.00000000000000
25.889999389648	-0.019100692123175	-0.058853585273027	65.000000000000	0.00000000000000
25.899999618530	-0.018734231591225	-0.056749794632196	65.000000000000	0.00000000000000
25.909999847412	-0.018358819186687	-0.054649725556374	65.000000000000	0.00000000000000
25.920000076294	-0.017974475398660	-0.052553441375494	65.000000000000	0.00000000000000
25.930000305176	-0.017581282183528	-0.050460979342461	65.000000000000	0.00000000000000
25.940000534058	-0.017179230228066	-0.048372402787209	65.000000000000	0.00000000000000
25.950000762939	-0.016768360510468	-0.046287760138512	65.000000000000	0.00000000000000
25.959999084473	-0.016348743811250	-0.044207088649273	65.000000000000	0.00000000000000
25.969999313354	-0.015920413658023	-0.042130451649427	65.000000000000	0.00000000000000
25.979999542236	-0.015483388677239	-0.040057901293039	65.000000000000	0.00000000000000
25.989999771118	-0.015037721954286	-0.037989474833012	65.000000000000	0.00000000000000
26.000000000000	-0.014583457261324	-0.035925220698118	65.000000000000	0.00000000000000
26.010000228882	-0.014120632782578	-0.033865194767714	65.000000000000	0.00000000000000
26.020000457764	-0.013649283908308	-0.031809441745281	65.000000000000	0.00000000000000
26.030000686646	-0.013169464655221	-0.029758002609015	65.000000000000	0.00000000000000
26.040000915527	-0.012681210413575	-0.027710931375623	65.000000000000	0.00000000000000
26.049999237061	-0.012184554710984	-0.025668265298009	65.000000000000	0.00000000000000
26.059999465942	-0.011679552495480	-0.023630060255527	65.000000000000	0.00000000000000
26.069999694824	-0.011166243813932	-0.021596349775791	65.000000000000	0.00000000000000
26.079999923706	-0.010644673369825	-0.019567189738154	65.000000000000	0.00000000000000
26.090000152588	-0.010114870965481	-0.017542615532875	65.000000000000	0.00000000000000
26.100000381470	-0.0095768971368670	-0.015522677451372	65.000000000000	0.00000000000000
26.110000610352	-0.0090307882055640	-0.013507410883904	65.000000000000	0.00000000000000
26.120000839233	-0.0084765860810876	-0.011496864259243	65.000000000000	0.00000000000000
26.129999160767	-0.0079143391922116	-0.0094910776242614	65.000000000000	0.00000000000000
26.139999389648	-0.0073440959677100	-0.0074900891631842	65.000000000000	0.00000000000000
26.149999618530	-0.0067658885382116	-0.0054939468391240	65.000000000000	0.00000000000000
26.159999847412	-0.0061797704547644	-0.0035026860423386	65.000000000000	0.00000000000000
26.170000076294	-0.0055857840925455	-0.0015163504285738	65.000000000000	0.00000000000000
26.180000305176	-0.0049839750863612	0.00046502216719091	65.000000000000	0.00000000000000
26.190000534058	-0.0043743913993239	0.0024413920473307	65.000000000000	0.00000000000000
26.200000762939	-0.0037570730783045	0.0044127223081887	65.000000000000	0.00000000000000
26.209999084473	-0.0031320741400123	0.0063789696432650	65.000000000000	0.00000000000000
26.219999313354	-0.0024994318373501	0.0083401026204228	65.000000000000	0.00000000000000
26.229999542236	-0.0018591933185235	0.010296080261469	65.000000000000	0.00000000000000
26.239999771118	-0.0012114190030843	0.012246863916516	65.000000000000	0.00000000000000
26.250000000000	-0.00055613514268771	0.014192420989275	65.000000000000	0.00000000000000
26.260000228882	0.00010659411782399	0.016132714226842	65.000000000000	0.00000000000000
26.270000457764	0.00077673315536231	0.018067708238959	65.000000000000	0.00000000000000
26.280000686646	0.0014542414573953	0.019997365772724	65.000000000000	0.00000000000000
26.290000915527	0.0021390528418124	0.021921657025814	65.000000000000	0.00000000000000
26.299999237061	0.0028311263304204	0.023840542882681	65.000000000000	0.00000000000000
26.309999465942	0.0035304247867316	0.025753993541002	65.000000000000	0.00000000000000
26.319999694824	0.0042369011789560	0.027661973610520	65.000000000000	0.00000000000000
26.329999923706	0.0049504851922393	0.029564451426268	65.000000000000	0.00000000000000
26.340000152588	0.0056711426004767	0.031461395323277	65.000000000000	0.00000000000000
26.350000381470	0.0063988403417170	0.033352773636580	65.000000000000	0.00000000000000
26.360000610352	0.0071335160173476	0.035238552838564	65.000000000000	0.00000000000000
26.370000839233	0.0078750969842076	0.037118703126907	65.000000000000	0.00000000000000
26.379999160767	0.0086235906928778	0.038993190973997	65.000000000000	0.00000000000000
26.389999389648	0.0093788858503103	0.040861997753382	65.000000000000	0.00000000000000
26.399999618530	0.010140985250473	0.042725086212158	65.000000000000	0.00000000000000
26.409999847412	0.010909824632108	0.044582426548004	65.000000000000	0.00000000000000
26.420000076294	0.011685344390571	0.046433988958597	65.000000000000	0.00000000000000
26.430000305176	0.012467508204281	0.048279754817486	65.000000000000	0.00000000000000
26.440000534058	0.013256258331239	0.050119683146477	65.000000000000	0.00000000000000
26.450000762939	0.014051559381187	0.051953759044409	65.000000000000	0.00000000000000
26.459999084473	0.014853349886835	0.053781945258379	65.000000000000	0.00000000000000
26.469999313354	0.015661567449570	0.055604230612516	65.000000000000	0.00000000000000
26.479999542236	0.016476195305586	0.057420570403337	65.000000000000	0.00000000000000
26.489999771118	0.017297176644206	0.059230953454971	65.000000000000	0.00000000000000
26.500000000000	0.018124451860785	0.061035349965096	65.000000000000	0.00000000000000
26.510000228882	0.018957976251841	0.062833733856678	65.000000000000	0.00000000000000
26.520000457764	0.019797686487436	0.064626090228558	65.000000000000	0.00000000000000
26.530000686646	0.020643545314670	0.066412374377251	65.000000000000	0.00000000000000
26.540000915527	0.021495508030057	0.068192593753338	65.000000000000	0.00000000000000
26.549999237061	0.022353531792760	0.069966703653336	65.000000000000	0.00000000000000
26.559999465942	0.023217536509037	0.071734689176083	65.000000000000	0.00000000000000
26.569999694824	0.024087525904179	0.073496527969837	65.000000000000	0.00000000000000
26.579999923706	0.024963378906250	0.075252197682858	65.000000000000	0.00000000000000
26.590000152588	0.025845119729638	0.077001675963402	65.000000000000	0.00000000000000
26.600000381470	0.026732629165053	0.078744947910309	65.000000000000	0.00000000000000
26.610000610352	0.027625912800431	0.080481991171837	65.000000000000	0.00000000000000
26.620000839233	0.028524903580546	0.082212790846825	65.000000000000	0.00000000000000
26.629999160767	0.029429556801915	0.083937317132950	65.000000000000	0.00000000000000
26.639999389648	0.030339799821377	0.085655562579632	65.000000000000	0.00000000000000
26.649999618530	0.031255602836609	0.087367497384548	65.000000000000	0.00000000000000
26.659999847412	0.032176915556192	0.089073114097118	65.000000000000	0.00000000000000
26.670000076294	0.033103689551353	0.090772390365601	65.000000000000	0.00000000000000
26.680000305176	0.034035868942738	0.092465311288834	65.000000000000	0.00000000000000
26.690000534058	0.034973416477442	0.094151861965656	65.000000000000	0.00000000000000
26.700000762939	0.035916250199080	0.095832020044327	65.000000000000	0.00000000000000
26.709999084473	0.036864373832941	0.097505778074265	65.000000000000	0.00000000000000
26.719999313354	0.037817668169737	0.099173121154308	65.000000000000	0.00000000000000
26.729999542236	0.038776185363531	0.10083401203156	65.000000000000	0.00000000000000
26.739999771118	0.039739761501551	0.10248848050833	65.000000000000	0.00000000000000
26.750000000000	0.040708452463150	0.10413646697998	65.000000000000	0.00000000000000
26.760000228882	0.041682135313749	0.10577797144651	65.000000000000	0.00000000000000
26.770000457764	0.042660776525736	0.10741300880909	65.000000000000	0.00000000000000
26.780000686646	0.043644338846207	0.10904153436422	65.000000000000	0.00000000000000
26.790000915527	0.044632781296968	0.11066354811192	65.000000000000	0.00000000000000
26.799999237061	0.045626062899828	0.11227903515100	65.000000000000	0.00000000000000
26.809999465942	0.046624071896076	0.11388797312975	65.000000000000	0.00000000000000
26.819999694824	0.047626823186874	0.11549037694931	65.000000000000	0.00000000000000
26.829999923706	0.048634260892868	0.11708620935678	65.000000000000	0.00000000000000
26.840000152588	0.049646303057671	0.11867548525333	65.000000000000	0.00000000000000
26.850000381470	0.050662953406572	0.12025818973780	65.000000000000	0.00000000000000
26.860000610352	0.051684122532606	0.12183428555727	65.000000000000	0.00000000000000
26.870000839233	0.052709791809320	0.12340378016233	65.000000000000	0.00000000000000
26.879999160767	0.053739842027426	0.12496668845415	65.000000000000	0.00000000000000
26.889999389648	0.054774306714535	0.12652295827866	65.000000000000	0.00000000000000
26.899999618530	0.055813115090132	0.12807261943817	65.000000000000	0.00000000000000
26.909999847412	0.056856233626604	0.12961563467979	65.000000000000	0.00000000000000
26.920000076294	0.057903569191694	0.13115201890469	65.000000000000	0.00000000000000
26.930000305176	0.058955077081919	0.13268177211285	65.000000000000	0.00000000000000
26.940000534058	0.060010772198439	0.13420483469963	65.000000000000	0.00000000000000
26.950000762939	0.061070557683706	0.13572128117085	65.000000000000	0.00000000000000
26.959999084473	0.062134411185980	0.13723102211952	65.000000000000	0.00000000000000
26.969999313354	0.063202269375324	0.13873411715031	65.000000000000	0.00000000000000
26.979999542236	0.064274072647095	0.14023055136204	65.000000000000	0.00000000000000
26.989999771118	0.065349772572517	0.14172028005123	65.000000000000	0.00000000000000
27.000000000000	0.066429361701012	0.14320333302021	65.000000000000	0.00000000000000
27.010000228882	0.067512765526772	0.14467969536781	65.000000000000	0.00000000000000
27.020000457764	0.068599924445152	0.14614936709404	65.000000000000	0.00000000000000
27.030000686646	0.069690845906734	0.14761233329773	65.000000000000	0.00000000000000
27.040000915527	0.070785440504551	0.14906862378120	65.000000000000	0.00000000000000
27.049999237061	0.071883648633957	0.15051819384098	65.000000000000	0.00000000000000
27.059999465942	0.072985440492630	0.15196105837822	65.000000000000	0.00000000000000
27.069999694824	0.074090816080570	0.15339721739292	65.000000000000	0.00000000000000
27.079999923706	0.075199611485004	0.15482667088509	65.000000000000	0.00000000000000
27.090000152588	0.076311908662319	0.15624941885471	65.000000000000	0.00000000000000
27.100000381470	0.077427610754967	0.15766546130180	65.000000000000	0.00000000000000
27.110000610352	0.078546687960625	0.15907478332520	65.000000000000	0.00000000000000
27.120000839233	0.079669065773487	0.16047738492489	65.000000000000	0.00000000000000
27.129999160767	0.080794744193554	0.16187329590321	65.000000000000	0.00000000000000
27.139999389648	0.081923566758633	0.16326248645782	65.000000000000	0.00000000000000
27.149999618530	0.083055667579174	0.16464495658875	65.000000000000	0.00000000000000
27.159999847412	0.084190800786018	0.16602073609829	65.000000000000	0.00000000000000
27.170000076294	0.085329145193100	0.16738979518414	65.000000000000	0.00000000000000
27.180000305176	0.086470469832420	0.16875214874744	65.000000000000	0.00000000000000
27.190000534058	0.087614782154560	0.17010781168938	65.000000000000	0.00000000000000
27.200000762939	0.088762097060680	0.17145673930645	65.000000000000	0.00000000000000
27.209999084473	0.089912310242653	0.17279897630215	65.000000000000	0.00000000000000
27.219999313354	0.091065399348736	0.17413452267647	65.000000000000	0.00000000000000
27.229999542236	0.092221327126026	0.17546336352825	65.000000000000	0.00000000000000
27.239999771118	0.093380004167557	0.17678551375866	65.000000000000	0.00000000000000
27.250000000000	0.094541445374489	0.17810098826885	65.000000000000	0.00000000000000
27.260000228882	0.095705620944500	0.17940975725651	65.000000000000	0.00000000000000
27.270000457764	0.096872441470623	0.18071185052395	65.000000000000	0.00000000000000
27.280000686646	0.098041884601116	0.18200726807117	65.000000000000	0.00000000000000
