#Parameters = {d=0.23982412060302; l2=4.7964824120603; lambda=9.5929648241206; r=0.032318698492462}
#"Frequency / GHz"	"S1,1 (lambda=9.59296) [Re]"	"S1,1 (lambda=9.59296) [Im]"	"Ref.Imp. [Re]"	"Ref.Imp. [Im]"
#-----------------------------------------------------------------------------------------------------------
25.000000000000	0.18506759405136	-0.54095178842545	65.000000000000	0.00000000000000
25.010000228882	0.18352960050106	-0.53989315032959	65.000000000000	0.00000000000000
25.020000457764	0.18199338018894	-0.53882741928101	65.000000000000	0.00000000000000
25.030000686646	0.18045905232430	-0.53775447607040	65.000000000000	0.00000000000000
25.040000915527	0.17892643809319	-0.53667443990707	65.000000000000	0.00000000000000
25.049999237061	0.17739585042000	-0.53558713197708	65.000000000000	0.00000000000000
25.059999465942	0.17586730420589	-0.53449273109436	65.000000000000	0.00000000000000
25.069999694824	0.17434060573578	-0.53339111804962	65.000000000000	0.00000000000000
25.079999923706	0.17281615734100	-0.53228223323822	65.000000000000	0.00000000000000
25.090000152588	0.17129373550415	-0.53116619586945	65.000000000000	0.00000000000000
25.100000381470	0.16977356374264	-0.53004282712936	65.000000000000	0.00000000000000
25.110000610352	0.16825552284718	-0.52891230583191	65.000000000000	0.00000000000000
25.120000839233	0.16673989593983	-0.52777451276779	65.000000000000	0.00000000000000
25.129999160767	0.16522651910782	-0.52662950754166	65.000000000000	0.00000000000000
25.139999389648	0.16371551156044	-0.52547717094421	65.000000000000	0.00000000000000
25.149999618530	0.16220679879189	-0.52431762218475	65.000000000000	0.00000000000000
25.159999847412	0.16070072352886	-0.52315080165863	65.000000000000	0.00000000000000
25.170000076294	0.15919703245163	-0.52197670936584	65.000000000000	0.00000000000000
25.180000305176	0.15769603848457	-0.52079528570175	65.000000000000	0.00000000000000
25.190000534058	0.15619763731956	-0.51960664987564	65.000000000000	0.00000000000000
25.200000762939	0.15470178425312	-0.51841062307358	65.000000000000	0.00000000000000
25.209999084473	0.15320886671543	-0.51720738410950	65.000000000000	0.00000000000000
25.219999313354	0.15171857178211	-0.51599681377411	65.000000000000	0.00000000000000
25.229999542236	0.15023119747639	-0.51477891206741	65.000000000000	0.00000000000000
25.239999771118	0.14874675869942	-0.51355361938477	65.000000000000	0.00000000000000
25.250000000000	0.14726485311985	-0.51232123374939	65.000000000000	0.00000000000000
25.260000228882	0.14578647911549	-0.51108139753342	65.000000000000	0.00000000000000
25.270000457764	0.14431068301201	-0.50983422994614	65.000000000000	0.00000000000000
25.280000686646	0.14283804595470	-0.50857985019684	65.000000000000	0.00000000000000
25.290000915527	0.14136883616447	-0.50731801986694	65.000000000000	0.00000000000000
25.299999237061	0.13990260660648	-0.50604903697968	65.000000000000	0.00000000000000
25.309999465942	0.13843964040279	-0.50477272272110	65.000000000000	0.00000000000000
25.319999694824	0.13697999715805	-0.50348901748657	65.000000000000	0.00000000000000
25.329999923706	0.13552373647690	-0.50219810009003	65.000000000000	0.00000000000000
25.340000152588	0.13407085835934	-0.50089973211288	65.000000000000	0.00000000000000
25.350000381470	0.13262121379375	-0.49959427118301	65.000000000000	0.00000000000000
25.360000610352	0.13117530941963	-0.49828144907951	65.000000000000	0.00000000000000
25.370000839233	0.12973295152187	-0.49696129560471	65.000000000000	0.00000000000000
25.379999160767	0.12829443812370	-0.49563384056091	65.000000000000	0.00000000000000
25.389999389648	0.12685908377171	-0.49429923295975	65.000000000000	0.00000000000000
25.399999618530	0.12542788684368	-0.49295723438263	65.000000000000	0.00000000000000
25.409999847412	0.12400020658970	-0.49160808324814	65.000000000000	0.00000000000000
25.420000076294	0.12257629632950	-0.49025171995163	65.000000000000	0.00000000000000
25.430000305176	0.12115667760372	-0.48888790607452	65.000000000000	0.00000000000000
25.440000534058	0.11974070966244	-0.48751705884933	65.000000000000	0.00000000000000
25.450000762939	0.11832889169455	-0.48613888025284	65.000000000000	0.00000000000000
25.459999084473	0.11692104488611	-0.48475351929665	65.000000000000	0.00000000000000
25.469999313354	0.11551743745804	-0.48336091637611	65.000000000000	0.00000000000000
25.479999542236	0.11411789059639	-0.48196119070053	65.000000000000	0.00000000000000
25.489999771118	0.11272268742323	-0.48055422306061	65.000000000000	0.00000000000000
25.500000000000	0.11133141815662	-0.47914016246796	65.000000000000	0.00000000000000
25.510000228882	0.10994479060173	-0.47771885991096	65.000000000000	0.00000000000000
25.520000457764	0.10856243222952	-0.47629052400589	65.000000000000	0.00000000000000
25.530000686646	0.10718458890915	-0.47485497593880	65.000000000000	0.00000000000000
25.540000915527	0.10581108927727	-0.47341239452362	65.000000000000	0.00000000000000
25.549999237061	0.10444197803736	-0.47196272015572	65.000000000000	0.00000000000000
25.559999465942	0.10307775437832	-0.47050592303276	65.000000000000	0.00000000000000
25.569999694824	0.10171824693680	-0.46904203295708	65.000000000000	0.00000000000000
25.579999923706	0.10036348551512	-0.46757110953331	65.000000000000	0.00000000000000
25.590000152588	0.099013082683086	-0.46609324216843	65.000000000000	0.00000000000000
25.600000381470	0.097667962312698	-0.46460828185081	65.000000000000	0.00000000000000
25.610000610352	0.096327297389507	-0.46311643719673	65.000000000000	0.00000000000000
25.620000839233	0.094991788268089	-0.46161749958992	65.000000000000	0.00000000000000
25.629999160767	0.093661263585091	-0.46011167764664	65.000000000000	0.00000000000000
25.639999389648	0.092335775494576	-0.45859891176224	65.000000000000	0.00000000000000
25.649999618530	0.091015368700027	-0.45707929134369	65.000000000000	0.00000000000000
25.659999847412	0.089700065553188	-0.45555272698402	65.000000000000	0.00000000000000
25.670000076294	0.088389948010445	-0.45401936769485	65.000000000000	0.00000000000000
25.680000305176	0.087085247039795	-0.45247906446457	65.000000000000	0.00000000000000
25.690000534058	0.085785590112209	-0.45093199610710	65.000000000000	0.00000000000000
25.700000762939	0.084491454064846	-0.44937816262245	65.000000000000	0.00000000000000
25.709999084473	0.083202660083771	-0.44781756401062	65.000000000000	0.00000000000000
25.719999313354	0.081919260323048	-0.44625020027161	65.000000000000	0.00000000000000
25.729999542236	0.080641523003578	-0.44467613101006	65.000000000000	0.00000000000000
25.739999771118	0.079369261860847	-0.44309538602829	65.000000000000	0.00000000000000
25.750000000000	0.078102529048920	-0.44150799512863	65.000000000000	0.00000000000000
25.760000228882	0.076841786503792	-0.43991389870644	65.000000000000	0.00000000000000
25.770000457764	0.075586460530758	-0.43831327557564	65.000000000000	0.00000000000000
25.780000686646	0.074336998164654	-0.43670600652695	65.000000000000	0.00000000000000
25.790000915527	0.073093235492706	-0.43509224057198	65.000000000000	0.00000000000000
25.799999237061	0.071855336427689	-0.43347197771072	65.000000000000	0.00000000000000
25.809999465942	0.070623442530632	-0.43184518814087	65.000000000000	0.00000000000000
25.819999694824	0.069397583603859	-0.43021193146706	65.000000000000	0.00000000000000
25.829999923706	0.068177714943886	-0.42857226729393	65.000000000000	0.00000000000000
25.840000152588	0.066963881254196	-0.42692622542381	65.000000000000	0.00000000000000
25.850000381470	0.065756306052208	-0.42527380585670	65.000000000000	0.00000000000000
25.860000610352	0.064554758369923	-0.42361503839493	65.000000000000	0.00000000000000
25.870000839233	0.063359461724758	-0.42194998264313	65.000000000000	0.00000000000000
25.879999160767	0.062170464545488	-0.42027869820595	65.000000000000	0.00000000000000
25.889999389648	0.060987804085016	-0.41860118508339	65.000000000000	0.00000000000000
25.899999618530	0.059811331331730	-0.41691747307777	65.000000000000	0.00000000000000
25.909999847412	0.058641482144594	-0.41522759199142	65.000000000000	0.00000000000000
25.920000076294	0.057478092610836	-0.41353160142899	65.000000000000	0.00000000000000
25.930000305176	0.056321121752262	-0.41182950139046	65.000000000000	0.00000000000000
25.940000534058	0.055170685052872	-0.41012135148048	65.000000000000	0.00000000000000
25.950000762939	0.054026942700148	-0.40840721130371	65.000000000000	0.00000000000000
25.959999084473	0.052889827638865	-0.40668711066246	65.000000000000	0.00000000000000
25.969999313354	0.051759384572506	-0.40496104955673	65.000000000000	0.00000000000000
25.979999542236	0.050635740160942	-0.40322908759117	65.000000000000	0.00000000000000
25.989999771118	0.049518845975399	-0.40149128437042	65.000000000000	0.00000000000000
26.000000000000	0.048408746719360	-0.39974772930145	65.000000000000	0.00000000000000
26.010000228882	0.047305565327406	-0.39799830317497	65.000000000000	0.00000000000000
26.020000457764	0.046209346503019	-0.39624315500259	65.000000000000	0.00000000000000
26.030000686646	0.045120127499104	-0.39448234438896	65.000000000000	0.00000000000000
26.040000915527	0.044037755578756	-0.39271584153175	65.000000000000	0.00000000000000
26.049999237061	0.042962558567524	-0.39094376564026	65.000000000000	0.00000000000000
26.059999465942	0.041894376277924	-0.38916605710983	65.000000000000	0.00000000000000
26.069999694824	0.040833439677954	-0.38738286495209	65.000000000000	0.00000000000000
26.079999923706	0.039779514074326	-0.38559421896935	65.000000000000	0.00000000000000
26.090000152588	0.038732994347811	-0.38380011916161	65.000000000000	0.00000000000000
26.100000381470	0.037693642079830	-0.38200059533119	65.000000000000	0.00000000000000
26.110000610352	0.036661595106125	-0.38019570708275	65.000000000000	0.00000000000000
26.120000839233	0.035636968910694	-0.37838554382324	65.000000000000	0.00000000000000
26.129999160767	0.034619625657797	-0.37657004594803	65.000000000000	0.00000000000000
26.139999389648	0.033609777688980	-0.37474939227104	65.000000000000	0.00000000000000
26.149999618530	0.032607458531857	-0.37292355298996	65.000000000000	0.00000000000000
26.159999847412	0.031612534075975	-0.37109261751175	65.000000000000	0.00000000000000
26.170000076294	0.030625205487013	-0.36925655603409	65.000000000000	0.00000000000000
26.180000305176	0.029645424336195	-0.36741551756859	65.000000000000	0.00000000000000
26.190000534058	0.028673311695457	-0.36556944251060	65.000000000000	0.00000000000000
26.200000762939	0.027708811685443	-0.36371845006943	65.000000000000	0.00000000000000
26.209999084473	0.026751965284348	-0.36186259984970	65.000000000000	0.00000000000000
26.219999313354	0.025802884250879	-0.36000186204910	65.000000000000	0.00000000000000
26.229999542236	0.024861602112651	-0.35813632607460	65.000000000000	0.00000000000000
26.239999771118	0.023928156122565	-0.35626608133316	65.000000000000	0.00000000000000
26.250000000000	0.023002488538623	-0.35439112782478	65.000000000000	0.00000000000000
26.260000228882	0.022084718570113	-0.35251149535179	65.000000000000	0.00000000000000
26.270000457764	0.021174792200327	-0.35062730312347	65.000000000000	0.00000000000000
26.280000686646	0.020272824913263	-0.34873858094215	65.000000000000	0.00000000000000
26.290000915527	0.019378850236535	-0.34684532880783	65.000000000000	0.00000000000000
26.299999237061	0.018492894247174	-0.34494766592979	65.000000000000	0.00000000000000
26.309999465942	0.017614910379052	-0.34304559230804	65.000000000000	0.00000000000000
26.319999694824	0.016745008528233	-0.34113919734955	65.000000000000	0.00000000000000
26.329999923706	0.015883216634393	-0.33922851085663	65.000000000000	0.00000000000000
26.340000152588	0.015029565431178	-0.33731356263161	65.000000000000	0.00000000000000
26.350000381470	0.014184083789587	-0.33539447188377	65.000000000000	0.00000000000000
26.360000610352	0.013346801511943	-0.33347120881081	65.000000000000	0.00000000000000
26.370000839233	0.012517745606601	-0.33154389262199	65.000000000000	0.00000000000000
26.379999160767	0.011696944013238	-0.32961252331734	65.000000000000	0.00000000000000
26.389999389648	0.010884426534176	-0.32767719030380	65.000000000000	0.00000000000000
26.399999618530	0.010080217383802	-0.32573795318604	65.000000000000	0.00000000000000
26.409999847412	0.0092842699959874	-0.32379487156868	65.000000000000	0.00000000000000
26.420000076294	0.0084966868162155	-0.32184794545174	65.000000000000	0.00000000000000
26.430000305176	0.0077175726182759	-0.31989723443985	65.000000000000	0.00000000000000
26.440000534058	0.0069467993453145	-0.31794288754463	65.000000000000	0.00000000000000
26.450000762939	0.0061844699084759	-0.31598484516144	65.000000000000	0.00000000000000
26.459999084473	0.0054306853562593	-0.31402325630188	65.000000000000	0.00000000000000
26.469999313354	0.0046852459199727	-0.31205806136131	65.000000000000	0.00000000000000
26.479999542236	0.0039484756998718	-0.31008940935135	65.000000000000	0.00000000000000
26.489999771118	0.0032201022841036	-0.30811735987663	65.000000000000	0.00000000000000
26.500000000000	0.0025003717746586	-0.30614194273949	65.000000000000	0.00000000000000
26.510000228882	0.0017891618190333	-0.30416315793991	65.000000000000	0.00000000000000
26.520000457764	0.0010866420343518	-0.30218115448952	65.000000000000	0.00000000000000
26.530000686646	0.00039269114495255	-0.30019596219063	65.000000000000	0.00000000000000
26.540000915527	-0.00029259535949677	-0.29820755124092	65.000000000000	0.00000000000000
26.549999237061	-0.00096926529658958	-0.29621613025665	65.000000000000	0.00000000000000
26.559999465942	-0.0016372244572267	-0.29422163963318	65.000000000000	0.00000000000000
26.569999694824	-0.0022965206298977	-0.29222413897514	65.000000000000	0.00000000000000
26.579999923706	-0.0029469924047589	-0.29022377729416	65.000000000000	0.00000000000000
26.590000152588	-0.0035888252314180	-0.28822049498558	65.000000000000	0.00000000000000
26.600000381470	-0.0042217909358442	-0.28621447086334	65.000000000000	0.00000000000000
26.610000610352	-0.0048460732214153	-0.28420564532280	65.000000000000	0.00000000000000
26.620000839233	-0.0054615139961243	-0.28219413757324	65.000000000000	0.00000000000000
26.629999160767	-0.0060680937021971	-0.28018003702164	65.000000000000	0.00000000000000
26.639999389648	-0.0066659250296652	-0.27816331386566	65.000000000000	0.00000000000000
26.649999618530	-0.0072548538446426	-0.27614402770996	65.000000000000	0.00000000000000
26.659999847412	-0.0078349914401770	-0.27412238717079	65.000000000000	0.00000000000000
26.670000076294	-0.0084063168615103	-0.27209827303886	65.000000000000	0.00000000000000
26.680000305176	-0.0089686140418053	-0.27007180452347	65.000000000000	0.00000000000000
26.690000534058	-0.0095220617949963	-0.26804313063622	65.000000000000	0.00000000000000
26.700000762939	-0.010066571645439	-0.26601213216782	65.000000000000	0.00000000000000
26.709999084473	-0.010602252557874	-0.26397901773453	65.000000000000	0.00000000000000
26.719999313354	-0.011128896847367	-0.26194378733635	65.000000000000	0.00000000000000
26.729999542236	-0.011646673083305	-0.25990647077560	65.000000000000	0.00000000000000
26.739999771118	-0.012155498377979	-0.25786718726158	65.000000000000	0.00000000000000
26.750000000000	-0.012655290775001	-0.25582593679428	65.000000000000	0.00000000000000
26.760000228882	-0.013146097771823	-0.25378283858299	65.000000000000	0.00000000000000
26.770000457764	-0.013627960346639	-0.25173789262772	65.000000000000	0.00000000000000
26.780000686646	-0.014100796543062	-0.24969120323658	65.000000000000	0.00000000000000
26.790000915527	-0.014564710669219	-0.24764281511307	65.000000000000	0.00000000000000
26.799999237061	-0.015019563958049	-0.24559277296066	65.000000000000	0.00000000000000
26.809999465942	-0.015465339645743	-0.24354113638401	65.000000000000	0.00000000000000
26.819999694824	-0.015902133658528	-0.24148796498775	65.000000000000	0.00000000000000
26.829999923706	-0.016329932957888	-0.23943333327770	65.000000000000	0.00000000000000
26.840000152588	-0.016748601570725	-0.23737730085850	65.000000000000	0.00000000000000
26.850000381470	-0.017158348113298	-0.23531988263130	65.000000000000	0.00000000000000
26.860000610352	-0.017558930441737	-0.23326121270657	65.000000000000	0.00000000000000
26.870000839233	-0.017950553447008	-0.23120129108429	65.000000000000	0.00000000000000
26.879999160767	-0.018333090469241	-0.22914016246796	65.000000000000	0.00000000000000
26.889999389648	-0.018706521019340	-0.22707793116570	65.000000000000	0.00000000000000
26.899999618530	-0.019070992246270	-0.22501464188099	65.000000000000	0.00000000000000
26.909999847412	-0.019426321610808	-0.22295036911964	65.000000000000	0.00000000000000
26.920000076294	-0.019772600382566	-0.22088511288166	65.000000000000	0.00000000000000
26.930000305176	-0.020109809935093	-0.21881899237633	65.000000000000	0.00000000000000
26.940000534058	-0.020437980070710	-0.21675202250481	65.000000000000	0.00000000000000
26.950000762939	-0.020757047459483	-0.21468432247639	65.000000000000	0.00000000000000
26.959999084473	-0.021067090332508	-0.21261589229107	65.000000000000	0.00000000000000
26.969999313354	-0.021368039771914	-0.21054679155350	65.000000000000	0.00000000000000
26.979999542236	-0.021659931167960	-0.20847712457180	65.000000000000	0.00000000000000
26.989999771118	-0.021942740306258	-0.20640687644482	65.000000000000	0.00000000000000
27.000000000000	-0.022216498851776	-0.20433619618416	65.000000000000	0.00000000000000
27.010000228882	-0.022481186315417	-0.20226505398750	65.000000000000	0.00000000000000
27.020000457764	-0.022736880928278	-0.20019356906414	65.000000000000	0.00000000000000
27.030000686646	-0.022983463481069	-0.19812175631523	65.000000000000	0.00000000000000
27.040000915527	-0.023221006616950	-0.19604972004890	65.000000000000	0.00000000000000
27.049999237061	-0.023449495434761	-0.19397747516632	65.000000000000	0.00000000000000
27.059999465942	-0.023668995127082	-0.19190508127213	65.000000000000	0.00000000000000
27.069999694824	-0.023879436776042	-0.18983262777328	65.000000000000	0.00000000000000
27.079999923706	-0.024080801755190	-0.18776014447212	65.000000000000	0.00000000000000
27.090000152588	-0.024273242801428	-0.18568770587444	65.000000000000	0.00000000000000
27.100000381470	-0.024456599727273	-0.18361534178257	65.000000000000	0.00000000000000
27.110000610352	-0.024630986154079	-0.18154312670231	65.000000000000	0.00000000000000
27.120000839233	-0.024796331301332	-0.17947112023830	65.000000000000	0.00000000000000
27.129999160767	-0.024952689185739	-0.17739938199520	65.000000000000	0.00000000000000
27.139999389648	-0.025100082159042	-0.17532794177532	65.000000000000	0.00000000000000
27.149999618530	-0.025238521397114	-0.17325687408447	65.000000000000	0.00000000000000
27.159999847412	-0.025368016213179	-0.17118623852730	65.000000000000	0.00000000000000
27.170000076294	-0.025488501414657	-0.16911609470844	65.000000000000	0.00000000000000
27.180000305176	-0.025600062683225	-0.16704650223255	65.000000000000	0.00000000000000
27.190000534058	-0.025702707469463	-0.16497749090195	65.000000000000	0.00000000000000
27.200000762939	-0.025796404108405	-0.16290912032127	65.000000000000	0.00000000000000
27.209999084473	-0.025881234556437	-0.16084146499634	65.000000000000	0.00000000000000
27.219999313354	-0.025957122445107	-0.15877456963062	65.000000000000	0.00000000000000
27.229999542236	-0.026024147868156	-0.15670847892761	65.000000000000	0.00000000000000
27.239999771118	-0.026082307100296	-0.15464326739311	65.000000000000	0.00000000000000
27.250000000000	-0.026131592690945	-0.15257896482944	65.000000000000	0.00000000000000
27.260000228882	-0.026172079145908	-0.15051566064358	65.000000000000	0.00000000000000
27.270000457764	-0.026203677058220	-0.14845336973667	65.000000000000	0.00000000000000
27.280000686646	-0.026226487010717	-0.14639216661453	65.000000000000	0.00000000000000
27.290000915527	-0.026240499690175	-0.14433209598064	65.000000000000	0.00000000000000
