#Parameters = {d=0.24082914572864; l2=4.8165829145728; lambda=9.6331658291457; r=0.032454135678392}
#"Frequency / GHz"	"S1,1 (lambda=9.63317) [Re]"	"S1,1 (lambda=9.63317) [Im]"	"Ref.Imp. [Re]"	"Ref.Imp. [Im]"
#-----------------------------------------------------------------------------------------------------------
25.000000000000	0.16926178336143	-0.52956098318100	65.000000000000	0.00000000000000
25.010000228882	0.16773958504200	-0.52842324972153	65.000000000000	0.00000000000000
25.020000457764	0.16621972620487	-0.52727836370468	65.000000000000	0.00000000000000
25.030000686646	0.16470214724541	-0.52612608671188	65.000000000000	0.00000000000000
25.040000915527	0.16318713128567	-0.52496653795242	65.000000000000	0.00000000000000
25.049999237061	0.16167433559895	-0.52379971742630	65.000000000000	0.00000000000000
25.059999465942	0.16016419231892	-0.52262556552887	65.000000000000	0.00000000000000
25.069999694824	0.15865649282932	-0.52144408226013	65.000000000000	0.00000000000000
25.079999923706	0.15715155005455	-0.52025532722473	65.000000000000	0.00000000000000
25.090000152588	0.15564902126789	-0.51905924081802	65.000000000000	0.00000000000000
25.100000381470	0.15414930880070	-0.51785582304001	65.000000000000	0.00000000000000
25.110000610352	0.15265247225761	-0.51664501428604	65.000000000000	0.00000000000000
25.120000839233	0.15115830302238	-0.51542687416077	65.000000000000	0.00000000000000
25.129999160767	0.14966697990894	-0.51420146226883	65.000000000000	0.00000000000000
25.139999389648	0.14817865192890	-0.51296865940094	65.000000000000	0.00000000000000
25.149999618530	0.14669315516949	-0.51172852516174	65.000000000000	0.00000000000000
25.159999847412	0.14521072804928	-0.51048099994659	65.000000000000	0.00000000000000
25.170000076294	0.14373134076595	-0.50922614336014	65.000000000000	0.00000000000000
25.180000305176	0.14225514233112	-0.50796401500702	65.000000000000	0.00000000000000
25.190000534058	0.14078207314014	-0.50669449567795	65.000000000000	0.00000000000000
25.200000762939	0.13931228220463	-0.50541758537292	65.000000000000	0.00000000000000
25.209999084473	0.13784568011761	-0.50413340330124	65.000000000000	0.00000000000000
25.219999313354	0.13638268411160	-0.50284177064896	65.000000000000	0.00000000000000
25.229999542236	0.13492265343666	-0.50154292583466	65.000000000000	0.00000000000000
25.239999771118	0.13346631824970	-0.50023663043976	65.000000000000	0.00000000000000
25.250000000000	0.13201326131821	-0.49892312288284	65.000000000000	0.00000000000000
25.260000228882	0.13056398928165	-0.49760216474533	65.000000000000	0.00000000000000
25.270000457764	0.12911835312843	-0.49627390503883	65.000000000000	0.00000000000000
25.280000686646	0.12767611443996	-0.49493840336800	65.000000000000	0.00000000000000
25.290000915527	0.12623780965805	-0.49359551072121	65.000000000000	0.00000000000000
25.299999237061	0.12480325251818	-0.49224531650543	65.000000000000	0.00000000000000
25.309999465942	0.12337249517441	-0.49088788032532	65.000000000000	0.00000000000000
25.319999694824	0.12194555997849	-0.48952308297157	65.000000000000	0.00000000000000
25.329999923706	0.12052229046822	-0.48815107345581	65.000000000000	0.00000000000000
25.340000152588	0.11910366266966	-0.48677173256874	65.000000000000	0.00000000000000
25.350000381470	0.11768854409456	-0.48538514971733	65.000000000000	0.00000000000000
25.360000610352	0.11627769470215	-0.48399129509926	65.000000000000	0.00000000000000
25.370000839233	0.11487091332674	-0.48259022831917	65.000000000000	0.00000000000000
25.379999160767	0.11346849054098	-0.48118191957474	65.000000000000	0.00000000000000
25.389999389648	0.11207024008036	-0.47976636886597	65.000000000000	0.00000000000000
25.399999618530	0.11067620664835	-0.47834360599518	65.000000000000	0.00000000000000
25.409999847412	0.10928667336702	-0.47691372036934	65.000000000000	0.00000000000000
25.420000076294	0.10790144652128	-0.47547665238380	65.000000000000	0.00000000000000
25.430000305176	0.10652080923319	-0.47403234243393	65.000000000000	0.00000000000000
25.440000534058	0.10514480620623	-0.47258087992668	65.000000000000	0.00000000000000
25.450000762939	0.10377326607704	-0.47112235426903	65.000000000000	0.00000000000000
25.459999084473	0.10240644961596	-0.46965661644936	65.000000000000	0.00000000000000
25.469999313354	0.10104417055845	-0.46818387508392	65.000000000000	0.00000000000000
25.479999542236	0.099686734378338	-0.46670401096344	65.000000000000	0.00000000000000
25.489999771118	0.098334379494190	-0.46521699428558	65.000000000000	0.00000000000000
25.500000000000	0.096986263990402	-0.46372312307358	65.000000000000	0.00000000000000
25.510000228882	0.095643788576126	-0.46222203969955	65.000000000000	0.00000000000000
25.520000457764	0.094305649399757	-0.46071407198906	65.000000000000	0.00000000000000
25.530000686646	0.092972785234451	-0.45919907093048	65.000000000000	0.00000000000000
25.540000915527	0.091645240783691	-0.45767706632614	65.000000000000	0.00000000000000
25.549999237061	0.090322621166706	-0.45614817738533	65.000000000000	0.00000000000000
25.559999465942	0.089005194604397	-0.45461228489876	65.000000000000	0.00000000000000
25.569999694824	0.087693221867085	-0.45306953787804	65.000000000000	0.00000000000000
25.579999923706	0.086386330425739	-0.45151993632317	65.000000000000	0.00000000000000
25.590000152588	0.085084974765778	-0.44996345043182	65.000000000000	0.00000000000000
25.600000381470	0.083788566291332	-0.44840019941330	65.000000000000	0.00000000000000
25.610000610352	0.082498006522655	-0.44683003425598	65.000000000000	0.00000000000000
25.620000839233	0.081213124096394	-0.44525313377380	65.000000000000	0.00000000000000
25.629999160767	0.079933546483517	-0.44366949796677	65.000000000000	0.00000000000000
25.639999389648	0.078659743070602	-0.44207915663719	65.000000000000	0.00000000000000
25.649999618530	0.077391326427460	-0.44048207998276	65.000000000000	0.00000000000000
25.659999847412	0.076128773391247	-0.43887835741043	65.000000000000	0.00000000000000
25.670000076294	0.074871912598610	-0.43726795911789	65.000000000000	0.00000000000000
25.680000305176	0.073621205985546	-0.43565097451210	65.000000000000	0.00000000000000
25.690000534058	0.072376079857349	-0.43402740359306	65.000000000000	0.00000000000000
25.700000762939	0.071136988699436	-0.43239727616310	65.000000000000	0.00000000000000
25.709999084473	0.069903969764709	-0.43076056241989	65.000000000000	0.00000000000000
25.719999313354	0.068676874041557	-0.42911744117737	65.000000000000	0.00000000000000
25.729999542236	0.067455947399139	-0.42746785283089	65.000000000000	0.00000000000000
25.739999771118	0.066241018474102	-0.42581179738045	65.000000000000	0.00000000000000
25.750000000000	0.065032348036766	-0.42414933443069	65.000000000000	0.00000000000000
25.760000228882	0.063829973340034	-0.42248058319092	65.000000000000	0.00000000000000
25.770000457764	0.062633931636810	-0.42080545425415	65.000000000000	0.00000000000000
25.780000686646	0.061444070190191	-0.41912400722504	65.000000000000	0.00000000000000
25.790000915527	0.060260623693466	-0.41743636131287	65.000000000000	0.00000000000000
25.799999237061	0.059083648025990	-0.41574245691299	65.000000000000	0.00000000000000
25.809999465942	0.057913187891245	-0.41404235363007	65.000000000000	0.00000000000000
25.819999694824	0.056749273091555	-0.41233614087105	65.000000000000	0.00000000000000
25.829999923706	0.055591750890017	-0.41062378883362	65.000000000000	0.00000000000000
25.840000152588	0.054441053420305	-0.40890532732010	65.000000000000	0.00000000000000
25.850000381470	0.053297035396099	-0.40718084573746	65.000000000000	0.00000000000000
25.860000610352	0.052159629762173	-0.40545037388802	65.000000000000	0.00000000000000
25.870000839233	0.051029074937105	-0.40371391177177	65.000000000000	0.00000000000000
25.879999160767	0.049905221909285	-0.40197154879570	65.000000000000	0.00000000000000
25.889999389648	0.048788394778967	-0.40022331476212	65.000000000000	0.00000000000000
25.899999618530	0.047678440809250	-0.39846920967102	65.000000000000	0.00000000000000
25.909999847412	0.046575311571360	-0.39670932292938	65.000000000000	0.00000000000000
25.920000076294	0.045479319989681	-0.39494362473488	65.000000000000	0.00000000000000
25.930000305176	0.044390324503183	-0.39317226409912	65.000000000000	0.00000000000000
25.940000534058	0.043308362364769	-0.39139518141747	65.000000000000	0.00000000000000
25.950000762939	0.042233567684889	-0.38961246609688	65.000000000000	0.00000000000000
25.959999084473	0.041165973991156	-0.38782420754433	65.000000000000	0.00000000000000
25.969999313354	0.040105625987053	-0.38603037595749	65.000000000000	0.00000000000000
25.979999542236	0.039052456617355	-0.38423097133636	65.000000000000	0.00000000000000
25.989999771118	0.038006611168385	-0.38242620229721	65.000000000000	0.00000000000000
26.000000000000	0.036968111991882	-0.38061594963074	65.000000000000	0.00000000000000
26.010000228882	0.035937007516623	-0.37880033254623	65.000000000000	0.00000000000000
26.020000457764	0.034913327544928	-0.37697941064835	65.000000000000	0.00000000000000
26.030000686646	0.033897109329700	-0.37515318393707	65.000000000000	0.00000000000000
26.040000915527	0.032888393849134	-0.37332177162170	65.000000000000	0.00000000000000
26.049999237061	0.031887210905552	-0.37148511409760	65.000000000000	0.00000000000000
26.059999465942	0.030893689021468	-0.36964336037636	65.000000000000	0.00000000000000
26.069999694824	0.029907681047916	-0.36779648065567	65.000000000000	0.00000000000000
26.079999923706	0.028929403051734	-0.36594456434250	65.000000000000	0.00000000000000
26.090000152588	0.027958801016212	-0.36408761143684	65.000000000000	0.00000000000000
26.100000381470	0.026995992287993	-0.36222574114799	65.000000000000	0.00000000000000
26.110000610352	0.026040928438306	-0.36035895347595	65.000000000000	0.00000000000000
26.120000839233	0.025093639269471	-0.35848733782768	65.000000000000	0.00000000000000
26.129999160767	0.024154247716069	-0.35661089420319	65.000000000000	0.00000000000000
26.139999389648	0.023222699761391	-0.35472971200943	65.000000000000	0.00000000000000
26.149999618530	0.022299028933048	-0.35284382104874	65.000000000000	0.00000000000000
26.159999847412	0.021383352577686	-0.35095325112343	65.000000000000	0.00000000000000
26.170000076294	0.020475782454014	-0.34905809164047	65.000000000000	0.00000000000000
26.180000305176	0.019576102495193	-0.34715843200684	65.000000000000	0.00000000000000
26.190000534058	0.018684510141611	-0.34525418281555	65.000000000000	0.00000000000000
26.200000762939	0.017801035195589	-0.34334558248520	65.000000000000	0.00000000000000
26.209999084473	0.016925629228354	-0.34143254160881	65.000000000000	0.00000000000000
26.219999313354	0.016058402135968	-0.33951511979103	65.000000000000	0.00000000000000
26.229999542236	0.015199384652078	-0.33759346604347	65.000000000000	0.00000000000000
26.239999771118	0.014348604716361	-0.33566752076149	65.000000000000	0.00000000000000
26.250000000000	0.013506013900042	-0.33373740315437	65.000000000000	0.00000000000000
26.260000228882	0.012671721167862	-0.33180320262909	65.000000000000	0.00000000000000
26.270000457764	0.011845752596855	-0.32986488938332	65.000000000000	0.00000000000000
26.280000686646	0.011028138920665	-0.32792252302170	65.000000000000	0.00000000000000
26.290000915527	0.010218829847872	-0.32597622275352	65.000000000000	0.00000000000000
26.299999237061	0.0094179315492511	-0.32402601838112	65.000000000000	0.00000000000000
26.309999465942	0.0086255483329296	-0.32207190990448	65.000000000000	0.00000000000000
26.319999694824	0.0078414753079414	-0.32011401653290	65.000000000000	0.00000000000000
26.329999923706	0.0070658945478499	-0.31815233826637	65.000000000000	0.00000000000000
26.340000152588	0.0062989089637995	-0.31618699431419	65.000000000000	0.00000000000000
26.350000381470	0.0055403169244528	-0.31421801447868	65.000000000000	0.00000000000000
26.360000610352	0.0047903708182275	-0.31224545836449	65.000000000000	0.00000000000000
26.370000839233	0.0040490203537047	-0.31026938557625	65.000000000000	0.00000000000000
26.379999160767	0.0033162911422551	-0.30828976631165	65.000000000000	0.00000000000000
26.389999389648	0.0025920618791133	-0.30630680918694	65.000000000000	0.00000000000000
26.399999618530	0.0018765764543787	-0.30432045459747	65.000000000000	0.00000000000000
26.409999847412	0.0011697143781930	-0.30233079195023	65.000000000000	0.00000000000000
26.420000076294	0.00047157212975435	-0.30033788084984	65.000000000000	0.00000000000000
26.430000305176	-0.00021789802121930	-0.29834184050560	65.000000000000	0.00000000000000
26.440000534058	-0.00089853024110198	-0.29634258151054	65.000000000000	0.00000000000000
26.450000762939	-0.0015705139376223	-0.29434034228325	65.000000000000	0.00000000000000
26.459999084473	-0.0022336838301271	-0.29233500361443	65.000000000000	0.00000000000000
26.469999313354	-0.0028881567995995	-0.29032671451569	65.000000000000	0.00000000000000
26.479999542236	-0.0035336334258318	-0.28831553459167	65.000000000000	0.00000000000000
26.489999771118	-0.0041703679598868	-0.28630155324936	65.000000000000	0.00000000000000
26.500000000000	-0.0047983354888856	-0.28428471088409	65.000000000000	0.00000000000000
26.510000228882	-0.0054173124954104	-0.28226521611214	65.000000000000	0.00000000000000
26.520000457764	-0.0060274782590568	-0.28024297952652	65.000000000000	0.00000000000000
26.530000686646	-0.0066287461668253	-0.27821820974350	65.000000000000	0.00000000000000
26.540000915527	-0.0072210263460875	-0.27619081735611	65.000000000000	0.00000000000000
26.549999237061	-0.0078044324181974	-0.27416098117828	65.000000000000	0.00000000000000
26.559999465942	-0.0083788763731718	-0.27212867140770	65.000000000000	0.00000000000000
26.569999694824	-0.0089444024488330	-0.27009397745132	65.000000000000	0.00000000000000
26.579999923706	-0.0095009263604879	-0.26805698871613	65.000000000000	0.00000000000000
26.590000152588	-0.010048427619040	-0.26601773500443	65.000000000000	0.00000000000000
26.600000381470	-0.010586952790618	-0.26397630572319	65.000000000000	0.00000000000000
26.610000610352	-0.011116540059447	-0.26193270087242	65.000000000000	0.00000000000000
26.620000839233	-0.011636985465884	-0.25988703966141	65.000000000000	0.00000000000000
26.629999160767	-0.012148455716670	-0.25783935189247	65.000000000000	0.00000000000000
26.639999389648	-0.012650868855417	-0.25578969717026	65.000000000000	0.00000000000000
26.649999618530	-0.013144267722964	-0.25373813509941	65.000000000000	0.00000000000000
26.659999847412	-0.013628570362926	-0.25168472528458	65.000000000000	0.00000000000000
26.670000076294	-0.014103760942817	-0.24962952733040	65.000000000000	0.00000000000000
26.680000305176	-0.014569940045476	-0.24757260084152	65.000000000000	0.00000000000000
26.690000534058	-0.015027026645839	-0.24551402032375	65.000000000000	0.00000000000000
26.700000762939	-0.015475004911423	-0.24345380067825	65.000000000000	0.00000000000000
26.709999084473	-0.015913855284452	-0.24139207601547	65.000000000000	0.00000000000000
26.719999313354	-0.016343615949154	-0.23932883143425	65.000000000000	0.00000000000000
26.729999542236	-0.016764268279076	-0.23726418614388	65.000000000000	0.00000000000000
26.739999771118	-0.017175741493702	-0.23519814014435	65.000000000000	0.00000000000000
26.750000000000	-0.017578180879354	-0.23313081264496	65.000000000000	0.00000000000000
26.760000228882	-0.017971456050873	-0.23106220364571	65.000000000000	0.00000000000000
26.770000457764	-0.018355553969741	-0.22899241745472	65.000000000000	0.00000000000000
26.780000686646	-0.018730562180281	-0.22692148387432	65.000000000000	0.00000000000000
26.790000915527	-0.019096408039331	-0.22484947741032	65.000000000000	0.00000000000000
26.799999237061	-0.019453126937151	-0.22277647256851	65.000000000000	0.00000000000000
26.809999465942	-0.019800649955869	-0.22070249915123	65.000000000000	0.00000000000000
26.819999694824	-0.020139111205935	-0.21862763166428	65.000000000000	0.00000000000000
26.829999923706	-0.020468387752771	-0.21655191481113	65.000000000000	0.00000000000000
26.840000152588	-0.020788464695215	-0.21447543799877	65.000000000000	0.00000000000000
26.850000381470	-0.021099474281073	-0.21239821612835	65.000000000000	0.00000000000000
26.860000610352	-0.021401295438409	-0.21032036840916	65.000000000000	0.00000000000000
26.870000839233	-0.021694010123610	-0.20824189484119	65.000000000000	0.00000000000000
26.879999160767	-0.021977543830872	-0.20616288483143	65.000000000000	0.00000000000000
26.889999389648	-0.022251935675740	-0.20408338308334	65.000000000000	0.00000000000000
26.899999618530	-0.022517250850797	-0.20200346410275	65.000000000000	0.00000000000000
26.909999847412	-0.022773379459977	-0.19992318749428	65.000000000000	0.00000000000000
26.920000076294	-0.023020345717669	-0.19784256815910	65.000000000000	0.00000000000000
26.930000305176	-0.023258224129677	-0.19576172530651	65.000000000000	0.00000000000000
26.940000534058	-0.023486988618970	-0.19368067383766	65.000000000000	0.00000000000000
26.950000762939	-0.023706620559096	-0.19159948825836	65.000000000000	0.00000000000000
26.959999084473	-0.023917187005281	-0.18951821327209	65.000000000000	0.00000000000000
26.969999313354	-0.024118570610881	-0.18743693828583	65.000000000000	0.00000000000000
26.979999542236	-0.024310888722539	-0.18535569310188	65.000000000000	0.00000000000000
26.989999771118	-0.024494105949998	-0.18327452242374	65.000000000000	0.00000000000000
27.000000000000	-0.024668211117387	-0.18119354546070	65.000000000000	0.00000000000000
27.010000228882	-0.024833295494318	-0.17911276221275	65.000000000000	0.00000000000000
27.020000457764	-0.024989334866405	-0.17703223228455	65.000000000000	0.00000000000000
27.030000686646	-0.025136260315776	-0.17495203018188	65.000000000000	0.00000000000000
27.040000915527	-0.025274123996496	-0.17287221550941	65.000000000000	0.00000000000000
27.049999237061	-0.025402940809727	-0.17079281806946	65.000000000000	0.00000000000000
27.059999465942	-0.025522800162435	-0.16871392726898	65.000000000000	0.00000000000000
27.069999694824	-0.025633547455072	-0.16663560271263	65.000000000000	0.00000000000000
27.079999923706	-0.025735313072801	-0.16455787420273	65.000000000000	0.00000000000000
27.090000152588	-0.025828137993813	-0.16248078644276	65.000000000000	0.00000000000000
27.100000381470	-0.025911906734109	-0.16040442883968	65.000000000000	0.00000000000000
27.110000610352	-0.025986740365624	-0.15832884609699	65.000000000000	0.00000000000000
27.120000839233	-0.026052597910166	-0.15625409781933	65.000000000000	0.00000000000000
27.129999160767	-0.026109507307410	-0.15418021380901	65.000000000000	0.00000000000000
27.139999389648	-0.026157507672906	-0.15210728347301	65.000000000000	0.00000000000000
27.149999618530	-0.026196554303169	-0.15003535151482	65.000000000000	0.00000000000000
27.159999847412	-0.026226738467813	-0.14796444773674	65.000000000000	0.00000000000000
27.170000076294	-0.026247985661030	-0.14589466154575	65.000000000000	0.00000000000000
27.180000305176	-0.026260409504175	-0.14382602274418	65.000000000000	0.00000000000000
27.190000534058	-0.026263929903507	-0.14175860583782	65.000000000000	0.00000000000000
27.200000762939	-0.026258595287800	-0.13969245553017	65.000000000000	0.00000000000000
27.209999084473	-0.026244476437569	-0.13762761652470	65.000000000000	0.00000000000000
27.219999313354	-0.026221511885524	-0.13556414842606	65.000000000000	0.00000000000000
27.229999542236	-0.026189768686891	-0.13350209593773	65.000000000000	0.00000000000000
27.239999771118	-0.026149278506637	-0.13144153356552	65.000000000000	0.00000000000000
27.250000000000	-0.026099996641278	-0.12938249111176	65.000000000000	0.00000000000000
27.260000228882	-0.026042008772492	-0.12732504308224	65.000000000000	0.00000000000000
27.270000457764	-0.025975266471505	-0.12526921927929	65.000000000000	0.00000000000000
27.280000686646	-0.025899864733219	-0.12321507185698	65.000000000000	0.00000000000000
27.290000915527	-0.025815747678280	-0.12116269767284	65.000000000000	0.00000000000000
