#Parameters = {d=0.25942211055277; l2=5.1884422110555; lambda=10.376884422111; r=0.034959723618092}
#"Frequency / GHz"	"S1,1 (lambda=10.3769) [Re]"	"S1,1 (lambda=10.3769) [Im]"	"Ref.Imp. [Re]"	"Ref.Imp. [Im]"
#-----------------------------------------------------------------------------------------------------------
25.000000000000	-0.022091390565038	-0.20034192502499	65.000000000000	0.00000000000000
25.010000228882	-0.022369816899300	-0.19810605049133	65.000000000000	0.00000000000000
25.020000457764	-0.022637639194727	-0.19586969912052	65.000000000000	0.00000000000000
25.030000686646	-0.022894730791450	-0.19363299012184	65.000000000000	0.00000000000000
25.040000915527	-0.023141305893660	-0.19139595329762	65.000000000000	0.00000000000000
25.049999237061	-0.023377323523164	-0.18915866315365	65.000000000000	0.00000000000000
25.059999465942	-0.023602662608027	-0.18692122399807	65.000000000000	0.00000000000000
25.069999694824	-0.023817382752895	-0.18468372523785	65.000000000000	0.00000000000000
25.079999923706	-0.024021536111832	-0.18244618177414	65.000000000000	0.00000000000000
25.090000152588	-0.024215180426836	-0.18020871281624	65.000000000000	0.00000000000000
25.100000381470	-0.024398185312748	-0.17797136306763	65.000000000000	0.00000000000000
25.110000610352	-0.024570694193244	-0.17573422193527	65.000000000000	0.00000000000000
25.120000839233	-0.024732574820518	-0.17349737882614	65.000000000000	0.00000000000000
25.129999160767	-0.024884046986699	-0.17126087844372	65.000000000000	0.00000000000000
25.139999389648	-0.025024894624949	-0.16902482509613	65.000000000000	0.00000000000000
25.149999618530	-0.025155248120427	-0.16678923368454	65.000000000000	0.00000000000000
25.159999847412	-0.025275055319071	-0.16455423831940	65.000000000000	0.00000000000000
25.170000076294	-0.025384362787008	-0.16231989860535	65.000000000000	0.00000000000000
25.180000305176	-0.025483341887593	-0.16008625924587	65.000000000000	0.00000000000000
25.190000534058	-0.025571720674634	-0.15785340964794	65.000000000000	0.00000000000000
25.200000762939	-0.025649674236774	-0.15562143921852	65.000000000000	0.00000000000000
25.209999084473	-0.025717221200466	-0.15339037775993	65.000000000000	0.00000000000000
25.219999313354	-0.025774380192161	-0.15116032958031	65.000000000000	0.00000000000000
25.229999542236	-0.025821095332503	-0.14893135428429	65.000000000000	0.00000000000000
25.239999771118	-0.025857442989945	-0.14670352637768	65.000000000000	0.00000000000000
25.250000000000	-0.025883432477713	-0.14447690546513	65.000000000000	0.00000000000000
25.260000228882	-0.025899134576321	-0.14225156605244	65.000000000000	0.00000000000000
25.270000457764	-0.025904407724738	-0.14002759754658	65.000000000000	0.00000000000000
25.280000686646	-0.025899449363351	-0.13780502974987	65.000000000000	0.00000000000000
25.290000915527	-0.025884183123708	-0.13558398187160	65.000000000000	0.00000000000000
25.299999237061	-0.025858711451292	-0.13336445391178	65.000000000000	0.00000000000000
25.309999465942	-0.025822954252362	-0.13114659488201	65.000000000000	0.00000000000000
25.319999694824	-0.025777008384466	-0.12893038988113	65.000000000000	0.00000000000000
25.329999923706	-0.025720840319991	-0.12671598792076	65.000000000000	0.00000000000000
25.340000152588	-0.025654524564743	-0.12450340390205	65.000000000000	0.00000000000000
25.350000381470	-0.025578076019883	-0.12229271233082	65.000000000000	0.00000000000000
25.360000610352	-0.025491552427411	-0.12008397281170	65.000000000000	0.00000000000000
25.370000839233	-0.025394832715392	-0.11787728965282	65.000000000000	0.00000000000000
25.379999160767	-0.025288131088018	-0.11567269265652	65.000000000000	0.00000000000000
25.389999389648	-0.025171307846904	-0.11347025632858	65.000000000000	0.00000000000000
25.399999618530	-0.025044545531273	-0.11127004027367	65.000000000000	0.00000000000000
25.409999847412	-0.024907795712352	-0.10907212644815	65.000000000000	0.00000000000000
25.420000076294	-0.024761049076915	-0.10687656700611	65.000000000000	0.00000000000000
25.430000305176	-0.024604341015220	-0.10468343645334	65.000000000000	0.00000000000000
25.440000534058	-0.024437781423330	-0.10249276459217	65.000000000000	0.00000000000000
25.450000762939	-0.024261370301247	-0.10030465573072	65.000000000000	0.00000000000000
25.459999084473	-0.024075131863356	-0.098119147121906	65.000000000000	0.00000000000000
25.469999313354	-0.023878982290626	-0.095936328172684	65.000000000000	0.00000000000000
25.479999542236	-0.023673141375184	-0.093756221234798	65.000000000000	0.00000000000000
25.489999771118	-0.023457568138838	-0.091578915715218	65.000000000000	0.00000000000000
25.500000000000	-0.023232201114297	-0.089404478669167	65.000000000000	0.00000000000000
25.510000228882	-0.022997217252851	-0.087232947349548	65.000000000000	0.00000000000000
25.520000457764	-0.022752575576305	-0.085064388811588	65.000000000000	0.00000000000000
25.530000686646	-0.022498298436403	-0.082898870110512	65.000000000000	0.00000000000000
25.540000915527	-0.022234451025724	-0.080736458301544	65.000000000000	0.00000000000000
25.549999237061	-0.021961046382785	-0.078577190637589	65.000000000000	0.00000000000000
25.559999465942	-0.021678099408746	-0.076421149075031	65.000000000000	0.00000000000000
25.569999694824	-0.021385718137026	-0.074268363416195	65.000000000000	0.00000000000000
25.579999923706	-0.021083882078528	-0.072118908166885	65.000000000000	0.00000000000000
25.590000152588	-0.020772617310286	-0.069972865283489	65.000000000000	0.00000000000000
25.600000381470	-0.020452003926039	-0.067830242216587	65.000000000000	0.00000000000000
25.610000610352	-0.020122062414885	-0.065691128373146	65.000000000000	0.00000000000000
25.620000839233	-0.019782802090049	-0.063555561006069	65.000000000000	0.00000000000000
25.629999160767	-0.019434304907918	-0.061423614621162	65.000000000000	0.00000000000000
25.639999389648	-0.019076561555266	-0.059295337647200	65.000000000000	0.00000000000000
25.649999618530	-0.018709665164351	-0.057170767337084	65.000000000000	0.00000000000000
25.659999847412	-0.018333598971367	-0.055049985647202	65.000000000000	0.00000000000000
25.670000076294	-0.017948424443603	-0.052933033555746	65.000000000000	0.00000000000000
25.680000305176	-0.017554232850671	-0.050819944590330	65.000000000000	0.00000000000000
25.690000534058	-0.017150958999991	-0.048710808157921	65.000000000000	0.00000000000000
25.700000762939	-0.016738735139370	-0.046605654060841	65.000000000000	0.00000000000000
25.709999084473	-0.016317548230290	-0.044504538178444	65.000000000000	0.00000000000000
25.719999313354	-0.015887478366494	-0.042407501488924	65.000000000000	0.00000000000000
25.729999542236	-0.015448523685336	-0.040314614772797	65.000000000000	0.00000000000000
25.739999771118	-0.015000753104687	-0.038225922733545	65.000000000000	0.00000000000000
25.750000000000	-0.014544200152159	-0.036141466349363	65.000000000000	0.00000000000000
25.760000228882	-0.014078920707107	-0.034061301499605	65.000000000000	0.00000000000000
25.770000457764	-0.013604936189950	-0.031985476613045	65.000000000000	0.00000000000000
25.780000686646	-0.013122300617397	-0.029914038255811	65.000000000000	0.00000000000000
25.790000915527	-0.012631072662771	-0.027847029268742	65.000000000000	0.00000000000000
25.799999237061	-0.012131270952523	-0.025784507393837	65.000000000000	0.00000000000000
25.809999465942	-0.011622939258814	-0.023726515471935	65.000000000000	0.00000000000000
25.819999694824	-0.011106139048934	-0.021673094481230	65.000000000000	0.00000000000000
25.829999923706	-0.010580895468593	-0.019624302163720	65.000000000000	0.00000000000000
25.840000152588	-0.010047271847725	-0.017580170184374	65.000000000000	0.00000000000000
25.850000381470	-0.0095052951946855	-0.015540755353868	65.000000000000	0.00000000000000
25.860000610352	-0.0089550260454416	-0.013506095856428	65.000000000000	0.00000000000000
25.870000839233	-0.0083964997902513	-0.011476233601570	65.000000000000	0.00000000000000
25.879999160767	-0.0078297667205334	-0.0094512188807130	65.000000000000	0.00000000000000
25.889999389648	-0.0072548710741103	-0.0074310908094049	65.000000000000	0.00000000000000
25.899999618530	-0.0066718570888042	-0.0054158912971616	65.000000000000	0.00000000000000
25.909999847412	-0.0060807745903730	-0.0034056629519910	65.000000000000	0.00000000000000
25.920000076294	-0.0054816654883325	-0.0014004488475621	65.000000000000	0.00000000000000
25.930000305176	-0.0048745791427791	0.00059971166774631	65.000000000000	0.00000000000000
25.940000534058	-0.0042595616541803	0.0025947769172490	65.000000000000	0.00000000000000
25.950000762939	-0.0036366609856486	0.0045847077853978	65.000000000000	0.00000000000000
25.959999084473	-0.0030059227719903	0.0065694656223059	65.000000000000	0.00000000000000
25.969999313354	-0.0023673931136727	0.0085490094497800	65.000000000000	0.00000000000000
25.979999542236	-0.0017211291706190	0.010523300617933	65.000000000000	0.00000000000000
25.989999771118	-0.0010671628406271	0.012492302805185	65.000000000000	0.00000000000000
26.000000000000	-0.00040555873420089	0.014455977827311	65.000000000000	0.00000000000000
26.010000228882	0.00026364476070739	0.016414286568761	65.000000000000	0.00000000000000
26.020000457764	0.00094040803378448	0.018367197364569	65.000000000000	0.00000000000000
26.030000686646	0.0016246641753241	0.020314669236541	65.000000000000	0.00000000000000
26.040000915527	0.0023163757286966	0.022256668657064	65.000000000000	0.00000000000000
26.049999237061	0.0030154755804688	0.024193162098527	65.000000000000	0.00000000000000
26.059999465942	0.0037219449877739	0.026124110445380	65.000000000000	0.00000000000000
26.069999694824	0.0044357259757817	0.028049482032657	65.000000000000	0.00000000000000
26.079999923706	0.0051567475311458	0.029969245195389	65.000000000000	0.00000000000000
26.090000152588	0.0058849747292697	0.031883366405964	65.000000000000	0.00000000000000
26.100000381470	0.0066203833557665	0.033791806548834	65.000000000000	0.00000000000000
26.110000610352	0.0073628881946206	0.035694543272257	65.000000000000	0.00000000000000
26.120000839233	0.0081124464049935	0.037591539323330	65.000000000000	0.00000000000000
26.129999160767	0.0088690314441919	0.039482761174440	65.000000000000	0.00000000000000
26.139999389648	0.0096325511112809	0.041368186473846	65.000000000000	0.00000000000000
26.149999618530	0.010402975603938	0.043247781693935	65.000000000000	0.00000000000000
26.159999847412	0.011180297471583	0.045121513307095	65.000000000000	0.00000000000000
26.170000076294	0.011964402161539	0.046989351511002	65.000000000000	0.00000000000000
26.180000305176	0.012755233794451	0.048851277679205	65.000000000000	0.00000000000000
26.190000534058	0.013552822172642	0.050707247108221	65.000000000000	0.00000000000000
26.200000762939	0.014357067644596	0.052557241171598	65.000000000000	0.00000000000000
26.209999084473	0.015167901292443	0.054401237517595	65.000000000000	0.00000000000000
26.219999313354	0.015985291451216	0.056239202618599	65.000000000000	0.00000000000000
26.229999542236	0.016809215769172	0.058071110397577	65.000000000000	0.00000000000000
26.239999771118	0.017639558762312	0.059896942228079	65.000000000000	0.00000000000000
26.250000000000	0.018476324155927	0.061716660857201	65.000000000000	0.00000000000000
26.260000228882	0.019319439306855	0.063530243933201	65.000000000000	0.00000000000000
26.270000457764	0.020168878138065	0.065337680280209	65.000000000000	0.00000000000000
26.280000686646	0.021024525165558	0.067138932645321	65.000000000000	0.00000000000000
26.290000915527	0.021886410191655	0.068933978676796	65.000000000000	0.00000000000000
26.299999237061	0.022754423320293	0.070722810924053	65.000000000000	0.00000000000000
26.309999465942	0.023628568276763	0.072505369782448	65.000000000000	0.00000000000000
26.319999694824	0.024508722126484	0.074281677603722	65.000000000000	0.00000000000000
26.329999923706	0.025394948199391	0.076051674783230	65.000000000000	0.00000000000000
26.340000152588	0.026287036016583	0.077815368771553	65.000000000000	0.00000000000000
26.350000381470	0.027185056358576	0.079572729766369	65.000000000000	0.00000000000000
26.360000610352	0.028088930994272	0.081323720514774	65.000000000000	0.00000000000000
26.370000839233	0.028998602181673	0.083068341016769	65.000000000000	0.00000000000000
26.379999160767	0.029914006590843	0.084806576371193	65.000000000000	0.00000000000000
26.389999389648	0.030835118144751	0.086538396775723	65.000000000000	0.00000000000000
26.399999618530	0.031761869788170	0.088263772428036	65.000000000000	0.00000000000000
26.409999847412	0.032694194465876	0.089982718229294	65.000000000000	0.00000000000000
26.420000076294	0.033632088452578	0.091695182025433	65.000000000000	0.00000000000000
26.430000305176	0.034575454890728	0.093401148915291	65.000000000000	0.00000000000000
26.440000534058	0.035524271428585	0.095100633800030	65.000000000000	0.00000000000000
26.450000762939	0.036478474736214	0.096793599426746	65.000000000000	0.00000000000000
26.459999084473	0.037437986582518	0.098480023443699	65.000000000000	0.00000000000000
26.469999313354	0.038402825593948	0.10015989840031	65.000000000000	0.00000000000000
26.479999542236	0.039372887462378	0.10183320194483	65.000000000000	0.00000000000000
26.489999771118	0.040348127484322	0.10349993407726	65.000000000000	0.00000000000000
26.500000000000	0.041328512132168	0.10516007989645	65.000000000000	0.00000000000000
26.510000228882	0.042313989251852	0.10681360960007	65.000000000000	0.00000000000000
26.520000457764	0.043304480612278	0.10846053063869	65.000000000000	0.00000000000000
26.530000686646	0.044300001114607	0.11010081321001	65.000000000000	0.00000000000000
26.540000915527	0.045300416648388	0.11173444986343	65.000000000000	0.00000000000000
26.549999237061	0.046305730938911	0.11336142569780	65.000000000000	0.00000000000000
26.559999465942	0.047315862029791	0.11498174071312	65.000000000000	0.00000000000000
26.569999694824	0.048330798745155	0.11659536510706	65.000000000000	0.00000000000000
26.579999923706	0.049350492656231	0.11820229887962	65.000000000000	0.00000000000000
26.590000152588	0.050374805927277	0.11980254203081	65.000000000000	0.00000000000000
26.600000381470	0.051403816789389	0.12139605730772	65.000000000000	0.00000000000000
26.610000610352	0.052437391132116	0.12298287451267	65.000000000000	0.00000000000000
26.620000839233	0.053475521504879	0.12456294149160	65.000000000000	0.00000000000000
26.629999160767	0.054518118500710	0.12613627314568	65.000000000000	0.00000000000000
26.639999389648	0.055565126240253	0.12770286202431	65.000000000000	0.00000000000000
26.649999618530	0.056616544723511	0.12926268577576	65.000000000000	0.00000000000000
26.659999847412	0.057672321796417	0.13081575930119	65.000000000000	0.00000000000000
26.670000076294	0.058732394129038	0.13236205279827	65.000000000000	0.00000000000000
26.680000305176	0.059796661138535	0.13390158116817	65.000000000000	0.00000000000000
26.690000534058	0.060865189880133	0.13543432950974	65.000000000000	0.00000000000000
26.700000762939	0.061937816441059	0.13696026802063	65.000000000000	0.00000000000000
26.709999084473	0.063014537096024	0.13847942650318	65.000000000000	0.00000000000000
26.719999313354	0.064095295965672	0.13999177515507	65.000000000000	0.00000000000000
26.729999542236	0.065180093050003	0.14149732887745	65.000000000000	0.00000000000000
26.739999771118	0.066268801689148	0.14299604296684	65.000000000000	0.00000000000000
26.750000000000	0.067361444234848	0.14448797702789	65.000000000000	0.00000000000000
26.760000228882	0.068457908928394	0.14597308635712	65.000000000000	0.00000000000000
26.770000457764	0.069558188319206	0.14745135605335	65.000000000000	0.00000000000000
26.780000686646	0.070662267506123	0.14892281591892	65.000000000000	0.00000000000000
26.790000915527	0.071770042181015	0.15038743615150	65.000000000000	0.00000000000000
26.799999237061	0.072881437838078	0.15184524655342	65.000000000000	0.00000000000000
26.809999465942	0.073996506631374	0.15329620242119	65.000000000000	0.00000000000000
26.819999694824	0.075115092098713	0.15474033355713	65.000000000000	0.00000000000000
26.829999923706	0.076237231492996	0.15617762506008	65.000000000000	0.00000000000000
26.840000152588	0.077362865209579	0.15760809183121	65.000000000000	0.00000000000000
26.850000381470	0.078491888940334	0.15903171896935	65.000000000000	0.00000000000000
26.860000610352	0.079624347388744	0.16044849157333	65.000000000000	0.00000000000000
26.870000839233	0.080760098993778	0.16185842454433	65.000000000000	0.00000000000000
26.879999160767	0.081899158656597	0.16326153278351	65.000000000000	0.00000000000000
26.889999389648	0.083041459321976	0.16465778648853	65.000000000000	0.00000000000000
26.899999618530	0.084186993539333	0.16604721546173	65.000000000000	0.00000000000000
26.909999847412	0.085335619747639	0.16742981970310	65.000000000000	0.00000000000000
26.920000076294	0.086487382650375	0.16880558431149	65.000000000000	0.00000000000000
26.930000305176	0.087642252445221	0.17017450928688	65.000000000000	0.00000000000000
26.940000534058	0.088800080120564	0.17153660953045	65.000000000000	0.00000000000000
26.950000762939	0.089960902929306	0.17289185523987	65.000000000000	0.00000000000000
26.959999084473	0.091124638915062	0.17424029111862	65.000000000000	0.00000000000000
26.969999313354	0.092291340231895	0.17558193206787	65.000000000000	0.00000000000000
26.979999542236	0.093460753560066	0.17691673338413	65.000000000000	0.00000000000000
26.989999771118	0.094633094966412	0.17824472486973	65.000000000000	0.00000000000000
27.000000000000	0.095808111131191	0.17956590652466	65.000000000000	0.00000000000000
27.010000228882	0.096985824406147	0.18088026344776	65.000000000000	0.00000000000000
27.020000457764	0.098166227340698	0.18218784034252	65.000000000000	0.00000000000000
27.030000686646	0.099349245429039	0.18348860740662	65.000000000000	0.00000000000000
27.040000915527	0.10053482651711	0.18478257954121	65.000000000000	0.00000000000000
27.049999237061	0.10172300040722	0.18606975674629	65.000000000000	0.00000000000000
27.059999465942	0.10291366279125	0.18735015392303	65.000000000000	0.00000000000000
27.069999694824	0.10410674661398	0.18862378597260	65.000000000000	0.00000000000000
27.079999923706	0.10530219227076	0.18989063799381	65.000000000000	0.00000000000000
27.090000152588	0.10650004446507	0.19115073978901	65.000000000000	0.00000000000000
27.100000381470	0.10770022869110	0.19240410625935	65.000000000000	0.00000000000000
27.110000610352	0.10890270769596	0.19365067780018	65.000000000000	0.00000000000000
27.120000839233	0.11010742187500	0.19489054381847	65.000000000000	0.00000000000000
27.129999160767	0.11131430417299	0.19612364470959	65.000000000000	0.00000000000000
27.139999389648	0.11252331733704	0.19735005497932	65.000000000000	0.00000000000000
27.149999618530	0.11373452097178	0.19856968522072	65.000000000000	0.00000000000000
27.159999847412	0.11494774371386	0.19978265464306	65.000000000000	0.00000000000000
27.170000076294	0.11616302281618	0.20098891854286	65.000000000000	0.00000000000000
27.180000305176	0.11738030612469	0.20218844711781	65.000000000000	0.00000000000000
27.190000534058	0.11859954148531	0.20338132977486	65.000000000000	0.00000000000000
27.200000762939	0.11982067674398	0.20456752181053	65.000000000000	0.00000000000000
27.209999084473	0.12104370445013	0.20574706792831	65.000000000000	0.00000000000000
27.219999313354	0.12226856499910	0.20691993832588	65.000000000000	0.00000000000000
27.229999542236	0.12349519133568	0.20808617770672	65.000000000000	0.00000000000000
27.239999771118	0.12472359091043	0.20924577116966	65.000000000000	0.00000000000000
27.250000000000	0.12595376372337	0.21039871871471	65.000000000000	0.00000000000000
27.260000228882	0.12718558311462	0.21154506504536	65.000000000000	0.00000000000000
27.270000457764	0.12841898202896	0.21268482506275	65.000000000000	0.00000000000000
27.280000686646	0.12965399026871	0.21381796896458	65.000000000000	0.00000000000000
27.290000915527	0.13089062273502	0.21494454145432	65.000000000000	0.00000000000000
