#Parameters = {d=0.17701005025126; l2=3.5402010050251; lambda=7.0804020100503; r=0.023853874371859}
#"Frequency / GHz"	"S1,1 (lambda=7.0804) [Re]"	"S1,1 (lambda=7.0804) [Im]"	"Ref.Imp. [Re]"	"Ref.Imp. [Im]"
#---------------------------------------------------------------------------------------------------------
25.000000000000	0.84908825159073	-0.45436027646065	65.000000000000	0.00000000000000
25.010000228882	0.84880042076111	-0.45468714833260	65.000000000000	0.00000000000000
25.020000457764	0.84851199388504	-0.45501422882080	65.000000000000	0.00000000000000
25.030000686646	0.84822297096252	-0.45534142851830	65.000000000000	0.00000000000000
25.040000915527	0.84793329238892	-0.45566880702972	65.000000000000	0.00000000000000
25.049999237061	0.84764295816422	-0.45599627494812	65.000000000000	0.00000000000000
25.059999465942	0.84735208749771	-0.45632395148277	65.000000000000	0.00000000000000
25.069999694824	0.84706050157547	-0.45665177702904	65.000000000000	0.00000000000000
25.079999923706	0.84676837921143	-0.45697969198227	65.000000000000	0.00000000000000
25.090000152588	0.84647566080093	-0.45730781555176	65.000000000000	0.00000000000000
25.100000381470	0.84618216753006	-0.45763608813286	65.000000000000	0.00000000000000
25.110000610352	0.84588819742203	-0.45796453952789	65.000000000000	0.00000000000000
25.120000839233	0.84559351205826	-0.45829308032990	65.000000000000	0.00000000000000
25.129999160767	0.84529829025269	-0.45862179994583	65.000000000000	0.00000000000000
25.139999389648	0.84500241279602	-0.45895066857338	65.000000000000	0.00000000000000
25.149999618530	0.84470582008362	-0.45927968621254	65.000000000000	0.00000000000000
25.159999847412	0.84440869092941	-0.45960882306099	65.000000000000	0.00000000000000
25.170000076294	0.84411084651947	-0.45993816852570	65.000000000000	0.00000000000000
25.180000305176	0.84381252527237	-0.46026760339737	65.000000000000	0.00000000000000
25.190000534058	0.84351342916489	-0.46059721708298	65.000000000000	0.00000000000000
25.200000762939	0.84321373701096	-0.46092692017555	65.000000000000	0.00000000000000
25.209999084473	0.84291332960129	-0.46125683188438	65.000000000000	0.00000000000000
25.219999313354	0.84261244535446	-0.46158686280251	65.000000000000	0.00000000000000
25.229999542236	0.84231084585190	-0.46191707253456	65.000000000000	0.00000000000000
25.239999771118	0.84200859069824	-0.46224737167358	65.000000000000	0.00000000000000
25.250000000000	0.84170562028885	-0.46257784962654	65.000000000000	0.00000000000000
25.260000228882	0.84140205383301	-0.46290844678879	65.000000000000	0.00000000000000
25.270000457764	0.84109795093536	-0.46323922276497	65.000000000000	0.00000000000000
25.280000686646	0.84079301357269	-0.46357011795044	65.000000000000	0.00000000000000
25.290000915527	0.84048753976822	-0.46390116214752	65.000000000000	0.00000000000000
25.299999237061	0.84018141031265	-0.46423241496086	65.000000000000	0.00000000000000
25.309999465942	0.83987462520599	-0.46456369757652	65.000000000000	0.00000000000000
25.319999694824	0.83956718444824	-0.46489515900612	65.000000000000	0.00000000000000
25.329999923706	0.83925902843475	-0.46522673964500	65.000000000000	0.00000000000000
25.340000152588	0.83895039558411	-0.46555849909782	65.000000000000	0.00000000000000
25.350000381470	0.83864086866379	-0.46589040756226	65.000000000000	0.00000000000000
25.360000610352	0.83833080530167	-0.46622243523598	65.000000000000	0.00000000000000
25.370000839233	0.83802002668381	-0.46655461192131	65.000000000000	0.00000000000000
25.379999160767	0.83770859241486	-0.46688690781593	65.000000000000	0.00000000000000
25.389999389648	0.83739656209946	-0.46721935272217	65.000000000000	0.00000000000000
25.399999618530	0.83708381652832	-0.46755191683769	65.000000000000	0.00000000000000
25.409999847412	0.83677047491074	-0.46788460016251	65.000000000000	0.00000000000000
25.420000076294	0.83645635843277	-0.46821746230125	65.000000000000	0.00000000000000
25.430000305176	0.83614152669907	-0.46855047345161	65.000000000000	0.00000000000000
25.440000534058	0.83582615852356	-0.46888351440430	65.000000000000	0.00000000000000
25.450000762939	0.83551007509232	-0.46921682357788	65.000000000000	0.00000000000000
25.459999084473	0.83519327640533	-0.46955019235611	65.000000000000	0.00000000000000
25.469999313354	0.83487576246262	-0.46988373994827	65.000000000000	0.00000000000000
25.479999542236	0.83455771207809	-0.47021734714508	65.000000000000	0.00000000000000
25.489999771118	0.83423888683319	-0.47055116295815	65.000000000000	0.00000000000000
25.500000000000	0.83391940593719	-0.47088506817818	65.000000000000	0.00000000000000
25.510000228882	0.83359915018082	-0.47121909260750	65.000000000000	0.00000000000000
25.520000457764	0.83327829837799	-0.47155323624611	65.000000000000	0.00000000000000
25.530000686646	0.83295679092407	-0.47188758850098	65.000000000000	0.00000000000000
25.540000915527	0.83263444900513	-0.47222203016281	65.000000000000	0.00000000000000
25.549999237061	0.83231174945831	-0.47255653142929	65.000000000000	0.00000000000000
25.559999465942	0.83198809623718	-0.47289124131203	65.000000000000	0.00000000000000
25.569999694824	0.83166372776031	-0.47322595119476	65.000000000000	0.00000000000000
25.579999923706	0.83133888244629	-0.47356075048447	65.000000000000	0.00000000000000
25.590000152588	0.83101308345795	-0.47389593720436	65.000000000000	0.00000000000000
25.600000381470	0.83068668842316	-0.47423118352890	65.000000000000	0.00000000000000
25.610000610352	0.83035939931870	-0.47456684708595	65.000000000000	0.00000000000000
25.620000839233	0.83003163337708	-0.47490212321281	65.000000000000	0.00000000000000
25.629999160767	0.82970327138901	-0.47523742914200	65.000000000000	0.00000000000000
25.639999389648	0.82937401533127	-0.47557315230370	65.000000000000	0.00000000000000
25.649999618530	0.82904416322708	-0.47590893507004	65.000000000000	0.00000000000000
25.659999847412	0.82871341705322	-0.47624510526657	65.000000000000	0.00000000000000
25.670000076294	0.82838219404221	-0.47658088803291	65.000000000000	0.00000000000000
25.680000305176	0.82805013656616	-0.47691711783409	65.000000000000	0.00000000000000
25.690000534058	0.82771736383438	-0.47725334763527	65.000000000000	0.00000000000000
25.700000762939	0.82738381624222	-0.47758996486664	65.000000000000	0.00000000000000
25.709999084473	0.82704973220825	-0.47792622447014	65.000000000000	0.00000000000000
25.719999313354	0.82671457529068	-0.47826328873634	65.000000000000	0.00000000000000
25.729999542236	0.82637929916382	-0.47859954833984	65.000000000000	0.00000000000000
25.739999771118	0.82604277133942	-0.47893661260605	65.000000000000	0.00000000000000
25.750000000000	0.82570570707321	-0.47927373647690	65.000000000000	0.00000000000000
25.760000228882	0.82536792755127	-0.47961083054543	65.000000000000	0.00000000000000
25.770000457764	0.82502913475037	-0.47994825243950	65.000000000000	0.00000000000000
25.780000686646	0.82469010353088	-0.48028537631035	65.000000000000	0.00000000000000
25.790000915527	0.82435011863708	-0.48062279820442	65.000000000000	0.00000000000000
25.799999237061	0.82400935888290	-0.48096033930779	65.000000000000	0.00000000000000
25.809999465942	0.82366782426834	-0.48129796981812	65.000000000000	0.00000000000000
25.819999694824	0.82332575321198	-0.48163580894470	65.000000000000	0.00000000000000
25.829999923706	0.82298284769058	-0.48197370767593	65.000000000000	0.00000000000000
25.840000152588	0.82263922691345	-0.48231169581413	65.000000000000	0.00000000000000
25.850000381470	0.82229483127594	-0.48264983296394	65.000000000000	0.00000000000000
25.860000610352	0.82194972038269	-0.48298802971840	65.000000000000	0.00000000000000
25.870000839233	0.82160371541977	-0.48332640528679	65.000000000000	0.00000000000000
25.879999160767	0.82125711441040	-0.48366481065750	65.000000000000	0.00000000000000
25.889999389648	0.82090991735458	-0.48400333523750	65.000000000000	0.00000000000000
25.899999618530	0.82056170701981	-0.48434200882912	65.000000000000	0.00000000000000
25.909999847412	0.82021284103394	-0.48468077182770	65.000000000000	0.00000000000000
25.920000076294	0.81986314058304	-0.48501959443092	65.000000000000	0.00000000000000
25.930000305176	0.81951284408569	-0.48535853624344	65.000000000000	0.00000000000000
25.940000534058	0.81916171312332	-0.48569756746292	65.000000000000	0.00000000000000
25.950000762939	0.81880980730057	-0.48603677749634	65.000000000000	0.00000000000000
25.959999084473	0.81845724582672	-0.48637601733208	65.000000000000	0.00000000000000
25.969999313354	0.81810373067856	-0.48671543598175	65.000000000000	0.00000000000000
25.979999542236	0.81774961948395	-0.48705485463142	65.000000000000	0.00000000000000
25.989999771118	0.81739467382431	-0.48739439249039	65.000000000000	0.00000000000000
26.000000000000	0.81703907251358	-0.48773407936096	65.000000000000	0.00000000000000
26.010000228882	0.81668251752853	-0.48807382583618	65.000000000000	0.00000000000000
26.020000457764	0.81632530689240	-0.48841366171837	65.000000000000	0.00000000000000
26.030000686646	0.81596726179123	-0.48875364661217	65.000000000000	0.00000000000000
26.040000915527	0.81560862064362	-0.48909363150597	65.000000000000	0.00000000000000
26.049999237061	0.81524908542633	-0.48943376541138	65.000000000000	0.00000000000000
26.059999465942	0.81488865613937	-0.48977392911911	65.000000000000	0.00000000000000
26.069999694824	0.81452763080597	-0.49011430144310	65.000000000000	0.00000000000000
26.079999923706	0.81416565179825	-0.49045467376709	65.000000000000	0.00000000000000
26.090000152588	0.81380301713943	-0.49079522490501	65.000000000000	0.00000000000000
26.100000381470	0.81343960762024	-0.49113580584526	65.000000000000	0.00000000000000
26.110000610352	0.81307548284531	-0.49147644639015	65.000000000000	0.00000000000000
26.120000839233	0.81271034479141	-0.49181720614433	65.000000000000	0.00000000000000
26.129999160767	0.81234449148178	-0.49215805530548	65.000000000000	0.00000000000000
26.139999389648	0.81197792291641	-0.49249899387360	65.000000000000	0.00000000000000
26.149999618530	0.81161063909531	-0.49284002184868	65.000000000000	0.00000000000000
26.159999847412	0.81124234199524	-0.49318107962608	65.000000000000	0.00000000000000
26.170000076294	0.81087350845337	-0.49352222681046	65.000000000000	0.00000000000000
26.180000305176	0.81050366163254	-0.49386352300644	65.000000000000	0.00000000000000
26.190000534058	0.81013303995132	-0.49420487880707	65.000000000000	0.00000000000000
26.200000762939	0.80976170301437	-0.49454629421234	65.000000000000	0.00000000000000
26.209999084473	0.80938941240311	-0.49488782882690	65.000000000000	0.00000000000000
26.219999313354	0.80901640653610	-0.49522939324379	65.000000000000	0.00000000000000
26.229999542236	0.80864256620407	-0.49557107686996	65.000000000000	0.00000000000000
26.239999771118	0.80826801061630	-0.49591276049614	65.000000000000	0.00000000000000
26.250000000000	0.80789268016815	-0.49625462293625	65.000000000000	0.00000000000000
26.260000228882	0.80751633644104	-0.49659645557404	65.000000000000	0.00000000000000
26.270000457764	0.80713939666748	-0.49693837761879	65.000000000000	0.00000000000000
26.280000686646	0.80676150321960	-0.49728050827980	65.000000000000	0.00000000000000
26.290000915527	0.80638277530670	-0.49762257933617	65.000000000000	0.00000000000000
26.299999237061	0.80600333213806	-0.49796473979950	65.000000000000	0.00000000000000
26.309999465942	0.80562305450439	-0.49830698966980	65.000000000000	0.00000000000000
26.319999694824	0.80524176359177	-0.49864929914474	65.000000000000	0.00000000000000
26.329999923706	0.80485981702805	-0.49899166822433	65.000000000000	0.00000000000000
26.340000152588	0.80447703599930	-0.49933406710625	65.000000000000	0.00000000000000
26.350000381470	0.80409342050552	-0.49967658519745	65.000000000000	0.00000000000000
26.360000610352	0.80370897054672	-0.50001919269562	65.000000000000	0.00000000000000
26.370000839233	0.80332362651825	-0.50036180019379	65.000000000000	0.00000000000000
26.379999160767	0.80293750762939	-0.50070452690125	65.000000000000	0.00000000000000
26.389999389648	0.80255055427551	-0.50104731321335	65.000000000000	0.00000000000000
26.399999618530	0.80216270685196	-0.50139015913010	65.000000000000	0.00000000000000
26.409999847412	0.80177408456802	-0.50173306465149	65.000000000000	0.00000000000000
26.420000076294	0.80138456821442	-0.50207591056824	65.000000000000	0.00000000000000
26.430000305176	0.80099427700043	-0.50241893529892	65.000000000000	0.00000000000000
26.440000534058	0.80060297250748	-0.50276196002960	65.000000000000	0.00000000000000
26.450000762939	0.80021107196808	-0.50310510396957	65.000000000000	0.00000000000000
26.459999084473	0.79981803894043	-0.50344830751419	65.000000000000	0.00000000000000
26.469999313354	0.79942440986633	-0.50379145145416	65.000000000000	0.00000000000000
26.479999542236	0.79902970790863	-0.50413471460342	65.000000000000	0.00000000000000
26.489999771118	0.79863423109055	-0.50447803735733	65.000000000000	0.00000000000000
26.500000000000	0.79823791980743	-0.50482136011124	65.000000000000	0.00000000000000
26.510000228882	0.79784071445465	-0.50516480207443	65.000000000000	0.00000000000000
26.520000457764	0.79744273424149	-0.50550830364227	65.000000000000	0.00000000000000
26.530000686646	0.79704380035400	-0.50585174560547	65.000000000000	0.00000000000000
26.540000915527	0.79664415121078	-0.50619530677795	65.000000000000	0.00000000000000
26.549999237061	0.79624354839325	-0.50653886795044	65.000000000000	0.00000000000000
26.559999465942	0.79584187269211	-0.50688260793686	65.000000000000	0.00000000000000
26.569999694824	0.79543954133987	-0.50722616910934	65.000000000000	0.00000000000000
26.579999923706	0.79503625631332	-0.50756990909576	65.000000000000	0.00000000000000
26.590000152588	0.79463213682175	-0.50791364908218	65.000000000000	0.00000000000000
26.600000381470	0.79422718286514	-0.50825744867325	65.000000000000	0.00000000000000
26.610000610352	0.79382127523422	-0.50860124826431	65.000000000000	0.00000000000000
26.620000839233	0.79341447353363	-0.50894516706467	65.000000000000	0.00000000000000
26.629999160767	0.79300677776337	-0.50928896665573	65.000000000000	0.00000000000000
26.639999389648	0.79259824752808	-0.50963294506073	65.000000000000	0.00000000000000
26.649999618530	0.79218888282776	-0.50997686386108	65.000000000000	0.00000000000000
26.659999847412	0.79177850484848	-0.51032090187073	65.000000000000	0.00000000000000
26.670000076294	0.79136723279953	-0.51066488027573	65.000000000000	0.00000000000000
26.680000305176	0.79095518589020	-0.51100891828537	65.000000000000	0.00000000000000
26.690000534058	0.79054212570190	-0.51135301589966	65.000000000000	0.00000000000000
26.700000762939	0.79012817144394	-0.51169711351395	65.000000000000	0.00000000000000
26.709999084473	0.78971344232559	-0.51204127073288	65.000000000000	0.00000000000000
26.719999313354	0.78929764032364	-0.51238536834717	65.000000000000	0.00000000000000
26.729999542236	0.78888112306595	-0.51272952556610	65.000000000000	0.00000000000000
26.739999771118	0.78846359252930	-0.51307368278503	65.000000000000	0.00000000000000
26.750000000000	0.78804516792297	-0.51341789960861	65.000000000000	0.00000000000000
26.760000228882	0.78762573003769	-0.51376217603683	65.000000000000	0.00000000000000
26.770000457764	0.78720551729202	-0.51410633325577	65.000000000000	0.00000000000000
26.780000686646	0.78678435087204	-0.51445060968399	65.000000000000	0.00000000000000
26.790000915527	0.78636234998703	-0.51479488611221	65.000000000000	0.00000000000000
26.799999237061	0.78593927621841	-0.51513916254044	65.000000000000	0.00000000000000
26.809999465942	0.78551530838013	-0.51548337936401	65.000000000000	0.00000000000000
26.819999694824	0.78509050607681	-0.51582771539688	65.000000000000	0.00000000000000
26.829999923706	0.78466469049454	-0.51617199182510	65.000000000000	0.00000000000000
26.840000152588	0.78423804044724	-0.51651632785797	65.000000000000	0.00000000000000
26.850000381470	0.78381031751633	-0.51686060428619	65.000000000000	0.00000000000000
26.860000610352	0.78338181972504	-0.51720494031906	65.000000000000	0.00000000000000
26.870000839233	0.78295224905014	-0.51754927635193	65.000000000000	0.00000000000000
26.879999160767	0.78252196311951	-0.51789349317551	65.000000000000	0.00000000000000
26.889999389648	0.78209048509598	-0.51823782920837	65.000000000000	0.00000000000000
26.899999618530	0.78165805339813	-0.51858216524124	65.000000000000	0.00000000000000
26.909999847412	0.78122484683990	-0.51892644166946	65.000000000000	0.00000000000000
26.920000076294	0.78079068660736	-0.51927077770233	65.000000000000	0.00000000000000
26.930000305176	0.78035551309586	-0.51961511373520	65.000000000000	0.00000000000000
26.940000534058	0.77991938591003	-0.51995933055878	65.000000000000	0.00000000000000
26.950000762939	0.77948230504990	-0.52030360698700	65.000000000000	0.00000000000000
26.959999084473	0.77904433012009	-0.52064782381058	65.000000000000	0.00000000000000
26.969999313354	0.77860540151596	-0.52099204063416	65.000000000000	0.00000000000000
26.979999542236	0.77816545963287	-0.52133631706238	65.000000000000	0.00000000000000
26.989999771118	0.77772456407547	-0.52168053388596	65.000000000000	0.00000000000000
27.000000000000	0.77728277444839	-0.52202475070953	65.000000000000	0.00000000000000
27.010000228882	0.77684003114700	-0.52236902713776	65.000000000000	0.00000000000000
27.020000457764	0.77639621496201	-0.52271312475204	65.000000000000	0.00000000000000
27.030000686646	0.77595156431198	-0.52305728197098	65.000000000000	0.00000000000000
27.040000915527	0.77550584077835	-0.52340137958527	65.000000000000	0.00000000000000
27.049999237061	0.77505904436111	-0.52374541759491	65.000000000000	0.00000000000000
27.059999465942	0.77461147308350	-0.52408939599991	65.000000000000	0.00000000000000
27.069999694824	0.77416282892227	-0.52443349361420	65.000000000000	0.00000000000000
27.079999923706	0.77371323108673	-0.52477753162384	65.000000000000	0.00000000000000
27.090000152588	0.77326267957687	-0.52512151002884	65.000000000000	0.00000000000000
27.100000381470	0.77281123399734	-0.52546542882919	65.000000000000	0.00000000000000
27.110000610352	0.77235865592957	-0.52580928802490	65.000000000000	0.00000000000000
27.120000839233	0.77190500497818	-0.52615314722061	65.000000000000	0.00000000000000
27.129999160767	0.77145057916641	-0.52649700641632	65.000000000000	0.00000000000000
27.139999389648	0.77099508047104	-0.52684080600739	65.000000000000	0.00000000000000
27.149999618530	0.77053850889206	-0.52718454599380	65.000000000000	0.00000000000000
27.159999847412	0.77008110284805	-0.52752822637558	65.000000000000	0.00000000000000
27.170000076294	0.76962256431580	-0.52787190675735	65.000000000000	0.00000000000000
27.180000305176	0.76916307210922	-0.52821546792984	65.000000000000	0.00000000000000
27.190000534058	0.76870262622833	-0.52855896949768	65.000000000000	0.00000000000000
27.200000762939	0.76824104785919	-0.52890253067017	65.000000000000	0.00000000000000
27.209999084473	0.76777857542038	-0.52924597263336	65.000000000000	0.00000000000000
27.219999313354	0.76731503009796	-0.52958941459656	65.000000000000	0.00000000000000
27.229999542236	0.76685059070587	-0.52993273735046	65.000000000000	0.00000000000000
27.239999771118	0.76638507843018	-0.53027600049973	65.000000000000	0.00000000000000
27.250000000000	0.76591849327087	-0.53061926364899	65.000000000000	0.00000000000000
27.260000228882	0.76545101404190	-0.53096240758896	65.000000000000	0.00000000000000
27.270000457764	0.76498234272003	-0.53130549192429	65.000000000000	0.00000000000000
27.280000686646	0.76451283693314	-0.53164857625961	65.000000000000	0.00000000000000
27.290000915527	0.76404207944870	-0.53199148178101	65.000000000000	0.00000000000000
27.299999237061	0.76357048749924	-0.53233438730240	65.000000000000	0.00000000000000
27.309999465942	0.76309776306152	-0.53267717361450	65.000000000000	0.00000000000000
27.319999694824	0.76262408494949	-0.53301995992661	65.000000000000	0.00000000000000
27.329999923706	0.76214927434921	-0.53336262702942	65.000000000000	0.00000000000000
