#Parameters = {d=0.21821608040201; l2=4.3643216080402; lambda=8.7286432160804; r=0.029406798994975}
#"Frequency / GHz"	"S1,1 (lambda=8.72864) [Re]"	"S1,1 (lambda=8.72864) [Im]"	"Ref.Imp. [Re]"	"Ref.Imp. [Im]"
#-----------------------------------------------------------------------------------------------------------
25.000000000000	0.52166479825974	-0.62714266777039	65.000000000000	0.00000000000000
25.010000228882	0.52047246694565	-0.62727242708206	65.000000000000	0.00000000000000
25.020000457764	0.51927810907364	-0.62739914655685	65.000000000000	0.00000000000000
25.030000686646	0.51808136701584	-0.62752294540405	65.000000000000	0.00000000000000
25.040000915527	0.51688265800476	-0.62764364480972	65.000000000000	0.00000000000000
25.049999237061	0.51568180322647	-0.62776136398315	65.000000000000	0.00000000000000
25.059999465942	0.51447868347168	-0.62787610292435	65.000000000000	0.00000000000000
25.069999694824	0.51327341794968	-0.62798774242401	65.000000000000	0.00000000000000
25.079999923706	0.51206612586975	-0.62809640169144	65.000000000000	0.00000000000000
25.090000152588	0.51085680723190	-0.62820196151733	65.000000000000	0.00000000000000
25.100000381470	0.50964534282684	-0.62830448150635	65.000000000000	0.00000000000000
25.110000610352	0.50843167304993	-0.62840390205383	65.000000000000	0.00000000000000
25.120000839233	0.50721609592438	-0.62850034236908	65.000000000000	0.00000000000000
25.129999160767	0.50599849224091	-0.62859362363815	65.000000000000	0.00000000000000
25.139999389648	0.50477862358093	-0.62868386507034	65.000000000000	0.00000000000000
25.149999618530	0.50355678796768	-0.62877106666565	65.000000000000	0.00000000000000
25.159999847412	0.50233292579651	-0.62885516881943	65.000000000000	0.00000000000000
25.170000076294	0.50110709667206	-0.62893611192703	65.000000000000	0.00000000000000
25.180000305176	0.49987912178040	-0.62901395559311	65.000000000000	0.00000000000000
25.190000534058	0.49864917993546	-0.62908869981766	65.000000000000	0.00000000000000
25.200000762939	0.49741721153259	-0.62916034460068	65.000000000000	0.00000000000000
25.209999084473	0.49618321657181	-0.62922888994217	65.000000000000	0.00000000000000
25.219999313354	0.49494737386703	-0.62929427623749	65.000000000000	0.00000000000000
25.229999542236	0.49370941519737	-0.62935656309128	65.000000000000	0.00000000000000
25.239999771118	0.49246940016747	-0.62941563129425	65.000000000000	0.00000000000000
25.250000000000	0.49122768640518	-0.62947160005569	65.000000000000	0.00000000000000
25.260000228882	0.48998376727104	-0.62952446937561	65.000000000000	0.00000000000000
25.270000457764	0.48873785138130	-0.62957412004471	65.000000000000	0.00000000000000
25.280000686646	0.48749011754990	-0.62962055206299	65.000000000000	0.00000000000000
25.290000915527	0.48624032735825	-0.62966382503510	65.000000000000	0.00000000000000
25.299999237061	0.48498868942261	-0.62970387935638	65.000000000000	0.00000000000000
25.309999465942	0.48373505473137	-0.62974083423615	65.000000000000	0.00000000000000
25.319999694824	0.48247945308685	-0.62977457046509	65.000000000000	0.00000000000000
25.329999923706	0.48122206330299	-0.62980508804321	65.000000000000	0.00000000000000
25.340000152588	0.47996264696121	-0.62983232736588	65.000000000000	0.00000000000000
25.350000381470	0.47870141267776	-0.62985640764236	65.000000000000	0.00000000000000
25.360000610352	0.47743800282478	-0.62987726926804	65.000000000000	0.00000000000000
25.370000839233	0.47617301344872	-0.62989485263824	65.000000000000	0.00000000000000
25.379999160767	0.47490596771240	-0.62990921735764	65.000000000000	0.00000000000000
25.389999389648	0.47363728284836	-0.62992012500763	65.000000000000	0.00000000000000
25.399999618530	0.47236615419388	-0.62992817163467	65.000000000000	0.00000000000000
25.409999847412	0.47109347581863	-0.62993276119232	65.000000000000	0.00000000000000
25.420000076294	0.46981889009476	-0.62993401288986	65.000000000000	0.00000000000000
25.430000305176	0.46854242682457	-0.62993198633194	65.000000000000	0.00000000000000
25.440000534058	0.46726414561272	-0.62992668151855	65.000000000000	0.00000000000000
25.450000762939	0.46598401665688	-0.62991797924042	65.000000000000	0.00000000000000
25.459999084473	0.46470203995705	-0.62990593910217	65.000000000000	0.00000000000000
25.469999313354	0.46341803669930	-0.62989079952240	65.000000000000	0.00000000000000
25.479999542236	0.46213218569756	-0.62987232208252	65.000000000000	0.00000000000000
25.489999771118	0.46084448695183	-0.62985044717789	65.000000000000	0.00000000000000
25.500000000000	0.45955500006676	-0.62982517480850	65.000000000000	0.00000000000000
25.510000228882	0.45826378464699	-0.62979644536972	65.000000000000	0.00000000000000
25.520000457764	0.45697081089020	-0.62976431846619	65.000000000000	0.00000000000000
25.530000686646	0.45567542314529	-0.62972921133041	65.000000000000	0.00000000000000
25.540000915527	0.45437896251678	-0.62969022989273	65.000000000000	0.00000000000000
25.549999237061	0.45308014750481	-0.62964820861816	65.000000000000	0.00000000000000
25.559999465942	0.45177984237671	-0.62960249185562	65.000000000000	0.00000000000000
25.569999694824	0.45047786831856	-0.62955331802368	65.000000000000	0.00000000000000
25.579999923706	0.44917353987694	-0.62950098514557	65.000000000000	0.00000000000000
25.590000152588	0.44786760210991	-0.62944519519806	65.000000000000	0.00000000000000
25.600000381470	0.44655990600586	-0.62938582897186	65.000000000000	0.00000000000000
25.610000610352	0.44525086879730	-0.62932276725769	65.000000000000	0.00000000000000
25.620000839233	0.44393920898438	-0.62925672531128	65.000000000000	0.00000000000000
25.629999160767	0.44262623786926	-0.62918692827225	65.000000000000	0.00000000000000
25.639999389648	0.44131159782410	-0.62911349534988	65.000000000000	0.00000000000000
25.649999618530	0.43999475240707	-0.62903684377670	65.000000000000	0.00000000000000
25.659999847412	0.43867653608322	-0.62895637750626	65.000000000000	0.00000000000000
25.670000076294	0.43735644221306	-0.62887257337570	65.000000000000	0.00000000000000
25.680000305176	0.43603444099426	-0.62878519296646	65.000000000000	0.00000000000000
25.690000534058	0.43471083045006	-0.62869423627853	65.000000000000	0.00000000000000
25.700000762939	0.43338534235954	-0.62859970331192	65.000000000000	0.00000000000000
25.709999084473	0.43205824494362	-0.62850153446198	65.000000000000	0.00000000000000
25.719999313354	0.43072929978371	-0.62839978933334	65.000000000000	0.00000000000000
25.729999542236	0.42939844727516	-0.62829458713531	65.000000000000	0.00000000000000
25.739999771118	0.42806616425514	-0.62818562984467	65.000000000000	0.00000000000000
25.750000000000	0.42673191428185	-0.62807303667068	65.000000000000	0.00000000000000
25.760000228882	0.42539590597153	-0.62795680761337	65.000000000000	0.00000000000000
25.770000457764	0.42405870556831	-0.62783670425415	65.000000000000	0.00000000000000
25.780000686646	0.42271932959557	-0.62771308422089	65.000000000000	0.00000000000000
25.790000915527	0.42137822508812	-0.62758588790894	65.000000000000	0.00000000000000
25.799999237061	0.42003533244133	-0.62745493650436	65.000000000000	0.00000000000000
25.809999465942	0.41869089007378	-0.62732023000717	65.000000000000	0.00000000000000
25.819999694824	0.41734471917152	-0.62718176841736	65.000000000000	0.00000000000000
25.829999923706	0.41599696874619	-0.62703955173492	65.000000000000	0.00000000000000
25.840000152588	0.41464745998383	-0.62689357995987	65.000000000000	0.00000000000000
25.850000381470	0.41329622268677	-0.62674385309219	65.000000000000	0.00000000000000
25.860000610352	0.41194325685501	-0.62659031152725	65.000000000000	0.00000000000000
25.870000839233	0.41058877110481	-0.62643301486969	65.000000000000	0.00000000000000
25.879999160767	0.40923249721527	-0.62627184391022	65.000000000000	0.00000000000000
25.889999389648	0.40787458419800	-0.62610685825348	65.000000000000	0.00000000000000
25.899999618530	0.40651506185532	-0.62593799829483	65.000000000000	0.00000000000000
25.909999847412	0.40515390038490	-0.62576520442963	65.000000000000	0.00000000000000
25.920000076294	0.40379101037979	-0.62558865547180	65.000000000000	0.00000000000000
25.930000305176	0.40242660045624	-0.62540817260742	65.000000000000	0.00000000000000
25.940000534058	0.40106043219566	-0.62522369623184	65.000000000000	0.00000000000000
25.950000762939	0.39969274401665	-0.62503534555435	65.000000000000	0.00000000000000
25.959999084473	0.39832350611687	-0.62484312057495	65.000000000000	0.00000000000000
25.969999313354	0.39695250988007	-0.62464678287506	65.000000000000	0.00000000000000
25.979999542236	0.39557987451553	-0.62444657087326	65.000000000000	0.00000000000000
25.989999771118	0.39420583844185	-0.62424224615097	65.000000000000	0.00000000000000
26.000000000000	0.39283025264740	-0.62403398752213	65.000000000000	0.00000000000000
26.010000228882	0.39145281910896	-0.62382167577744	65.000000000000	0.00000000000000
26.020000457764	0.39007395505905	-0.62360537052155	65.000000000000	0.00000000000000
26.030000686646	0.38869345188141	-0.62338489294052	65.000000000000	0.00000000000000
26.040000915527	0.38731157779694	-0.62316036224365	65.000000000000	0.00000000000000
26.049999237061	0.38592803478241	-0.62293171882629	65.000000000000	0.00000000000000
26.059999465942	0.38454303145409	-0.62269908189774	65.000000000000	0.00000000000000
26.069999694824	0.38315635919571	-0.62246215343475	65.000000000000	0.00000000000000
26.079999923706	0.38176828622818	-0.62222117185593	65.000000000000	0.00000000000000
26.090000152588	0.38037872314453	-0.62197601795197	65.000000000000	0.00000000000000
26.100000381470	0.37898740172386	-0.62172663211823	65.000000000000	0.00000000000000
26.110000610352	0.37759497761726	-0.62147301435471	65.000000000000	0.00000000000000
26.120000839233	0.37620085477829	-0.62121516466141	65.000000000000	0.00000000000000
26.129999160767	0.37480533123016	-0.62095314264297	65.000000000000	0.00000000000000
26.139999389648	0.37340807914734	-0.62068682909012	65.000000000000	0.00000000000000
26.149999618530	0.37200975418091	-0.62041622400284	65.000000000000	0.00000000000000
26.159999847412	0.37060981988907	-0.62014132738113	65.000000000000	0.00000000000000
26.170000076294	0.36920836567879	-0.61986213922501	65.000000000000	0.00000000000000
26.180000305176	0.36780554056168	-0.61957854032516	65.000000000000	0.00000000000000
26.190000534058	0.36640134453773	-0.61929070949554	65.000000000000	0.00000000000000
26.200000762939	0.36499577760696	-0.61899846792221	65.000000000000	0.00000000000000
26.209999084473	0.36358875036240	-0.61870181560516	65.000000000000	0.00000000000000
26.219999313354	0.36218047142029	-0.61840063333511	65.000000000000	0.00000000000000
26.229999542236	0.36077061295509	-0.61809515953064	65.000000000000	0.00000000000000
26.239999771118	0.35935956239700	-0.61778521537781	65.000000000000	0.00000000000000
26.250000000000	0.35794708132744	-0.61747080087662	65.000000000000	0.00000000000000
26.260000228882	0.35653343796730	-0.61715191602707	65.000000000000	0.00000000000000
26.270000457764	0.35511824488640	-0.61682850122452	65.000000000000	0.00000000000000
26.280000686646	0.35370185971260	-0.61650061607361	65.000000000000	0.00000000000000
26.290000915527	0.35228434205055	-0.61616808176041	65.000000000000	0.00000000000000
26.299999237061	0.35086533427238	-0.61583101749420	65.000000000000	0.00000000000000
26.309999465942	0.34944504499435	-0.61548942327499	65.000000000000	0.00000000000000
26.319999694824	0.34802365303040	-0.61514323949814	65.000000000000	0.00000000000000
26.329999923706	0.34660097956657	-0.61479240655899	65.000000000000	0.00000000000000
26.340000152588	0.34517693519592	-0.61443698406219	65.000000000000	0.00000000000000
26.350000381470	0.34375181794167	-0.61407679319382	65.000000000000	0.00000000000000
26.360000610352	0.34232559800148	-0.61371201276779	65.000000000000	0.00000000000000
26.370000839233	0.34089809656143	-0.61334246397018	65.000000000000	0.00000000000000
26.379999160767	0.33946952223778	-0.61296832561493	65.000000000000	0.00000000000000
26.389999389648	0.33803963661194	-0.61258935928345	65.000000000000	0.00000000000000
26.399999618530	0.33660864830017	-0.61220568418503	65.000000000000	0.00000000000000
26.409999847412	0.33517664670944	-0.61181718111038	65.000000000000	0.00000000000000
26.420000076294	0.33374339342117	-0.61142390966415	65.000000000000	0.00000000000000
26.430000305176	0.33230921626091	-0.61102586984634	65.000000000000	0.00000000000000
26.440000534058	0.33087393641472	-0.61062288284302	65.000000000000	0.00000000000000
26.450000762939	0.32943746447563	-0.61021506786346	65.000000000000	0.00000000000000
26.459999084473	0.32800012826920	-0.60980248451233	65.000000000000	0.00000000000000
26.469999313354	0.32656162977219	-0.60938495397568	65.000000000000	0.00000000000000
26.479999542236	0.32512223720551	-0.60896253585815	65.000000000000	0.00000000000000
26.489999771118	0.32368189096451	-0.60853517055511	65.000000000000	0.00000000000000
26.500000000000	0.32224041223526	-0.60810285806656	65.000000000000	0.00000000000000
26.510000228882	0.32079833745956	-0.60766553878784	65.000000000000	0.00000000000000
26.520000457764	0.31935498118401	-0.60722333192825	65.000000000000	0.00000000000000
26.530000686646	0.31791085004807	-0.60677599906921	65.000000000000	0.00000000000000
26.540000915527	0.31646591424942	-0.60632377862930	65.000000000000	0.00000000000000
26.549999237061	0.31501987576485	-0.60586637258530	65.000000000000	0.00000000000000
26.559999465942	0.31357318162918	-0.60540401935577	65.000000000000	0.00000000000000
26.569999694824	0.31212550401688	-0.60493654012680	65.000000000000	0.00000000000000
26.579999923706	0.31067717075348	-0.60446393489838	65.000000000000	0.00000000000000
26.590000152588	0.30922803282738	-0.60398626327515	65.000000000000	0.00000000000000
26.600000381470	0.30777800083160	-0.60350346565247	65.000000000000	0.00000000000000
26.610000610352	0.30632749199867	-0.60301548242569	65.000000000000	0.00000000000000
26.620000839233	0.30487596988678	-0.60252225399017	65.000000000000	0.00000000000000
26.629999160767	0.30342388153076	-0.60202395915985	65.000000000000	0.00000000000000
26.639999389648	0.30197113752365	-0.60152041912079	65.000000000000	0.00000000000000
26.649999618530	0.30051755905151	-0.60101163387299	65.000000000000	0.00000000000000
26.659999847412	0.29906347393990	-0.60049754381180	65.000000000000	0.00000000000000
26.670000076294	0.29760861396790	-0.59997826814651	65.000000000000	0.00000000000000
26.680000305176	0.29615330696106	-0.59945362806320	65.000000000000	0.00000000000000
26.690000534058	0.29469758272171	-0.59892368316650	65.000000000000	0.00000000000000
26.700000762939	0.29324099421501	-0.59838849306107	65.000000000000	0.00000000000000
26.709999084473	0.29178401827812	-0.59784799814224	65.000000000000	0.00000000000000
26.719999313354	0.29032653570175	-0.59730201959610	65.000000000000	0.00000000000000
26.729999542236	0.28886854648590	-0.59675073623657	65.000000000000	0.00000000000000
26.739999771118	0.28741011023521	-0.59619408845901	65.000000000000	0.00000000000000
26.750000000000	0.28595122694969	-0.59563201665878	65.000000000000	0.00000000000000
26.760000228882	0.28449189662933	-0.59506446123123	65.000000000000	0.00000000000000
26.770000457764	0.28303232789040	-0.59449160099030	65.000000000000	0.00000000000000
26.780000686646	0.28157225251198	-0.59391313791275	65.000000000000	0.00000000000000
26.790000915527	0.28011193871498	-0.59332931041718	65.000000000000	0.00000000000000
26.799999237061	0.27865117788315	-0.59273988008499	65.000000000000	0.00000000000000
26.809999465942	0.27719026803970	-0.59214502573013	65.000000000000	0.00000000000000
26.819999694824	0.27572917938232	-0.59154456853867	65.000000000000	0.00000000000000
26.829999923706	0.27426770329475	-0.59093868732452	65.000000000000	0.00000000000000
26.840000152588	0.27280601859093	-0.59032714366913	65.000000000000	0.00000000000000
26.850000381470	0.27134424448013	-0.58971005678177	65.000000000000	0.00000000000000
26.860000610352	0.26988229155540	-0.58908736705780	65.000000000000	0.00000000000000
26.870000839233	0.26842004060745	-0.58845913410187	65.000000000000	0.00000000000000
26.879999160767	0.26695796847343	-0.58782517910004	65.000000000000	0.00000000000000
26.889999389648	0.26549559831619	-0.58718562126160	65.000000000000	0.00000000000000
26.899999618530	0.26403343677521	-0.58654046058655	65.000000000000	0.00000000000000
26.909999847412	0.26257112622261	-0.58588957786560	65.000000000000	0.00000000000000
26.920000076294	0.26110887527466	-0.58523303270340	65.000000000000	0.00000000000000
26.930000305176	0.25964650511742	-0.58457082509995	65.000000000000	0.00000000000000
26.940000534058	0.25818425416946	-0.58390283584595	65.000000000000	0.00000000000000
26.950000762939	0.25672221183777	-0.58322924375534	65.000000000000	0.00000000000000
26.959999084473	0.25526010990143	-0.58254981040955	65.000000000000	0.00000000000000
26.969999313354	0.25379839539528	-0.58186465501785	65.000000000000	0.00000000000000
26.979999542236	0.25233668088913	-0.58117371797562	65.000000000000	0.00000000000000
26.989999771118	0.25087535381317	-0.58047693967819	65.000000000000	0.00000000000000
27.000000000000	0.24941408634186	-0.57977449893951	65.000000000000	0.00000000000000
27.010000228882	0.24795329570770	-0.57906621694565	65.000000000000	0.00000000000000
27.020000457764	0.24649260938168	-0.57835203409195	65.000000000000	0.00000000000000
27.030000686646	0.24503247439861	-0.57763206958771	65.000000000000	0.00000000000000
27.040000915527	0.24357260763645	-0.57690620422363	65.000000000000	0.00000000000000
27.049999237061	0.24211320281029	-0.57617455720901	65.000000000000	0.00000000000000
27.059999465942	0.24065414071083	-0.57543694972992	65.000000000000	0.00000000000000
27.069999694824	0.23919543623924	-0.57469356060028	65.000000000000	0.00000000000000
27.079999923706	0.23773729801178	-0.57394421100616	65.000000000000	0.00000000000000
27.090000152588	0.23627987504005	-0.57318896055222	65.000000000000	0.00000000000000
27.100000381470	0.23482273519039	-0.57242780923843	65.000000000000	0.00000000000000
27.110000610352	0.23336622118950	-0.57166075706482	65.000000000000	0.00000000000000
27.120000839233	0.23191051185131	-0.57088774442673	65.000000000000	0.00000000000000
27.129999160767	0.23045533895493	-0.57010877132416	65.000000000000	0.00000000000000
27.139999389648	0.22900076210499	-0.56932383775711	65.000000000000	0.00000000000000
27.149999618530	0.22754703462124	-0.56853294372559	65.000000000000	0.00000000000000
27.159999847412	0.22609406709671	-0.56773602962494	65.000000000000	0.00000000000000
27.170000076294	0.22464178502560	-0.56693315505981	65.000000000000	0.00000000000000
27.180000305176	0.22319030761719	-0.56612426042557	65.000000000000	0.00000000000000
27.190000534058	0.22173982858658	-0.56530940532684	65.000000000000	0.00000000000000
27.200000762939	0.22029010951519	-0.56448847055435	65.000000000000	0.00000000000000
27.209999084473	0.21884143352509	-0.56366151571274	65.000000000000	0.00000000000000
27.219999313354	0.21739356219769	-0.56282854080200	65.000000000000	0.00000000000000
27.229999542236	0.21594668924809	-0.56198960542679	65.000000000000	0.00000000000000
27.239999771118	0.21450093388557	-0.56114453077316	65.000000000000	0.00000000000000
27.250000000000	0.21305607259274	-0.56029337644577	65.000000000000	0.00000000000000
27.260000228882	0.21161241829395	-0.55943614244461	65.000000000000	0.00000000000000
27.270000457764	0.21016986668110	-0.55857288837433	65.000000000000	0.00000000000000
27.280000686646	0.20872844755650	-0.55770355463028	65.000000000000	0.00000000000000
27.290000915527	0.20728830993176	-0.55682808160782	65.000000000000	0.00000000000000
27.299999237061	0.20584934949875	-0.55594652891159	65.000000000000	0.00000000000000
27.309999465942	0.20441164076328	-0.55505895614624	65.000000000000	0.00000000000000
27.319999694824	0.20297515392303	-0.55416518449783	65.000000000000	0.00000000000000
27.329999923706	0.20154008269310	-0.55326527357101	65.000000000000	0.00000000000000
