#Parameters = {d=0.2322864321608; l2=4.6457286432161; lambda=9.2914572864322; r=0.03130291959799}
#"Frequency / GHz"	"S1,1 (lambda=9.29146) [Re]"	"S1,1 (lambda=9.29146) [Im]"	"Ref.Imp. [Re]"	"Ref.Imp. [Im]"
#-----------------------------------------------------------------------------------------------------------
25.000000000000	0.30812534689903	-0.60333269834518	65.000000000000	0.00000000000000
25.010000228882	0.30658802390099	-0.60280704498291	65.000000000000	0.00000000000000
25.020000457764	0.30505007505417	-0.60227566957474	65.000000000000	0.00000000000000
25.030000686646	0.30351150035858	-0.60173863172531	65.000000000000	0.00000000000000
25.040000915527	0.30197232961655	-0.60119593143463	65.000000000000	0.00000000000000
25.049999237061	0.30043256282806	-0.60064756870270	65.000000000000	0.00000000000000
25.059999465942	0.29889243841171	-0.60009348392487	65.000000000000	0.00000000000000
25.069999694824	0.29735171794891	-0.59953367710114	65.000000000000	0.00000000000000
25.079999923706	0.29581043124199	-0.59896820783615	65.000000000000	0.00000000000000
25.090000152588	0.29426878690720	-0.59839683771133	65.000000000000	0.00000000000000
25.100000381470	0.29272666573524	-0.59781968593597	65.000000000000	0.00000000000000
25.110000610352	0.29118400812149	-0.59723687171936	65.000000000000	0.00000000000000
25.120000839233	0.28964108228683	-0.59664821624756	65.000000000000	0.00000000000000
25.129999160767	0.28809776902199	-0.59605365991592	65.000000000000	0.00000000000000
25.139999389648	0.28655397891998	-0.59545332193375	65.000000000000	0.00000000000000
25.149999618530	0.28500998020172	-0.59484696388245	65.000000000000	0.00000000000000
25.159999847412	0.28346556425095	-0.59423476457596	65.000000000000	0.00000000000000
25.170000076294	0.28192085027695	-0.59361672401428	65.000000000000	0.00000000000000
25.180000305176	0.28037574887276	-0.59299278259277	65.000000000000	0.00000000000000
25.190000534058	0.27883061766624	-0.59236276149750	65.000000000000	0.00000000000000
25.200000762939	0.27728521823883	-0.59172683954239	65.000000000000	0.00000000000000
25.209999084473	0.27573966979980	-0.59108489751816	65.000000000000	0.00000000000000
25.219999313354	0.27419373393059	-0.59043705463409	65.000000000000	0.00000000000000
25.229999542236	0.27264791727066	-0.58978307247162	65.000000000000	0.00000000000000
25.239999771118	0.27110177278519	-0.58912312984467	65.000000000000	0.00000000000000
25.250000000000	0.26955553889275	-0.58845704793930	65.000000000000	0.00000000000000
25.260000228882	0.26800924539566	-0.58778488636017	65.000000000000	0.00000000000000
25.270000457764	0.26646298170090	-0.58710670471191	65.000000000000	0.00000000000000
25.280000686646	0.26491674780846	-0.58642232418060	65.000000000000	0.00000000000000
25.290000915527	0.26337051391602	-0.58573174476624	65.000000000000	0.00000000000000
25.299999237061	0.26182439923286	-0.58503502607346	65.000000000000	0.00000000000000
25.309999465942	0.26027780771255	-0.58433234691620	65.000000000000	0.00000000000000
25.319999694824	0.25873193144798	-0.58362317085266	65.000000000000	0.00000000000000
25.329999923706	0.25718566775322	-0.58290809392929	65.000000000000	0.00000000000000
25.340000152588	0.25563985109329	-0.58218657970428	65.000000000000	0.00000000000000
25.350000381470	0.25409424304962	-0.58145880699158	65.000000000000	0.00000000000000
25.360000610352	0.25254863500595	-0.58072483539581	65.000000000000	0.00000000000000
25.370000839233	0.25100332498550	-0.57998466491699	65.000000000000	0.00000000000000
25.379999160767	0.24945858120918	-0.57923793792725	65.000000000000	0.00000000000000
25.389999389648	0.24791361391544	-0.57848519086838	65.000000000000	0.00000000000000
25.399999618530	0.24636904895306	-0.57772606611252	65.000000000000	0.00000000000000
25.409999847412	0.24482513964176	-0.57696038484573	65.000000000000	0.00000000000000
25.420000076294	0.24328169226646	-0.57618844509125	65.000000000000	0.00000000000000
25.430000305176	0.24173840880394	-0.57541012763977	65.000000000000	0.00000000000000
25.440000534058	0.24019560217857	-0.57462537288666	65.000000000000	0.00000000000000
25.450000762939	0.23865337669849	-0.57383424043655	65.000000000000	0.00000000000000
25.459999084473	0.23711138963699	-0.57303667068481	65.000000000000	0.00000000000000
25.469999313354	0.23557028174400	-0.57223260402679	65.000000000000	0.00000000000000
25.479999542236	0.23402979969978	-0.57142204046249	65.000000000000	0.00000000000000
25.489999771118	0.23248973488808	-0.57060509920120	65.000000000000	0.00000000000000
25.500000000000	0.23095031082630	-0.56978160142899	65.000000000000	0.00000000000000
25.510000228882	0.22941160202026	-0.56895154714584	65.000000000000	0.00000000000000
25.520000457764	0.22787368297577	-0.56811505556107	65.000000000000	0.00000000000000
25.530000686646	0.22633652389050	-0.56727194786072	65.000000000000	0.00000000000000
25.540000915527	0.22479993104935	-0.56642240285873	65.000000000000	0.00000000000000
25.549999237061	0.22326417267323	-0.56556624174118	65.000000000000	0.00000000000000
25.559999465942	0.22172960639000	-0.56470340490341	65.000000000000	0.00000000000000
25.569999694824	0.22019565105438	-0.56383401155472	65.000000000000	0.00000000000000
25.579999923706	0.21866293251514	-0.56295794248581	65.000000000000	0.00000000000000
25.590000152588	0.21713094413280	-0.56207531690598	65.000000000000	0.00000000000000
25.600000381470	0.21559996902943	-0.56118601560593	65.000000000000	0.00000000000000
25.610000610352	0.21407033503056	-0.56028997898102	65.000000000000	0.00000000000000
25.620000839233	0.21254150569439	-0.55938738584518	65.000000000000	0.00000000000000
25.629999160767	0.21101357042789	-0.55847823619843	65.000000000000	0.00000000000000
25.639999389648	0.20948730409145	-0.55756211280823	65.000000000000	0.00000000000000
25.649999618530	0.20796169340611	-0.55663955211639	65.000000000000	0.00000000000000
25.659999847412	0.20643761754036	-0.55571013689041	65.000000000000	0.00000000000000
25.670000076294	0.20491480827332	-0.55477404594421	65.000000000000	0.00000000000000
25.680000305176	0.20339328050613	-0.55383110046387	65.000000000000	0.00000000000000
25.690000534058	0.20187309384346	-0.55288147926331	65.000000000000	0.00000000000000
25.700000762939	0.20035432279110	-0.55192512273788	65.000000000000	0.00000000000000
25.709999084473	0.19883693754673	-0.55096203088760	65.000000000000	0.00000000000000
25.719999313354	0.19732129573822	-0.54999202489853	65.000000000000	0.00000000000000
25.729999542236	0.19580684602261	-0.54901534318924	65.000000000000	0.00000000000000
25.739999771118	0.19429394602776	-0.54803186655045	65.000000000000	0.00000000000000
25.750000000000	0.19278287887573	-0.54704153537750	65.000000000000	0.00000000000000
25.760000228882	0.19127310812473	-0.54604446887970	65.000000000000	0.00000000000000
25.770000457764	0.18976527452469	-0.54504048824310	65.000000000000	0.00000000000000
25.780000686646	0.18825910985470	-0.54402971267700	65.000000000000	0.00000000000000
25.790000915527	0.18675479292870	-0.54301208257675	65.000000000000	0.00000000000000
25.799999237061	0.18525220453739	-0.54198759794235	65.000000000000	0.00000000000000
25.809999465942	0.18375143408775	-0.54095625877380	65.000000000000	0.00000000000000
25.819999694824	0.18225246667862	-0.53991806507111	65.000000000000	0.00000000000000
25.829999923706	0.18075564503670	-0.53887295722961	65.000000000000	0.00000000000000
25.840000152588	0.17926073074341	-0.53782111406326	65.000000000000	0.00000000000000
25.850000381470	0.17776775360107	-0.53676229715347	65.000000000000	0.00000000000000
25.860000610352	0.17627689242363	-0.53569662570953	65.000000000000	0.00000000000000
25.870000839233	0.17478817701340	-0.53462409973145	65.000000000000	0.00000000000000
25.879999160767	0.17330166697502	-0.53354460000992	65.000000000000	0.00000000000000
25.889999389648	0.17181710898876	-0.53245836496353	65.000000000000	0.00000000000000
25.899999618530	0.17033495008945	-0.53136509656906	65.000000000000	0.00000000000000
25.909999847412	0.16885511577129	-0.53026491403580	65.000000000000	0.00000000000000
25.920000076294	0.16737748682499	-0.52915793657303	65.000000000000	0.00000000000000
25.930000305176	0.16590237617493	-0.52804404497147	65.000000000000	0.00000000000000
25.940000534058	0.16442956030369	-0.52692317962646	65.000000000000	0.00000000000000
25.950000762939	0.16295920312405	-0.52579540014267	65.000000000000	0.00000000000000
25.959999084473	0.16149148344994	-0.52466070652008	65.000000000000	0.00000000000000
25.969999313354	0.16002619266510	-0.52351915836334	65.000000000000	0.00000000000000
25.979999542236	0.15856359899044	-0.52237063646317	65.000000000000	0.00000000000000
25.989999771118	0.15710340440273	-0.52121537923813	65.000000000000	0.00000000000000
26.000000000000	0.15564624965191	-0.52005302906036	65.000000000000	0.00000000000000
26.010000228882	0.15419164299965	-0.51888382434845	65.000000000000	0.00000000000000
26.020000457764	0.15273980796337	-0.51770770549774	65.000000000000	0.00000000000000
26.030000686646	0.15129087865353	-0.51652467250824	65.000000000000	0.00000000000000
26.040000915527	0.14984478056431	-0.51533478498459	65.000000000000	0.00000000000000
26.049999237061	0.14840154349804	-0.51413792371750	65.000000000000	0.00000000000000
26.059999465942	0.14696136116982	-0.51293420791626	65.000000000000	0.00000000000000
26.069999694824	0.14552411437035	-0.51172363758087	65.000000000000	0.00000000000000
26.079999923706	0.14408998191357	-0.51050615310669	65.000000000000	0.00000000000000
26.090000152588	0.14265900850296	-0.50928175449371	65.000000000000	0.00000000000000
26.100000381470	0.14123110473156	-0.50805044174194	65.000000000000	0.00000000000000
26.110000610352	0.13980644941330	-0.50681233406067	65.000000000000	0.00000000000000
26.120000839233	0.13838493824005	-0.50556731224060	65.000000000000	0.00000000000000
26.129999160767	0.13696686923504	-0.50431549549103	65.000000000000	0.00000000000000
26.139999389648	0.13555215299129	-0.50305670499802	65.000000000000	0.00000000000000
26.149999618530	0.13414072990417	-0.50179111957550	65.000000000000	0.00000000000000
26.159999847412	0.13273276388645	-0.50051879882813	65.000000000000	0.00000000000000
26.170000076294	0.13132824003696	-0.49923944473267	65.000000000000	0.00000000000000
26.180000305176	0.12992726266384	-0.49795338511467	65.000000000000	0.00000000000000
26.190000534058	0.12852986156940	-0.49666050076485	65.000000000000	0.00000000000000
26.200000762939	0.12713618576527	-0.49536079168320	65.000000000000	0.00000000000000
26.209999084473	0.12574614584446	-0.49405425786972	65.000000000000	0.00000000000000
26.219999313354	0.12435967475176	-0.49274095892906	65.000000000000	0.00000000000000
26.229999542236	0.12297717481852	-0.49142089486122	65.000000000000	0.00000000000000
26.239999771118	0.12159845232964	-0.49009403586388	65.000000000000	0.00000000000000
26.250000000000	0.12022354453802	-0.48876047134399	65.000000000000	0.00000000000000
26.260000228882	0.11885248124599	-0.48742011189461	65.000000000000	0.00000000000000
26.270000457764	0.11748544126749	-0.48607301712036	65.000000000000	0.00000000000000
26.280000686646	0.11612234264612	-0.48471921682358	65.000000000000	0.00000000000000
26.290000915527	0.11476333439350	-0.48335874080658	65.000000000000	0.00000000000000
26.299999237061	0.11340857297182	-0.48199152946472	65.000000000000	0.00000000000000
26.309999465942	0.11205776035786	-0.48061767220497	65.000000000000	0.00000000000000
26.319999694824	0.11071128398180	-0.47923713922501	65.000000000000	0.00000000000000
26.329999923706	0.10936883836985	-0.47784993052483	65.000000000000	0.00000000000000
26.340000152588	0.10803091526031	-0.47645613551140	65.000000000000	0.00000000000000
26.350000381470	0.10669721662998	-0.47505566477776	65.000000000000	0.00000000000000
26.360000610352	0.10536791384220	-0.47364863753319	65.000000000000	0.00000000000000
26.370000839233	0.10404312610626	-0.47223499417305	65.000000000000	0.00000000000000
26.379999160767	0.10272270441055	-0.47081482410431	65.000000000000	0.00000000000000
26.389999389648	0.10140667110682	-0.46938806772232	65.000000000000	0.00000000000000
26.399999618530	0.10009551793337	-0.46795478463173	65.000000000000	0.00000000000000
26.409999847412	0.098788842558861	-0.46651497483253	65.000000000000	0.00000000000000
26.420000076294	0.097486674785614	-0.46506872773170	65.000000000000	0.00000000000000
26.430000305176	0.096189513802528	-0.46361595392227	65.000000000000	0.00000000000000
26.440000534058	0.094896942377090	-0.46215671300888	65.000000000000	0.00000000000000
26.450000762939	0.093609116971493	-0.46069109439850	65.000000000000	0.00000000000000
26.459999084473	0.092326194047928	-0.45921897888184	65.000000000000	0.00000000000000
26.469999313354	0.091048099100590	-0.45774057507515	65.000000000000	0.00000000000000
26.479999542236	0.089775085449219	-0.45625570416451	65.000000000000	0.00000000000000
26.489999771118	0.088506989181042	-0.45476451516151	65.000000000000	0.00000000000000
26.500000000000	0.087243944406509	-0.45326700806618	65.000000000000	0.00000000000000
26.510000228882	0.085985884070396	-0.45176315307617	65.000000000000	0.00000000000000
26.520000457764	0.084733076393604	-0.45025312900543	65.000000000000	0.00000000000000
26.530000686646	0.083485439419746	-0.44873672723770	65.000000000000	0.00000000000000
26.540000915527	0.082242913544178	-0.44721415638924	65.000000000000	0.00000000000000
26.549999237061	0.081005632877350	-0.44568535685539	65.000000000000	0.00000000000000
26.559999465942	0.079773761332035	-0.44415032863617	65.000000000000	0.00000000000000
26.569999694824	0.078547216951847	-0.44260919094086	65.000000000000	0.00000000000000
26.579999923706	0.077326044440269	-0.44106194376945	65.000000000000	0.00000000000000
26.590000152588	0.076110281050205	-0.43950855731964	65.000000000000	0.00000000000000
26.600000381470	0.074899964034557	-0.43794909119606	65.000000000000	0.00000000000000
26.610000610352	0.073695242404938	-0.43638357520103	65.000000000000	0.00000000000000
26.620000839233	0.072496034204960	-0.43481200933456	65.000000000000	0.00000000000000
26.629999160767	0.071302503347397	-0.43323445320129	65.000000000000	0.00000000000000
26.639999389648	0.070114575326443	-0.43165099620819	65.000000000000	0.00000000000000
26.649999618530	0.068932384252548	-0.43006151914597	65.000000000000	0.00000000000000
26.659999847412	0.067755870521069	-0.42846614122391	65.000000000000	0.00000000000000
26.670000076294	0.066585168242455	-0.42686492204666	65.000000000000	0.00000000000000
26.680000305176	0.065420329570770	-0.42525780200958	65.000000000000	0.00000000000000
26.690000534058	0.064261272549629	-0.42364490032196	65.000000000000	0.00000000000000
26.700000762939	0.063108250498772	-0.42202615737915	65.000000000000	0.00000000000000
26.709999084473	0.061961088329554	-0.42040169239044	65.000000000000	0.00000000000000
26.719999313354	0.060819927603006	-0.41877150535583	65.000000000000	0.00000000000000
26.729999542236	0.059684902429581	-0.41713562607765	65.000000000000	0.00000000000000
26.739999771118	0.058555848896503	-0.41549405455589	65.000000000000	0.00000000000000
26.750000000000	0.057432811707258	-0.41384688019753	65.000000000000	0.00000000000000
26.760000228882	0.056316018104553	-0.41219407320023	65.000000000000	0.00000000000000
26.770000457764	0.055205497890711	-0.41053572297096	65.000000000000	0.00000000000000
26.780000686646	0.054101198911667	-0.40887182950974	65.000000000000	0.00000000000000
26.790000915527	0.053003154695034	-0.40720245242119	65.000000000000	0.00000000000000
26.799999237061	0.051911387592554	-0.40552756190300	65.000000000000	0.00000000000000
26.809999465942	0.050825949758291	-0.40384730696678	65.000000000000	0.00000000000000
26.819999694824	0.049746964126825	-0.40216162800789	65.000000000000	0.00000000000000
26.829999923706	0.048674460500479	-0.40047061443329	65.000000000000	0.00000000000000
26.840000152588	0.047608386725187	-0.39877426624298	65.000000000000	0.00000000000000
26.850000381470	0.046548865735531	-0.39707261323929	65.000000000000	0.00000000000000
26.860000610352	0.045495837926865	-0.39536577463150	65.000000000000	0.00000000000000
26.870000839233	0.044449336826801	-0.39365366101265	65.000000000000	0.00000000000000
26.879999160767	0.043409489095211	-0.39193639159203	65.000000000000	0.00000000000000
26.889999389648	0.042376425117254	-0.39021399617195	65.000000000000	0.00000000000000
26.899999618530	0.041349895298481	-0.38848650455475	65.000000000000	0.00000000000000
26.909999847412	0.040330208837986	-0.38675388693810	65.000000000000	0.00000000000000
26.920000076294	0.039317309856415	-0.38501632213593	65.000000000000	0.00000000000000
26.930000305176	0.038311131298542	-0.38327378034592	65.000000000000	0.00000000000000
26.940000534058	0.037311803549528	-0.38152626156807	65.000000000000	0.00000000000000
26.950000762939	0.036319356411695	-0.37977385520935	65.000000000000	0.00000000000000
26.959999084473	0.035333827137947	-0.37801656126976	65.000000000000	0.00000000000000
26.969999313354	0.034355234354734	-0.37625443935394	65.000000000000	0.00000000000000
26.979999542236	0.033383619040251	-0.37448757886887	65.000000000000	0.00000000000000
26.989999771118	0.032419007271528	-0.37271597981453	65.000000000000	0.00000000000000
27.000000000000	0.031461428850889	-0.37093961238861	65.000000000000	0.00000000000000
27.010000228882	0.030511006712914	-0.36915862560272	65.000000000000	0.00000000000000
27.020000457764	0.029567679390311	-0.36737301945686	65.000000000000	0.00000000000000
27.030000686646	0.028631391003728	-0.36558285355568	65.000000000000	0.00000000000000
27.040000915527	0.027702432125807	-0.36378812789917	65.000000000000	0.00000000000000
27.049999237061	0.026780657470226	-0.36198893189430	65.000000000000	0.00000000000000
27.059999465942	0.025866007432342	-0.36018526554108	65.000000000000	0.00000000000000
27.069999694824	0.024958686903119	-0.35837721824646	65.000000000000	0.00000000000000
27.079999923706	0.024058721959591	-0.35656479001045	65.000000000000	0.00000000000000
27.090000152588	0.023165971040726	-0.35474807024002	65.000000000000	0.00000000000000
27.100000381470	0.022280633449554	-0.35292705893517	65.000000000000	0.00000000000000
27.110000610352	0.021402735263109	-0.35110178589821	65.000000000000	0.00000000000000
27.120000839233	0.020532218739390	-0.34927237033844	65.000000000000	0.00000000000000
27.129999160767	0.019669197499752	-0.34743884205818	65.000000000000	0.00000000000000
27.139999389648	0.018813526257873	-0.34560114145279	65.000000000000	0.00000000000000
27.149999618530	0.017965486273170	-0.34375941753387	65.000000000000	0.00000000000000
27.159999847412	0.017124939709902	-0.34191372990608	65.000000000000	0.00000000000000
27.170000076294	0.016291907057166	-0.34006404876709	65.000000000000	0.00000000000000
27.180000305176	0.015466579236090	-0.33821046352386	65.000000000000	0.00000000000000
27.190000534058	0.014648821204901	-0.33635303378105	65.000000000000	0.00000000000000
27.200000762939	0.013838654384017	-0.33449172973633	65.000000000000	0.00000000000000
27.209999084473	0.013036191463470	-0.33262670040131	65.000000000000	0.00000000000000
27.219999313354	0.012241370975971	-0.33075788617134	65.000000000000	0.00000000000000
27.229999542236	0.011454377323389	-0.32888546586037	65.000000000000	0.00000000000000
27.239999771118	0.010675000958145	-0.32700935006142	65.000000000000	0.00000000000000
27.250000000000	0.0099034979939461	-0.32512965798378	65.000000000000	0.00000000000000
27.260000228882	0.0091396607458591	-0.32324644923210	65.000000000000	0.00000000000000
27.270000457764	0.0083837434649467	-0.32135972380638	65.000000000000	0.00000000000000
27.280000686646	0.0076356162317097	-0.31946960091591	65.000000000000	0.00000000000000
27.290000915527	0.0068953786976635	-0.31757605075836	65.000000000000	0.00000000000000
27.299999237061	0.0061629763804376	-0.31567916274071	65.000000000000	0.00000000000000
27.309999465942	0.0054385839030147	-0.31377893686295	65.000000000000	0.00000000000000
27.319999694824	0.0047219237312675	-0.31187552213669	65.000000000000	0.00000000000000
