#Parameters = {d=0.18153266331658; l2=3.6306532663317; lambda=7.2613065326633; r=0.024463341708543}
#"Frequency / GHz"	"S1,1 (lambda=7.26131) [Re]"	"S1,1 (lambda=7.26131) [Im]"	"Ref.Imp. [Re]"	"Ref.Imp. [Im]"
#-----------------------------------------------------------------------------------------------------------
25.000000000000	0.82960850000381	-0.47527131438255	65.000000000000	0.00000000000000
25.010000228882	0.82927060127258	-0.47561565041542	65.000000000000	0.00000000000000
25.020000457764	0.82893204689026	-0.47596010565758	65.000000000000	0.00000000000000
25.030000686646	0.82859265804291	-0.47630468010902	65.000000000000	0.00000000000000
25.040000915527	0.82825243473053	-0.47664931416512	65.000000000000	0.00000000000000
25.049999237061	0.82791161537170	-0.47699415683746	65.000000000000	0.00000000000000
25.059999465942	0.82757002115250	-0.47733905911446	65.000000000000	0.00000000000000
25.069999694824	0.82722765207291	-0.47768405079842	65.000000000000	0.00000000000000
25.079999923706	0.82688462734222	-0.47802928090096	65.000000000000	0.00000000000000
25.090000152588	0.82654070854187	-0.47837451100349	65.000000000000	0.00000000000000
25.100000381470	0.82619613409042	-0.47871991991997	65.000000000000	0.00000000000000
25.110000610352	0.82585072517395	-0.47906538844109	65.000000000000	0.00000000000000
25.120000839233	0.82550460100174	-0.47941103577614	65.000000000000	0.00000000000000
25.129999160767	0.82515776157379	-0.47975674271584	65.000000000000	0.00000000000000
25.139999389648	0.82481008768082	-0.48010262846947	65.000000000000	0.00000000000000
25.149999618530	0.82446163892746	-0.48044860363007	65.000000000000	0.00000000000000
25.159999847412	0.82411247491837	-0.48079460859299	65.000000000000	0.00000000000000
25.170000076294	0.82376253604889	-0.48114082217216	65.000000000000	0.00000000000000
25.180000305176	0.82341170310974	-0.48148709535599	65.000000000000	0.00000000000000
25.190000534058	0.82306027412415	-0.48183348774910	65.000000000000	0.00000000000000
25.200000762939	0.82270807027817	-0.48218002915382	65.000000000000	0.00000000000000
25.209999084473	0.82235497236252	-0.48252665996552	65.000000000000	0.00000000000000
25.219999313354	0.82200109958649	-0.48287343978882	65.000000000000	0.00000000000000
25.229999542236	0.82164651155472	-0.48322024941444	65.000000000000	0.00000000000000
25.239999771118	0.82129126787186	-0.48356717824936	65.000000000000	0.00000000000000
25.250000000000	0.82093507051468	-0.48391425609589	65.000000000000	0.00000000000000
25.260000228882	0.82057803869247	-0.48426142334938	65.000000000000	0.00000000000000
25.270000457764	0.82022035121918	-0.48460865020752	65.000000000000	0.00000000000000
25.280000686646	0.81986182928085	-0.48495605587959	65.000000000000	0.00000000000000
25.290000915527	0.81950265169144	-0.48530349135399	65.000000000000	0.00000000000000
25.299999237061	0.81914246082306	-0.48565110564232	65.000000000000	0.00000000000000
25.309999465942	0.81878161430359	-0.48599877953529	65.000000000000	0.00000000000000
25.319999694824	0.81841987371445	-0.48634657263756	65.000000000000	0.00000000000000
25.329999923706	0.81805753707886	-0.48669448494911	65.000000000000	0.00000000000000
25.340000152588	0.81769418716431	-0.48704236745834	65.000000000000	0.00000000000000
25.350000381470	0.81733012199402	-0.48739048838615	65.000000000000	0.00000000000000
25.360000610352	0.81696534156799	-0.48773869872093	65.000000000000	0.00000000000000
25.370000839233	0.81659960746765	-0.48808693885803	65.000000000000	0.00000000000000
25.379999160767	0.81623321771622	-0.48843535780907	65.000000000000	0.00000000000000
25.389999389648	0.81586587429047	-0.48878383636475	65.000000000000	0.00000000000000
25.399999618530	0.81549775600433	-0.48913237452507	65.000000000000	0.00000000000000
25.409999847412	0.81512892246246	-0.48948109149933	65.000000000000	0.00000000000000
25.420000076294	0.81475925445557	-0.48982977867126	65.000000000000	0.00000000000000
25.430000305176	0.81438869237900	-0.49017864465714	65.000000000000	0.00000000000000
25.440000534058	0.81401735544205	-0.49052760004997	65.000000000000	0.00000000000000
25.450000762939	0.81364524364471	-0.49087661504745	65.000000000000	0.00000000000000
25.459999084473	0.81327223777771	-0.49122574925423	65.000000000000	0.00000000000000
25.469999313354	0.81289839744568	-0.49157497286797	65.000000000000	0.00000000000000
25.479999542236	0.81252378225327	-0.49192428588867	65.000000000000	0.00000000000000
25.489999771118	0.81214827299118	-0.49227365851402	65.000000000000	0.00000000000000
25.500000000000	0.81177210807800	-0.49262312054634	65.000000000000	0.00000000000000
25.510000228882	0.81139498949051	-0.49297270178795	65.000000000000	0.00000000000000
25.520000457764	0.81101703643799	-0.49332237243652	65.000000000000	0.00000000000000
25.530000686646	0.81063830852509	-0.49367210268974	65.000000000000	0.00000000000000
25.540000915527	0.81025862693787	-0.49402213096619	65.000000000000	0.00000000000000
25.549999237061	0.80987811088562	-0.49437201023102	65.000000000000	0.00000000000000
25.559999465942	0.80949699878693	-0.49472182989120	65.000000000000	0.00000000000000
25.569999694824	0.80911493301392	-0.49507188796997	65.000000000000	0.00000000000000
25.579999923706	0.80873173475266	-0.49542227387428	65.000000000000	0.00000000000000
25.590000152588	0.80834817886353	-0.49577218294144	65.000000000000	0.00000000000000
25.600000381470	0.80796337127686	-0.49612274765968	65.000000000000	0.00000000000000
25.610000610352	0.80757778882980	-0.49647319316864	65.000000000000	0.00000000000000
25.620000839233	0.80719155073166	-0.49682357907295	65.000000000000	0.00000000000000
25.629999160767	0.80680441856384	-0.49717378616333	65.000000000000	0.00000000000000
25.639999389648	0.80641621351242	-0.49752470850945	65.000000000000	0.00000000000000
25.649999618530	0.80602747201920	-0.49787512421608	65.000000000000	0.00000000000000
25.659999847412	0.80563741922379	-0.49822622537613	65.000000000000	0.00000000000000
25.670000076294	0.80524700880051	-0.49857676029205	65.000000000000	0.00000000000000
25.680000305176	0.80485528707504	-0.49892801046371	65.000000000000	0.00000000000000
25.690000534058	0.80446302890778	-0.49927872419357	65.000000000000	0.00000000000000
25.700000762939	0.80406987667084	-0.49962973594666	65.000000000000	0.00000000000000
25.709999084473	0.80367571115494	-0.49998095631599	65.000000000000	0.00000000000000
25.719999313354	0.80328094959259	-0.50033175945282	65.000000000000	0.00000000000000
25.729999542236	0.80288499593735	-0.50068306922913	65.000000000000	0.00000000000000
25.739999771118	0.80248802900314	-0.50103473663330	65.000000000000	0.00000000000000
25.750000000000	0.80209058523178	-0.50138580799103	65.000000000000	0.00000000000000
25.760000228882	0.80169200897217	-0.50173759460449	65.000000000000	0.00000000000000
25.770000457764	0.80129271745682	-0.50208878517151	65.000000000000	0.00000000000000
25.780000686646	0.80089235305786	-0.50244069099426	65.000000000000	0.00000000000000
25.790000915527	0.80049121379852	-0.50279206037521	65.000000000000	0.00000000000000
25.799999237061	0.80008912086487	-0.50314372777939	65.000000000000	0.00000000000000
25.809999465942	0.79968631267548	-0.50349551439285	65.000000000000	0.00000000000000
25.819999694824	0.79928243160248	-0.50384724140167	65.000000000000	0.00000000000000
25.829999923706	0.79887765645981	-0.50419908761978	65.000000000000	0.00000000000000
25.840000152588	0.79847216606140	-0.50455105304718	65.000000000000	0.00000000000000
25.850000381470	0.79806566238403	-0.50490295886993	65.000000000000	0.00000000000000
25.860000610352	0.79765820503235	-0.50525492429733	65.000000000000	0.00000000000000
25.870000839233	0.79724985361099	-0.50560700893402	65.000000000000	0.00000000000000
25.879999160767	0.79684072732925	-0.50595915317535	65.000000000000	0.00000000000000
25.889999389648	0.79643046855927	-0.50631123781204	65.000000000000	0.00000000000000
25.899999618530	0.79601949453354	-0.50666344165802	65.000000000000	0.00000000000000
25.909999847412	0.79560750722885	-0.50701576471329	65.000000000000	0.00000000000000
25.920000076294	0.79519474506378	-0.50736802816391	65.000000000000	0.00000000000000
25.930000305176	0.79478091001511	-0.50772035121918	65.000000000000	0.00000000000000
25.940000534058	0.79436624050140	-0.50807267427444	65.000000000000	0.00000000000000
25.950000762939	0.79395061731339	-0.50842511653900	65.000000000000	0.00000000000000
25.959999084473	0.79353410005569	-0.50877761840820	65.000000000000	0.00000000000000
25.969999313354	0.79311656951904	-0.50913006067276	65.000000000000	0.00000000000000
25.979999542236	0.79269826412201	-0.50948262214661	65.000000000000	0.00000000000000
25.989999771118	0.79227882623672	-0.50983518362045	65.000000000000	0.00000000000000
26.000000000000	0.79185861349106	-0.51018780469894	65.000000000000	0.00000000000000
26.010000228882	0.79143738746643	-0.51054048538208	65.000000000000	0.00000000000000
26.020000457764	0.79101532697678	-0.51089310646057	65.000000000000	0.00000000000000
26.030000686646	0.79059231281281	-0.51124578714371	65.000000000000	0.00000000000000
26.040000915527	0.79016828536987	-0.51159858703613	65.000000000000	0.00000000000000
26.049999237061	0.78974330425262	-0.51195132732391	65.000000000000	0.00000000000000
26.059999465942	0.78931736946106	-0.51230406761169	65.000000000000	0.00000000000000
26.069999694824	0.78889060020447	-0.51265686750412	65.000000000000	0.00000000000000
26.079999923706	0.78846275806427	-0.51300972700119	65.000000000000	0.00000000000000
26.090000152588	0.78803402185440	-0.51336252689362	65.000000000000	0.00000000000000
26.100000381470	0.78760433197021	-0.51371544599533	65.000000000000	0.00000000000000
26.110000610352	0.78717368841171	-0.51406830549240	65.000000000000	0.00000000000000
26.120000839233	0.78674197196960	-0.51442128419876	65.000000000000	0.00000000000000
26.129999160767	0.78630954027176	-0.51477426290512	65.000000000000	0.00000000000000
26.139999389648	0.78587597608566	-0.51512712240219	65.000000000000	0.00000000000000
26.149999618530	0.78544139862061	-0.51548010110855	65.000000000000	0.00000000000000
26.159999847412	0.78500598669052	-0.51583307981491	65.000000000000	0.00000000000000
26.170000076294	0.78456956148148	-0.51618605852127	65.000000000000	0.00000000000000
26.180000305176	0.78413200378418	-0.51653909683228	65.000000000000	0.00000000000000
26.190000534058	0.78369367122650	-0.51689207553864	65.000000000000	0.00000000000000
26.200000762939	0.78325432538986	-0.51724505424500	65.000000000000	0.00000000000000
26.209999084473	0.78281396627426	-0.51759815216064	65.000000000000	0.00000000000000
26.219999313354	0.78237265348434	-0.51795107126236	65.000000000000	0.00000000000000
26.229999542236	0.78193038702011	-0.51830410957336	65.000000000000	0.00000000000000
26.239999771118	0.78148698806763	-0.51865714788437	65.000000000000	0.00000000000000
26.250000000000	0.78104275465012	-0.51901018619537	65.000000000000	0.00000000000000
26.260000228882	0.78059750795364	-0.51936322450638	65.000000000000	0.00000000000000
26.270000457764	0.78015112876892	-0.51971626281738	65.000000000000	0.00000000000000
26.280000686646	0.77970391511917	-0.52006924152374	65.000000000000	0.00000000000000
26.290000915527	0.77925556898117	-0.52042222023010	65.000000000000	0.00000000000000
26.299999237061	0.77880638837814	-0.52077525854111	65.000000000000	0.00000000000000
26.309999465942	0.77835607528687	-0.52112817764282	65.000000000000	0.00000000000000
26.319999694824	0.77790480852127	-0.52148109674454	65.000000000000	0.00000000000000
26.329999923706	0.77745246887207	-0.52183413505554	65.000000000000	0.00000000000000
26.340000152588	0.77699923515320	-0.52218711376190	65.000000000000	0.00000000000000
26.350000381470	0.77654498815536	-0.52254003286362	65.000000000000	0.00000000000000
26.360000610352	0.77608954906464	-0.52289295196533	65.000000000000	0.00000000000000
26.370000839233	0.77563333511353	-0.52324575185776	65.000000000000	0.00000000000000
26.379999160767	0.77517592906952	-0.52359867095947	65.000000000000	0.00000000000000
26.389999389648	0.77471750974655	-0.52395147085190	65.000000000000	0.00000000000000
26.399999618530	0.77425819635391	-0.52430433034897	65.000000000000	0.00000000000000
26.409999847412	0.77379769086838	-0.52465713024139	65.000000000000	0.00000000000000
26.420000076294	0.77333629131317	-0.52500981092453	65.000000000000	0.00000000000000
26.430000305176	0.77287375926971	-0.52536261081696	65.000000000000	0.00000000000000
26.440000534058	0.77241021394730	-0.52571529150009	65.000000000000	0.00000000000000
26.450000762939	0.77194565534592	-0.52606791257858	65.000000000000	0.00000000000000
26.459999084473	0.77148020267487	-0.52642053365707	65.000000000000	0.00000000000000
26.469999313354	0.77101349830627	-0.52677321434021	65.000000000000	0.00000000000000
26.479999542236	0.77054584026337	-0.52712565660477	65.000000000000	0.00000000000000
26.489999771118	0.77007704973221	-0.52747815847397	65.000000000000	0.00000000000000
26.500000000000	0.76960724592209	-0.52783066034317	65.000000000000	0.00000000000000
26.510000228882	0.76913636922836	-0.52818304300308	65.000000000000	0.00000000000000
26.520000457764	0.76866465806961	-0.52853536605835	65.000000000000	0.00000000000000
26.530000686646	0.76819157600403	-0.52888780832291	65.000000000000	0.00000000000000
26.540000915527	0.76771759986877	-0.52924001216888	65.000000000000	0.00000000000000
26.549999237061	0.76724261045456	-0.52959227561951	65.000000000000	0.00000000000000
26.559999465942	0.76676660776138	-0.52994436025620	65.000000000000	0.00000000000000
26.569999694824	0.76628929376602	-0.53029644489288	65.000000000000	0.00000000000000
26.579999923706	0.76581102609634	-0.53064852952957	65.000000000000	0.00000000000000
26.590000152588	0.76533168554306	-0.53100055456161	65.000000000000	0.00000000000000
26.600000381470	0.76485145092010	-0.53135246038437	65.000000000000	0.00000000000000
26.610000610352	0.76436990499496	-0.53170430660248	65.000000000000	0.00000000000000
26.620000839233	0.76388752460480	-0.53205609321594	65.000000000000	0.00000000000000
26.629999160767	0.76340377330780	-0.53240782022476	65.000000000000	0.00000000000000
26.639999389648	0.76291906833649	-0.53275942802429	65.000000000000	0.00000000000000
26.649999618530	0.76243340969086	-0.53311103582382	65.000000000000	0.00000000000000
26.659999847412	0.76194649934769	-0.53346252441406	65.000000000000	0.00000000000000
26.670000076294	0.76145857572556	-0.53381401300430	65.000000000000	0.00000000000000
26.680000305176	0.76096951961517	-0.53416526317596	65.000000000000	0.00000000000000
26.690000534058	0.76047939062119	-0.53451651334763	65.000000000000	0.00000000000000
26.700000762939	0.75998812913895	-0.53486776351929	65.000000000000	0.00000000000000
26.709999084473	0.75949579477310	-0.53521883487701	65.000000000000	0.00000000000000
26.719999313354	0.75900238752365	-0.53556978702545	65.000000000000	0.00000000000000
26.729999542236	0.75850790739059	-0.53592079877853	65.000000000000	0.00000000000000
26.739999771118	0.75801235437393	-0.53627163171768	65.000000000000	0.00000000000000
26.750000000000	0.75751554965973	-0.53662234544754	65.000000000000	0.00000000000000
26.760000228882	0.75701767206192	-0.53697299957275	65.000000000000	0.00000000000000
26.770000457764	0.75651872158051	-0.53732359409332	65.000000000000	0.00000000000000
26.780000686646	0.75601863861084	-0.53767395019531	65.000000000000	0.00000000000000
26.790000915527	0.75551736354828	-0.53802430629730	65.000000000000	0.00000000000000
26.799999237061	0.75501507520676	-0.53837460279465	65.000000000000	0.00000000000000
26.809999465942	0.75451165437698	-0.53872466087341	65.000000000000	0.00000000000000
26.819999694824	0.75400710105896	-0.53907465934753	65.000000000000	0.00000000000000
26.829999923706	0.75350147485733	-0.53942459821701	65.000000000000	0.00000000000000
26.840000152588	0.75299453735352	-0.53977441787720	65.000000000000	0.00000000000000
26.850000381470	0.75248658657074	-0.54012411832809	65.000000000000	0.00000000000000
26.860000610352	0.75197762250900	-0.54047363996506	65.000000000000	0.00000000000000
26.870000839233	0.75146734714508	-0.54082310199738	65.000000000000	0.00000000000000
26.879999160767	0.75095593929291	-0.54117238521576	65.000000000000	0.00000000000000
26.889999389648	0.75044345855713	-0.54152154922485	65.000000000000	0.00000000000000
26.899999618530	0.74992978572845	-0.54187071323395	65.000000000000	0.00000000000000
26.909999847412	0.74941492080688	-0.54221957921982	65.000000000000	0.00000000000000
26.920000076294	0.74889910221100	-0.54256844520569	65.000000000000	0.00000000000000
26.930000305176	0.74838203191757	-0.54291707277298	65.000000000000	0.00000000000000
26.940000534058	0.74786370992661	-0.54326564073563	65.000000000000	0.00000000000000
26.950000762939	0.74734431505203	-0.54361397027969	65.000000000000	0.00000000000000
26.959999084473	0.74682378768921	-0.54396224021912	65.000000000000	0.00000000000000
26.969999313354	0.74630200862885	-0.54431033134460	65.000000000000	0.00000000000000
26.979999542236	0.74577915668488	-0.54465830326080	65.000000000000	0.00000000000000
26.989999771118	0.74525511264801	-0.54500609636307	65.000000000000	0.00000000000000
27.000000000000	0.74472981691360	-0.54535382986069	65.000000000000	0.00000000000000
27.010000228882	0.74420344829559	-0.54570132493973	65.000000000000	0.00000000000000
27.020000457764	0.74367594718933	-0.54604864120483	65.000000000000	0.00000000000000
27.030000686646	0.74314713478088	-0.54639589786530	65.000000000000	0.00000000000000
27.040000915527	0.74261713027954	-0.54674291610718	65.000000000000	0.00000000000000
27.049999237061	0.74208611249924	-0.54708975553513	65.000000000000	0.00000000000000
27.059999465942	0.74155378341675	-0.54743641614914	65.000000000000	0.00000000000000
27.069999694824	0.74102038145065	-0.54778301715851	65.000000000000	0.00000000000000
27.079999923706	0.74048566818237	-0.54812932014465	65.000000000000	0.00000000000000
27.090000152588	0.73994982242584	-0.54847550392151	65.000000000000	0.00000000000000
27.100000381470	0.73941278457642	-0.54882150888443	65.000000000000	0.00000000000000
27.110000610352	0.73887461423874	-0.54916739463806	65.000000000000	0.00000000000000
27.120000839233	0.73833513259888	-0.54951304197311	65.000000000000	0.00000000000000
27.129999160767	0.73779439926147	-0.54985851049423	65.000000000000	0.00000000000000
27.139999389648	0.73725265264511	-0.55020374059677	65.000000000000	0.00000000000000
27.149999618530	0.73670953512192	-0.55054879188538	65.000000000000	0.00000000000000
27.159999847412	0.73616528511047	-0.55089372396469	65.000000000000	0.00000000000000
27.170000076294	0.73561972379684	-0.55123841762543	65.000000000000	0.00000000000000
27.180000305176	0.73507314920425	-0.55158287286758	65.000000000000	0.00000000000000
27.190000534058	0.73452532291412	-0.55192726850510	65.000000000000	0.00000000000000
27.200000762939	0.73397606611252	-0.55227130651474	65.000000000000	0.00000000000000
27.209999084473	0.73342573642731	-0.55261516571045	65.000000000000	0.00000000000000
27.219999313354	0.73287415504456	-0.55295890569687	65.000000000000	0.00000000000000
27.229999542236	0.73232144117355	-0.55330234766006	65.000000000000	0.00000000000000
27.239999771118	0.73176747560501	-0.55364555120468	65.000000000000	0.00000000000000
27.250000000000	0.73121213912964	-0.55398863554001	65.000000000000	0.00000000000000
27.260000228882	0.73065572977066	-0.55433142185211	65.000000000000	0.00000000000000
27.270000457764	0.73009794950485	-0.55467402935028	65.000000000000	0.00000000000000
27.280000686646	0.72953903675079	-0.55501639842987	65.000000000000	0.00000000000000
27.290000915527	0.72897881269455	-0.55535852909088	65.000000000000	0.00000000000000
27.299999237061	0.72841733694077	-0.55570042133331	65.000000000000	0.00000000000000
27.309999465942	0.72785472869873	-0.55604201555252	65.000000000000	0.00000000000000
27.319999694824	0.72729080915451	-0.55638349056244	65.000000000000	0.00000000000000
27.329999923706	0.72672557830811	-0.55672460794449	65.000000000000	0.00000000000000
