#Parameters = {d=0.24233668341709; l2=4.8467336683417; lambda=9.6934673366834; r=0.032657291457286}
#"Frequency / GHz"	"S1,1 (lambda=9.69347) [Re]"	"S1,1 (lambda=9.69347) [Im]"	"Ref.Imp. [Re]"	"Ref.Imp. [Im]"
#-----------------------------------------------------------------------------------------------------------
25.000000000000	0.14598986506462	-0.51098793745041	65.000000000000	0.00000000000000
25.010000228882	0.14450114965439	-0.50972986221313	65.000000000000	0.00000000000000
25.020000457764	0.14301563799381	-0.50846427679062	65.000000000000	0.00000000000000
25.030000686646	0.14153313636780	-0.50719124078751	65.000000000000	0.00000000000000
25.040000915527	0.14005398750305	-0.50591087341309	65.000000000000	0.00000000000000
25.049999237061	0.13857816159725	-0.50462299585342	65.000000000000	0.00000000000000
25.059999465942	0.13710552453995	-0.50332784652710	65.000000000000	0.00000000000000
25.069999694824	0.13563655316830	-0.50202518701553	65.000000000000	0.00000000000000
25.079999923706	0.13417063653469	-0.50071513652802	65.000000000000	0.00000000000000
25.090000152588	0.13270847499371	-0.49939769506454	65.000000000000	0.00000000000000
25.100000381470	0.13124980032444	-0.49807283282280	65.000000000000	0.00000000000000
25.110000610352	0.12979464232922	-0.49674060940742	65.000000000000	0.00000000000000
25.120000839233	0.12834328413010	-0.49540096521378	65.000000000000	0.00000000000000
25.129999160767	0.12689556181431	-0.49405390024185	65.000000000000	0.00000000000000
25.139999389648	0.12545149028301	-0.49269950389862	65.000000000000	0.00000000000000
25.149999618530	0.12401136755943	-0.49133771657944	65.000000000000	0.00000000000000
25.159999847412	0.12257514148951	-0.48996859788895	65.000000000000	0.00000000000000
25.170000076294	0.12114282697439	-0.48859208822250	65.000000000000	0.00000000000000
25.180000305176	0.11971447616816	-0.48720818758011	65.000000000000	0.00000000000000
25.190000534058	0.11829030513763	-0.48581701517105	65.000000000000	0.00000000000000
25.200000762939	0.11687004566193	-0.48441845178604	65.000000000000	0.00000000000000
25.209999084473	0.11545415222645	-0.48301255702972	65.000000000000	0.00000000000000
25.219999313354	0.11404218524694	-0.48159942030907	65.000000000000	0.00000000000000
25.229999542236	0.11263466626406	-0.48017898201942	65.000000000000	0.00000000000000
25.239999771118	0.11123140901327	-0.47875118255615	65.000000000000	0.00000000000000
25.250000000000	0.10983245819807	-0.47731614112854	65.000000000000	0.00000000000000
25.260000228882	0.10843810439110	-0.47587385773659	65.000000000000	0.00000000000000
25.270000457764	0.10704837739468	-0.47442427277565	65.000000000000	0.00000000000000
25.280000686646	0.10566265136003	-0.47296756505966	65.000000000000	0.00000000000000
25.290000915527	0.10428187996149	-0.47150355577469	65.000000000000	0.00000000000000
25.299999237061	0.10290589183569	-0.47003236413002	65.000000000000	0.00000000000000
25.309999465942	0.10153449326754	-0.46855396032333	65.000000000000	0.00000000000000
25.319999694824	0.10016775131226	-0.46706843376160	65.000000000000	0.00000000000000
25.329999923706	0.098806142807007	-0.46557569503784	65.000000000000	0.00000000000000
25.340000152588	0.097449287772179	-0.46407583355904	65.000000000000	0.00000000000000
25.350000381470	0.096097208559513	-0.46256887912750	65.000000000000	0.00000000000000
25.360000610352	0.094750426709652	-0.46105483174324	65.000000000000	0.00000000000000
25.370000839233	0.093408301472664	-0.45953375101089	65.000000000000	0.00000000000000
25.379999160767	0.092071555554867	-0.45800554752350	65.000000000000	0.00000000000000
25.389999389648	0.090740010142326	-0.45647028088570	65.000000000000	0.00000000000000
25.399999618530	0.089413493871689	-0.45492812991142	65.000000000000	0.00000000000000
25.409999847412	0.088092498481274	-0.45337885618210	65.000000000000	0.00000000000000
25.420000076294	0.086776405572891	-0.45182272791862	65.000000000000	0.00000000000000
25.430000305176	0.085466131567955	-0.45025959610939	65.000000000000	0.00000000000000
25.440000534058	0.084161296486855	-0.44868952035904	65.000000000000	0.00000000000000
25.450000762939	0.082861520349979	-0.44711267948151	65.000000000000	0.00000000000000
25.459999084473	0.081567689776421	-0.44552883505821	65.000000000000	0.00000000000000
25.469999313354	0.080279447138309	-0.44393816590309	65.000000000000	0.00000000000000
25.479999542236	0.078996606171131	-0.44234073162079	65.000000000000	0.00000000000000
25.489999771118	0.077719651162624	-0.44073653221130	65.000000000000	0.00000000000000
25.500000000000	0.076448611915112	-0.43912547826767	65.000000000000	0.00000000000000
25.510000228882	0.075183130800724	-0.43750774860382	65.000000000000	0.00000000000000
25.520000457764	0.073923453688622	-0.43588337302208	65.000000000000	0.00000000000000
25.530000686646	0.072669833898544	-0.43425223231316	65.000000000000	0.00000000000000
25.540000915527	0.071422122418880	-0.43261453509331	65.000000000000	0.00000000000000
25.549999237061	0.070180751383305	-0.43097010254860	65.000000000000	0.00000000000000
25.559999465942	0.068945176899433	-0.42931920289993	65.000000000000	0.00000000000000
25.569999694824	0.067715622484684	-0.42766171693802	65.000000000000	0.00000000000000
25.579999923706	0.066492356359959	-0.42599770426750	65.000000000000	0.00000000000000
25.590000152588	0.065275415778160	-0.42432722449303	65.000000000000	0.00000000000000
25.600000381470	0.064064845442772	-0.42265027761459	65.000000000000	0.00000000000000
25.610000610352	0.062860287725925	-0.42096695303917	65.000000000000	0.00000000000000
25.620000839233	0.061662182211876	-0.41927719116211	65.000000000000	0.00000000000000
25.629999160767	0.060470778495073	-0.41758108139038	65.000000000000	0.00000000000000
25.639999389648	0.059285726398230	-0.41587871313095	65.000000000000	0.00000000000000
25.649999618530	0.058107253164053	-0.41417005658150	65.000000000000	0.00000000000000
25.659999847412	0.056935410946608	-0.41245514154434	65.000000000000	0.00000000000000
25.670000076294	0.055769838392735	-0.41073402762413	65.000000000000	0.00000000000000
25.680000305176	0.054611381143332	-0.40900677442551	65.000000000000	0.00000000000000
25.690000534058	0.053459484130144	-0.40727335214615	65.000000000000	0.00000000000000
25.700000762939	0.052314575761557	-0.40553387999535	65.000000000000	0.00000000000000
25.709999084473	0.051176115870476	-0.40378832817078	65.000000000000	0.00000000000000
25.719999313354	0.050044920295477	-0.40203678607941	65.000000000000	0.00000000000000
25.729999542236	0.048920266330242	-0.40027928352356	65.000000000000	0.00000000000000
25.739999771118	0.047802768647671	-0.39851585030556	65.000000000000	0.00000000000000
25.750000000000	0.046692464500666	-0.39674651622772	65.000000000000	0.00000000000000
25.760000228882	0.045589007437229	-0.39497134089470	65.000000000000	0.00000000000000
25.770000457764	0.044492825865746	-0.39319035410881	65.000000000000	0.00000000000000
25.780000686646	0.043403580784798	-0.39140361547470	65.000000000000	0.00000000000000
25.790000915527	0.042321491986513	-0.38961118459702	65.000000000000	0.00000000000000
25.799999237061	0.041246891021729	-0.38781306147575	65.000000000000	0.00000000000000
25.809999465942	0.040179438889027	-0.38600927591324	65.000000000000	0.00000000000000
25.819999694824	0.039119362831116	-0.38419994711876	65.000000000000	0.00000000000000
25.829999923706	0.038066696375608	-0.38238507509232	65.000000000000	0.00000000000000
25.840000152588	0.037021387368441	-0.38056471943855	65.000000000000	0.00000000000000
25.850000381470	0.035983566194773	-0.37873888015747	65.000000000000	0.00000000000000
25.860000610352	0.034953266382217	-0.37690764665604	65.000000000000	0.00000000000000
25.870000839233	0.033930528908968	-0.37507104873657	65.000000000000	0.00000000000000
25.879999160767	0.032915301620960	-0.37322914600372	65.000000000000	0.00000000000000
25.889999389648	0.031907793134451	-0.37138199806213	65.000000000000	0.00000000000000
25.899999618530	0.030907871201634	-0.36952960491180	65.000000000000	0.00000000000000
25.909999847412	0.029915746301413	-0.36767211556435	65.000000000000	0.00000000000000
25.920000076294	0.028931269422174	-0.36580938100815	65.000000000000	0.00000000000000
25.930000305176	0.027954574674368	-0.36394166946411	65.000000000000	0.00000000000000
25.940000534058	0.026985779404640	-0.36206889152527	65.000000000000	0.00000000000000
25.950000762939	0.026024831458926	-0.36019119620323	65.000000000000	0.00000000000000
25.959999084473	0.025071766227484	-0.35830855369568	65.000000000000	0.00000000000000
25.969999313354	0.024126617237926	-0.35642099380493	65.000000000000	0.00000000000000
25.979999542236	0.023189503699541	-0.35452863574028	65.000000000000	0.00000000000000
25.989999771118	0.022260289639235	-0.35263150930405	65.000000000000	0.00000000000000
26.000000000000	0.021339179947972	-0.35072970390320	65.000000000000	0.00000000000000
26.010000228882	0.020426202565432	-0.34882321953773	65.000000000000	0.00000000000000
26.020000457764	0.019521305337548	-0.34691208600998	65.000000000000	0.00000000000000
26.030000686646	0.018624527379870	-0.34499639272690	65.000000000000	0.00000000000000
26.040000915527	0.017736056819558	-0.34307622909546	65.000000000000	0.00000000000000
26.049999237061	0.016855686903000	-0.34115159511566	65.000000000000	0.00000000000000
26.059999465942	0.015983607620001	-0.33922252058983	65.000000000000	0.00000000000000
26.069999694824	0.015119687654078	-0.33728912472725	65.000000000000	0.00000000000000
26.079999923706	0.014264284633100	-0.33535143733025	65.000000000000	0.00000000000000
26.090000152588	0.013417101465166	-0.33340945839882	65.000000000000	0.00000000000000
26.100000381470	0.012578333728015	-0.33146333694458	65.000000000000	0.00000000000000
26.110000610352	0.011748006567359	-0.32951307296753	65.000000000000	0.00000000000000
26.120000839233	0.010926072485745	-0.32755875587463	65.000000000000	0.00000000000000
26.129999160767	0.010112635791302	-0.32560035586357	65.000000000000	0.00000000000000
26.139999389648	0.0093076508492231	-0.32363802194595	65.000000000000	0.00000000000000
26.149999618530	0.0085112238302827	-0.32167181372643	65.000000000000	0.00000000000000
26.159999847412	0.0077233025804162	-0.31970167160034	65.000000000000	0.00000000000000
26.170000076294	0.0069439942017198	-0.31772777438164	65.000000000000	0.00000000000000
26.180000305176	0.0061732493340969	-0.31575012207031	65.000000000000	0.00000000000000
26.190000534058	0.0054111694917083	-0.31376877427101	65.000000000000	0.00000000000000
26.200000762939	0.0046577821485698	-0.31178385019302	65.000000000000	0.00000000000000
26.209999084473	0.0039130384102464	-0.30979529023170	65.000000000000	0.00000000000000
26.219999313354	0.0031770395580679	-0.30780324339867	65.000000000000	0.00000000000000
26.229999542236	0.0024497369304299	-0.30580770969391	65.000000000000	0.00000000000000
26.239999771118	0.0017312291311100	-0.30380880832672	65.000000000000	0.00000000000000
26.250000000000	0.0010213969508186	-0.30180653929710	65.000000000000	0.00000000000000
26.260000228882	0.00032048183493316	-0.29980102181435	65.000000000000	0.00000000000000
26.270000457764	-0.00037170705036260	-0.29779222607613	65.000000000000	0.00000000000000
26.280000686646	-0.0010549318976700	-0.29578030109406	65.000000000000	0.00000000000000
26.290000915527	-0.0017293809214607	-0.29376527667046	65.000000000000	0.00000000000000
26.299999237061	-0.0023948897141963	-0.29174715280533	65.000000000000	0.00000000000000
26.309999465942	-0.0030515736434609	-0.28972604870796	65.000000000000	0.00000000000000
26.319999694824	-0.0036992712412030	-0.28770202398300	65.000000000000	0.00000000000000
26.329999923706	-0.0043380279093981	-0.28567510843277	65.000000000000	0.00000000000000
26.340000152588	-0.0049678897485137	-0.28364539146423	65.000000000000	0.00000000000000
26.350000381470	-0.0055886977352202	-0.28161290287971	65.000000000000	0.00000000000000
26.360000610352	-0.0062004979699850	-0.27957776188850	65.000000000000	0.00000000000000
26.370000839233	-0.0068033356219530	-0.27753993868828	65.000000000000	0.00000000000000
26.379999160767	-0.0073971208184958	-0.27549958229065	65.000000000000	0.00000000000000
26.389999389648	-0.0079818340018392	-0.27345666289330	65.000000000000	0.00000000000000
26.399999618530	-0.0085575170814991	-0.27141126990318	65.000000000000	0.00000000000000
26.409999847412	-0.0091241504997015	-0.26936352252960	65.000000000000	0.00000000000000
26.420000076294	-0.0096816495060921	-0.26731348037720	65.000000000000	0.00000000000000
26.430000305176	-0.010230056010187	-0.26526108384132	65.000000000000	0.00000000000000
26.440000534058	-0.010769411921501	-0.26320648193359	65.000000000000	0.00000000000000
26.450000762939	-0.011299509555101	-0.26114970445633	65.000000000000	0.00000000000000
26.459999084473	-0.011820578947663	-0.25909087061882	65.000000000000	0.00000000000000
26.469999313354	-0.012332474812865	-0.25702998042107	65.000000000000	0.00000000000000
26.479999542236	-0.012835177592933	-0.25496712327003	65.000000000000	0.00000000000000
26.489999771118	-0.013328790664673	-0.25290235877037	65.000000000000	0.00000000000000
26.500000000000	-0.013813168741763	-0.25083571672440	65.000000000000	0.00000000000000
26.510000228882	-0.014288299717009	-0.24876730144024	65.000000000000	0.00000000000000
26.520000457764	-0.014754278585315	-0.24669714272022	65.000000000000	0.00000000000000
26.530000686646	-0.015211085788906	-0.24462528526783	65.000000000000	0.00000000000000
26.540000915527	-0.015658644959331	-0.24255184829235	65.000000000000	0.00000000000000
26.549999237061	-0.016096996143460	-0.24047683179379	65.000000000000	0.00000000000000
26.559999465942	-0.016526175662875	-0.23840035498142	65.000000000000	0.00000000000000
26.569999694824	-0.016946047544479	-0.23632243275642	65.000000000000	0.00000000000000
26.579999923706	-0.017356654629111	-0.23424312472343	65.000000000000	0.00000000000000
26.590000152588	-0.017758030444384	-0.23216253519058	65.000000000000	0.00000000000000
26.600000381470	-0.018150215968490	-0.23008066415787	65.000000000000	0.00000000000000
26.610000610352	-0.018533131107688	-0.22799763083458	65.000000000000	0.00000000000000
26.620000839233	-0.018906813114882	-0.22591345012188	65.000000000000	0.00000000000000
26.629999160767	-0.019271191209555	-0.22382821142673	65.000000000000	0.00000000000000
26.639999389648	-0.019626297056675	-0.22174194455147	65.000000000000	0.00000000000000
26.649999618530	-0.019972218200564	-0.21965475380421	65.000000000000	0.00000000000000
26.659999847412	-0.020308827981353	-0.21756666898727	65.000000000000	0.00000000000000
26.670000076294	-0.020636213943362	-0.21547774970531	65.000000000000	0.00000000000000
26.680000305176	-0.020954249426723	-0.21338807046413	65.000000000000	0.00000000000000
26.690000534058	-0.021263070404530	-0.21129767596722	65.000000000000	0.00000000000000
26.700000762939	-0.021562607958913	-0.20920662581921	65.000000000000	0.00000000000000
26.709999084473	-0.021852938458323	-0.20711502432823	65.000000000000	0.00000000000000
26.719999313354	-0.022133989259601	-0.20502285659313	65.000000000000	0.00000000000000
26.729999542236	-0.022405743598938	-0.20293024182320	65.000000000000	0.00000000000000
26.739999771118	-0.022668274119496	-0.20083722472191	65.000000000000	0.00000000000000
26.750000000000	-0.022921608760953	-0.19874384999275	65.000000000000	0.00000000000000
26.760000228882	-0.023165626451373	-0.19665017724037	65.000000000000	0.00000000000000
26.770000457764	-0.023400403559208	-0.19455629587173	65.000000000000	0.00000000000000
26.780000686646	-0.023625960573554	-0.19246223568916	65.000000000000	0.00000000000000
26.790000915527	-0.023842319846153	-0.19036804139614	65.000000000000	0.00000000000000
26.799999237061	-0.024049412459135	-0.18827381730080	65.000000000000	0.00000000000000
26.809999465942	-0.024247257038951	-0.18617959320545	65.000000000000	0.00000000000000
26.819999694824	-0.024435916915536	-0.18408544361591	65.000000000000	0.00000000000000
26.829999923706	-0.024615410715342	-0.18199139833450	65.000000000000	0.00000000000000
26.840000152588	-0.024785667657852	-0.17989754676819	65.000000000000	0.00000000000000
26.850000381470	-0.024946784600616	-0.17780394852161	65.000000000000	0.00000000000000
26.860000610352	-0.025098612532020	-0.17571063339710	65.000000000000	0.00000000000000
26.870000839233	-0.025241369381547	-0.17361767590046	65.000000000000	0.00000000000000
26.879999160767	-0.025374941527843	-0.17152513563633	65.000000000000	0.00000000000000
26.889999389648	-0.025499338284135	-0.16943307220936	65.000000000000	0.00000000000000
26.899999618530	-0.025614649057388	-0.16734153032303	65.000000000000	0.00000000000000
26.909999847412	-0.025720758363605	-0.16525056958199	65.000000000000	0.00000000000000
26.920000076294	-0.025817789137363	-0.16316027939320	65.000000000000	0.00000000000000
26.930000305176	-0.025905666872859	-0.16107067465782	65.000000000000	0.00000000000000
26.940000534058	-0.025984546169639	-0.15898182988167	65.000000000000	0.00000000000000
26.950000762939	-0.026054231449962	-0.15689380466938	65.000000000000	0.00000000000000
26.959999084473	-0.026114908978343	-0.15480664372444	65.000000000000	0.00000000000000
26.969999313354	-0.026166534051299	-0.15272040665150	65.000000000000	0.00000000000000
26.979999542236	-0.026209138333797	-0.15063515305519	65.000000000000	0.00000000000000
26.989999771118	-0.026242703199387	-0.14855094254017	65.000000000000	0.00000000000000
27.000000000000	-0.026267252862453	-0.14646781980991	65.000000000000	0.00000000000000
27.010000228882	-0.026282809674740	-0.14438585937023	65.000000000000	0.00000000000000
27.020000457764	-0.026289386674762	-0.14230509102345	65.000000000000	0.00000000000000
27.030000686646	-0.026286959648132	-0.14022558927536	65.000000000000	0.00000000000000
27.040000915527	-0.026275638490915	-0.13814741373062	65.000000000000	0.00000000000000
27.049999237061	-0.026255395263433	-0.13607059419155	65.000000000000	0.00000000000000
27.059999465942	-0.026226194575429	-0.13399520516396	65.000000000000	0.00000000000000
27.069999694824	-0.026188161224127	-0.13192129135132	65.000000000000	0.00000000000000
27.079999923706	-0.026141190901399	-0.12984892725945	65.000000000000	0.00000000000000
27.090000152588	-0.026085425168276	-0.12777811288834	65.000000000000	0.00000000000000
27.100000381470	-0.026020782068372	-0.12570896744728	65.000000000000	0.00000000000000
27.110000610352	-0.025947332382202	-0.12364149838686	65.000000000000	0.00000000000000
27.120000839233	-0.025865100324154	-0.12157578021288	65.000000000000	0.00000000000000
27.129999160767	-0.025774084031582	-0.11951185762882	65.000000000000	0.00000000000000
27.139999389648	-0.025674294680357	-0.11744979023933	65.000000000000	0.00000000000000
27.149999618530	-0.025565799325705	-0.11538962274790	65.000000000000	0.00000000000000
27.159999847412	-0.025448566302657	-0.11333140730858	65.000000000000	0.00000000000000
27.170000076294	-0.025322675704956	-0.11127520352602	65.000000000000	0.00000000000000
27.180000305176	-0.025188099592924	-0.10922104120255	65.000000000000	0.00000000000000
27.190000534058	-0.025044873356819	-0.10716900974512	65.000000000000	0.00000000000000
27.200000762939	-0.024893030524254	-0.10511911660433	65.000000000000	0.00000000000000
27.209999084473	-0.024732599034905	-0.10307143628597	65.000000000000	0.00000000000000
27.219999313354	-0.024563573300838	-0.10102602094412	65.000000000000	0.00000000000000
27.229999542236	-0.024386025965214	-0.098982907831669	65.000000000000	0.00000000000000
27.239999771118	-0.024199921637774	-0.096942164003849	65.000000000000	0.00000000000000
27.250000000000	-0.024005321785808	-0.094903811812401	65.000000000000	0.00000000000000
27.260000228882	-0.023802235722542	-0.092867933213711	65.000000000000	0.00000000000000
27.270000457764	-0.023590730503201	-0.090834558010101	65.000000000000	0.00000000000000
27.280000686646	-0.023370794951916	-0.088803730905056	65.000000000000	0.00000000000000
27.290000915527	-0.023142436519265	-0.086775511503220	65.000000000000	0.00000000000000
