#Parameters = {d=0.18706030150754; l2=3.7412060301507; lambda=7.4824120603015; r=0.025208246231156}
#"Frequency / GHz"	"S1,1 (lambda=7.48241) [Re]"	"S1,1 (lambda=7.48241) [Im]"	"Ref.Imp. [Re]"	"Ref.Imp. [Im]"
#-----------------------------------------------------------------------------------------------------------
25.000000000000	0.80059862136841	-0.50288379192352	65.000000000000	0.00000000000000
25.010000228882	0.80018413066864	-0.50324571132660	65.000000000000	0.00000000000000
25.020000457764	0.79976862668991	-0.50360763072968	65.000000000000	0.00000000000000
25.030000686646	0.79935228824615	-0.50396960973740	65.000000000000	0.00000000000000
25.040000915527	0.79893505573273	-0.50433176755905	65.000000000000	0.00000000000000
25.049999237061	0.79851692914963	-0.50469380617142	65.000000000000	0.00000000000000
25.059999465942	0.79809767007828	-0.50505590438843	65.000000000000	0.00000000000000
25.069999694824	0.79767763614655	-0.50541812181473	65.000000000000	0.00000000000000
25.079999923706	0.79725652933121	-0.50578039884567	65.000000000000	0.00000000000000
25.090000152588	0.79683458805084	-0.50614261627197	65.000000000000	0.00000000000000
25.100000381470	0.79641169309616	-0.50650495290756	65.000000000000	0.00000000000000
25.110000610352	0.79598778486252	-0.50686722993851	65.000000000000	0.00000000000000
25.120000839233	0.79556298255920	-0.50722962617874	65.000000000000	0.00000000000000
25.129999160767	0.79513716697693	-0.50759208202362	65.000000000000	0.00000000000000
25.139999389648	0.79471045732498	-0.50795447826385	65.000000000000	0.00000000000000
25.149999618530	0.79428279399872	-0.50831693410873	65.000000000000	0.00000000000000
25.159999847412	0.79385411739349	-0.50867944955826	65.000000000000	0.00000000000000
25.170000076294	0.79342448711395	-0.50904202461243	65.000000000000	0.00000000000000
25.180000305176	0.79299402236938	-0.50940454006195	65.000000000000	0.00000000000000
25.190000534058	0.79256248474121	-0.50976717472076	65.000000000000	0.00000000000000
25.200000762939	0.79212981462479	-0.51012974977493	65.000000000000	0.00000000000000
25.209999084473	0.79169642925262	-0.51049250364304	65.000000000000	0.00000000000000
25.219999313354	0.79126197099686	-0.51085513830185	65.000000000000	0.00000000000000
25.229999542236	0.79082643985748	-0.51121789216995	65.000000000000	0.00000000000000
25.239999771118	0.79039001464844	-0.51158058643341	65.000000000000	0.00000000000000
25.250000000000	0.78995269536972	-0.51194334030151	65.000000000000	0.00000000000000
25.260000228882	0.78951430320740	-0.51230615377426	65.000000000000	0.00000000000000
25.270000457764	0.78907495737076	-0.51266896724701	65.000000000000	0.00000000000000
25.280000686646	0.78863453865051	-0.51303172111511	65.000000000000	0.00000000000000
25.290000915527	0.78819322586060	-0.51339459419250	65.000000000000	0.00000000000000
25.299999237061	0.78775084018707	-0.51375746726990	65.000000000000	0.00000000000000
25.309999465942	0.78730756044388	-0.51412028074265	65.000000000000	0.00000000000000
25.319999694824	0.78686326742172	-0.51448327302933	65.000000000000	0.00000000000000
25.329999923706	0.78641790151596	-0.51484614610672	65.000000000000	0.00000000000000
25.340000152588	0.78597164154053	-0.51520907878876	65.000000000000	0.00000000000000
25.350000381470	0.78552424907684	-0.51557201147079	65.000000000000	0.00000000000000
25.360000610352	0.78507584333420	-0.51593488454819	65.000000000000	0.00000000000000
25.370000839233	0.78462642431259	-0.51629793643951	65.000000000000	0.00000000000000
25.379999160767	0.78417611122131	-0.51666086912155	65.000000000000	0.00000000000000
25.389999389648	0.78372472524643	-0.51702386140823	65.000000000000	0.00000000000000
25.399999618530	0.78327232599258	-0.51738691329956	65.000000000000	0.00000000000000
25.409999847412	0.78281891345978	-0.51774984598160	65.000000000000	0.00000000000000
25.420000076294	0.78236442804337	-0.51811277866364	65.000000000000	0.00000000000000
25.430000305176	0.78190904855728	-0.51847577095032	65.000000000000	0.00000000000000
25.440000534058	0.78145247697830	-0.51883876323700	65.000000000000	0.00000000000000
25.450000762939	0.78099483251572	-0.51920181512833	65.000000000000	0.00000000000000
25.459999084473	0.78053635358810	-0.51956474781036	65.000000000000	0.00000000000000
25.469999313354	0.78007668256760	-0.51992774009705	65.000000000000	0.00000000000000
25.479999542236	0.77961611747742	-0.52029067277908	65.000000000000	0.00000000000000
25.489999771118	0.77915436029434	-0.52065366506577	65.000000000000	0.00000000000000
25.500000000000	0.77869158983231	-0.52101671695709	65.000000000000	0.00000000000000
25.510000228882	0.77822774648666	-0.52137959003448	65.000000000000	0.00000000000000
25.520000457764	0.77776318788528	-0.52174240350723	65.000000000000	0.00000000000000
25.530000686646	0.77729707956314	-0.52210557460785	65.000000000000	0.00000000000000
25.540000915527	0.77683013677597	-0.52246844768524	65.000000000000	0.00000000000000
25.549999237061	0.77636218070984	-0.52283143997192	65.000000000000	0.00000000000000
25.559999465942	0.77589303255081	-0.52319437265396	65.000000000000	0.00000000000000
25.569999694824	0.77542299032211	-0.52355706691742	65.000000000000	0.00000000000000
25.579999923706	0.77495163679123	-0.52392017841339	65.000000000000	0.00000000000000
25.590000152588	0.77447932958603	-0.52428293228149	65.000000000000	0.00000000000000
25.600000381470	0.77400624752045	-0.52464538812637	65.000000000000	0.00000000000000
25.610000610352	0.77353149652481	-0.52500861883163	65.000000000000	0.00000000000000
25.620000839233	0.77305620908737	-0.52537113428116	65.000000000000	0.00000000000000
25.629999160767	0.77257972955704	-0.52573370933533	65.000000000000	0.00000000000000
25.639999389648	0.77210181951523	-0.52609664201736	65.000000000000	0.00000000000000
25.649999618530	0.77162307500839	-0.52645933628082	65.000000000000	0.00000000000000
25.659999847412	0.77114325761795	-0.52682197093964	65.000000000000	0.00000000000000
25.670000076294	0.77066254615784	-0.52718430757523	65.000000000000	0.00000000000000
25.680000305176	0.77018010616302	-0.52754735946655	65.000000000000	0.00000000000000
25.690000534058	0.76969736814499	-0.52790927886963	65.000000000000	0.00000000000000
25.700000762939	0.76921290159225	-0.52827197313309	65.000000000000	0.00000000000000
25.709999084473	0.76872766017914	-0.52863436937332	65.000000000000	0.00000000000000
25.719999313354	0.76824098825455	-0.52899712324142	65.000000000000	0.00000000000000
25.729999542236	0.76775372028351	-0.52935910224915	65.000000000000	0.00000000000000
25.739999771118	0.76726472377777	-0.52972185611725	65.000000000000	0.00000000000000
25.750000000000	0.76677531003952	-0.53008341789246	65.000000000000	0.00000000000000
25.760000228882	0.76628410816193	-0.53044617176056	65.000000000000	0.00000000000000
25.770000457764	0.76579225063324	-0.53080809116364	65.000000000000	0.00000000000000
25.780000686646	0.76529914140701	-0.53117007017136	65.000000000000	0.00000000000000
25.790000915527	0.76480466127396	-0.53153222799301	65.000000000000	0.00000000000000
25.799999237061	0.76430928707123	-0.53189426660538	65.000000000000	0.00000000000000
25.809999465942	0.76381283998489	-0.53225612640381	65.000000000000	0.00000000000000
25.819999694824	0.76331508159637	-0.53261792659760	65.000000000000	0.00000000000000
25.829999923706	0.76281630992889	-0.53297972679138	65.000000000000	0.00000000000000
25.840000152588	0.76231628656387	-0.53334140777588	65.000000000000	0.00000000000000
25.850000381470	0.76181524991989	-0.53370302915573	65.000000000000	0.00000000000000
25.860000610352	0.76131302118301	-0.53406459093094	65.000000000000	0.00000000000000
25.870000839233	0.76080960035324	-0.53442609310150	65.000000000000	0.00000000000000
25.879999160767	0.76030498743057	-0.53478747606277	65.000000000000	0.00000000000000
25.889999389648	0.75979930162430	-0.53514885902405	65.000000000000	0.00000000000000
25.899999618530	0.75929248332977	-0.53551006317139	65.000000000000	0.00000000000000
25.909999847412	0.75878447294235	-0.53587126731873	65.000000000000	0.00000000000000
25.920000076294	0.75827521085739	-0.53623235225677	65.000000000000	0.00000000000000
25.930000305176	0.75776499509811	-0.53659331798553	65.000000000000	0.00000000000000
25.940000534058	0.75725346803665	-0.53695422410965	65.000000000000	0.00000000000000
25.950000762939	0.75674068927765	-0.53731501102448	65.000000000000	0.00000000000000
25.959999084473	0.75622689723969	-0.53767567873001	65.000000000000	0.00000000000000
25.969999313354	0.75571179389954	-0.53803634643555	65.000000000000	0.00000000000000
25.979999542236	0.75519561767578	-0.53839683532715	65.000000000000	0.00000000000000
25.989999771118	0.75467824935913	-0.53875726461411	65.000000000000	0.00000000000000
26.000000000000	0.75415968894958	-0.53911751508713	65.000000000000	0.00000000000000
26.010000228882	0.75363993644714	-0.53947776556015	65.000000000000	0.00000000000000
26.020000457764	0.75311887264252	-0.53983783721924	65.000000000000	0.00000000000000
26.030000686646	0.75259655714035	-0.54019784927368	65.000000000000	0.00000000000000
26.040000915527	0.75207322835922	-0.54055774211884	65.000000000000	0.00000000000000
26.049999237061	0.75154876708984	-0.54091745615005	65.000000000000	0.00000000000000
26.059999465942	0.75102299451828	-0.54127711057663	65.000000000000	0.00000000000000
26.069999694824	0.75049608945847	-0.54163658618927	65.000000000000	0.00000000000000
26.079999923706	0.74996787309647	-0.54199588298798	65.000000000000	0.00000000000000
26.090000152588	0.74943846464157	-0.54235517978668	65.000000000000	0.00000000000000
26.100000381470	0.74890768527985	-0.54271429777145	65.000000000000	0.00000000000000
26.110000610352	0.74837595224380	-0.54307329654694	65.000000000000	0.00000000000000
26.120000839233	0.74784284830093	-0.54343211650848	65.000000000000	0.00000000000000
26.129999160767	0.74730861186981	-0.54379081726074	65.000000000000	0.00000000000000
26.139999389648	0.74677312374115	-0.54414939880371	65.000000000000	0.00000000000000
26.149999618530	0.74623632431030	-0.54450780153275	65.000000000000	0.00000000000000
26.159999847412	0.74569845199585	-0.54486608505249	65.000000000000	0.00000000000000
26.170000076294	0.74515914916992	-0.54522424936295	65.000000000000	0.00000000000000
26.180000305176	0.74461871385574	-0.54558217525482	65.000000000000	0.00000000000000
26.190000534058	0.74407696723938	-0.54593998193741	65.000000000000	0.00000000000000
26.200000762939	0.74353414773941	-0.54629766941071	65.000000000000	0.00000000000000
26.209999084473	0.74298989772797	-0.54665517807007	65.000000000000	0.00000000000000
26.219999313354	0.74244445562363	-0.54701256752014	65.000000000000	0.00000000000000
26.229999542236	0.74189788103104	-0.54736965894699	65.000000000000	0.00000000000000
26.239999771118	0.74134987592697	-0.54772675037384	65.000000000000	0.00000000000000
26.250000000000	0.74080055952072	-0.54808354377747	65.000000000000	0.00000000000000
26.260000228882	0.74025022983551	-0.54844021797180	65.000000000000	0.00000000000000
26.270000457764	0.73969858884811	-0.54879671335220	65.000000000000	0.00000000000000
26.280000686646	0.73914545774460	-0.54915297031403	65.000000000000	0.00000000000000
26.290000915527	0.73859125375748	-0.54950910806656	65.000000000000	0.00000000000000
26.299999237061	0.73803567886353	-0.54986506700516	65.000000000000	0.00000000000000
26.309999465942	0.73747885227203	-0.55022084712982	65.000000000000	0.00000000000000
26.319999694824	0.73692089319229	-0.55057632923126	65.000000000000	0.00000000000000
26.329999923706	0.73636138439178	-0.55093163251877	65.000000000000	0.00000000000000
26.340000152588	0.73580086231232	-0.55128681659698	65.000000000000	0.00000000000000
26.350000381470	0.73523885011673	-0.55164176225662	65.000000000000	0.00000000000000
26.360000610352	0.73467564582825	-0.55199658870697	65.000000000000	0.00000000000000
26.370000839233	0.73411113023758	-0.55235105752945	65.000000000000	0.00000000000000
26.379999160767	0.73354524374008	-0.55270540714264	65.000000000000	0.00000000000000
26.389999389648	0.73297828435898	-0.55305951833725	65.000000000000	0.00000000000000
26.399999618530	0.73240971565247	-0.55341339111328	65.000000000000	0.00000000000000
26.409999847412	0.73184001445770	-0.55376708507538	65.000000000000	0.00000000000000
26.420000076294	0.73126912117004	-0.55412048101425	65.000000000000	0.00000000000000
26.430000305176	0.73069673776627	-0.55447375774384	65.000000000000	0.00000000000000
26.440000534058	0.73012298345566	-0.55482679605484	65.000000000000	0.00000000000000
26.450000762939	0.72954815626144	-0.55517959594727	65.000000000000	0.00000000000000
26.459999084473	0.72897183895111	-0.55553203821182	65.000000000000	0.00000000000000
26.469999313354	0.72839426994324	-0.55588436126709	65.000000000000	0.00000000000000
26.479999542236	0.72781533002853	-0.55623644590378	65.000000000000	0.00000000000000
26.489999771118	0.72723507881165	-0.55658823251724	65.000000000000	0.00000000000000
26.500000000000	0.72665351629257	-0.55693978071213	65.000000000000	0.00000000000000
26.510000228882	0.72607052326202	-0.55729109048843	65.000000000000	0.00000000000000
26.520000457764	0.72548639774323	-0.55764204263687	65.000000000000	0.00000000000000
26.530000686646	0.72490078210831	-0.55799287557602	65.000000000000	0.00000000000000
26.540000915527	0.72431385517120	-0.55834341049194	65.000000000000	0.00000000000000
26.549999237061	0.72372555732727	-0.55869358778000	65.000000000000	0.00000000000000
26.559999465942	0.72313606739044	-0.55904364585876	65.000000000000	0.00000000000000
26.569999694824	0.72254496812820	-0.55939334630966	65.000000000000	0.00000000000000
26.579999923706	0.72195273637772	-0.55974274873734	65.000000000000	0.00000000000000
26.590000152588	0.72135901451111	-0.56009197235107	65.000000000000	0.00000000000000
26.600000381470	0.72076404094696	-0.56044077873230	65.000000000000	0.00000000000000
26.610000610352	0.72016763687134	-0.56078940629959	65.000000000000	0.00000000000000
26.620000839233	0.71956992149353	-0.56113761663437	65.000000000000	0.00000000000000
26.629999160767	0.71897089481354	-0.56148564815521	65.000000000000	0.00000000000000
26.639999389648	0.71837043762207	-0.56183332204819	65.000000000000	0.00000000000000
26.649999618530	0.71776854991913	-0.56218069791794	65.000000000000	0.00000000000000
26.659999847412	0.71716535091400	-0.56252777576447	65.000000000000	0.00000000000000
26.670000076294	0.71656066179276	-0.56287461519241	65.000000000000	0.00000000000000
26.680000305176	0.71595478057861	-0.56322109699249	65.000000000000	0.00000000000000
26.690000534058	0.71534746885300	-0.56356722116470	65.000000000000	0.00000000000000
26.700000762939	0.71473872661591	-0.56391298770905	65.000000000000	0.00000000000000
26.709999084473	0.71412867307663	-0.56425851583481	65.000000000000	0.00000000000000
26.719999313354	0.71351718902588	-0.56460368633270	65.000000000000	0.00000000000000
26.729999542236	0.71290421485901	-0.56494855880737	65.000000000000	0.00000000000000
26.739999771118	0.71229004859924	-0.56529313325882	65.000000000000	0.00000000000000
26.750000000000	0.71167427301407	-0.56563723087311	65.000000000000	0.00000000000000
26.760000228882	0.71105724573135	-0.56598109006882	65.000000000000	0.00000000000000
26.770000457764	0.71043872833252	-0.56632459163666	65.000000000000	0.00000000000000
26.780000686646	0.70981872081757	-0.56666773557663	65.000000000000	0.00000000000000
26.790000915527	0.70919758081436	-0.56701046228409	65.000000000000	0.00000000000000
26.799999237061	0.70857483148575	-0.56735289096832	65.000000000000	0.00000000000000
26.809999465942	0.70795071125031	-0.56769502162933	65.000000000000	0.00000000000000
26.819999694824	0.70732510089874	-0.56803661584854	65.000000000000	0.00000000000000
26.829999923706	0.70669829845428	-0.56837803125381	65.000000000000	0.00000000000000
26.840000152588	0.70606982707977	-0.56871896982193	65.000000000000	0.00000000000000
26.850000381470	0.70544004440308	-0.56905949115753	65.000000000000	0.00000000000000
26.860000610352	0.70480877161026	-0.56939971446991	65.000000000000	0.00000000000000
26.870000839233	0.70417618751526	-0.56973952054977	65.000000000000	0.00000000000000
26.879999160767	0.70354211330414	-0.57007890939713	65.000000000000	0.00000000000000
26.889999389648	0.70290660858154	-0.57041800022125	65.000000000000	0.00000000000000
26.899999618530	0.70226961374283	-0.57075661420822	65.000000000000	0.00000000000000
26.909999847412	0.70163118839264	-0.57109481096268	65.000000000000	0.00000000000000
26.920000076294	0.70099139213562	-0.57143265008926	65.000000000000	0.00000000000000
26.930000305176	0.70035010576248	-0.57177007198334	65.000000000000	0.00000000000000
26.940000534058	0.69970738887787	-0.57210701704025	65.000000000000	0.00000000000000
26.950000762939	0.69906318187714	-0.57244360446930	65.000000000000	0.00000000000000
26.959999084473	0.69841742515564	-0.57277977466583	65.000000000000	0.00000000000000
26.969999313354	0.69777053594589	-0.57311552762985	65.000000000000	0.00000000000000
26.979999542236	0.69712185859680	-0.57345074415207	65.000000000000	0.00000000000000
26.989999771118	0.69647198915482	-0.57378566265106	65.000000000000	0.00000000000000
27.000000000000	0.69582051038742	-0.57412010431290	65.000000000000	0.00000000000000
27.010000228882	0.69516760110855	-0.57445412874222	65.000000000000	0.00000000000000
27.020000457764	0.69451314210892	-0.57478761672974	65.000000000000	0.00000000000000
27.030000686646	0.69385731220245	-0.57512068748474	65.000000000000	0.00000000000000
27.040000915527	0.69319999217987	-0.57545340061188	65.000000000000	0.00000000000000
27.049999237061	0.69254124164581	-0.57578551769257	65.000000000000	0.00000000000000
27.059999465942	0.69188088178635	-0.57611721754074	65.000000000000	0.00000000000000
27.069999694824	0.69121915102005	-0.57644844055176	65.000000000000	0.00000000000000
27.079999923706	0.69055587053299	-0.57677918672562	65.000000000000	0.00000000000000
27.090000152588	0.68989115953445	-0.57710951566696	65.000000000000	0.00000000000000
27.100000381470	0.68922489881516	-0.57743924856186	65.000000000000	0.00000000000000
27.110000610352	0.68855720758438	-0.57776862382889	65.000000000000	0.00000000000000
27.120000839233	0.68788796663284	-0.57809740304947	65.000000000000	0.00000000000000
27.129999160767	0.68721735477448	-0.57842576503754	65.000000000000	0.00000000000000
27.139999389648	0.68654507398605	-0.57875359058380	65.000000000000	0.00000000000000
27.149999618530	0.68587142229080	-0.57908087968826	65.000000000000	0.00000000000000
27.159999847412	0.68519628047943	-0.57940775156021	65.000000000000	0.00000000000000
27.170000076294	0.68451952934265	-0.57973402738571	65.000000000000	0.00000000000000
27.180000305176	0.68384134769440	-0.58005982637405	65.000000000000	0.00000000000000
27.190000534058	0.68316161632538	-0.58038502931595	65.000000000000	0.00000000000000
27.200000762939	0.68248033523560	-0.58070981502533	65.000000000000	0.00000000000000
27.209999084473	0.68179774284363	-0.58103400468826	65.000000000000	0.00000000000000
27.219999313354	0.68111324310303	-0.58135771751404	65.000000000000	0.00000000000000
27.229999542236	0.68042761087418	-0.58168083429337	65.000000000000	0.00000000000000
27.239999771118	0.67974025011063	-0.58200341463089	65.000000000000	0.00000000000000
27.250000000000	0.67905139923096	-0.58232545852661	65.000000000000	0.00000000000000
27.260000228882	0.67836099863052	-0.58264690637589	65.000000000000	0.00000000000000
27.270000457764	0.67766916751862	-0.58296781778336	65.000000000000	0.00000000000000
27.280000686646	0.67697566747665	-0.58328813314438	65.000000000000	0.00000000000000
27.290000915527	0.67628079652786	-0.58360797166824	65.000000000000	0.00000000000000
27.299999237061	0.67558443546295	-0.58392715454102	65.000000000000	0.00000000000000
27.309999465942	0.67488628625870	-0.58424580097198	65.000000000000	0.00000000000000
27.319999694824	0.67418676614761	-0.58456379175186	65.000000000000	0.00000000000000
27.329999923706	0.67348557710648	-0.58488130569458	65.000000000000	0.00000000000000
