#Parameters = {d=0.22776381909548; l2=4.5552763819096; lambda=9.1105527638191; r=0.030693452261307}
#"Frequency / GHz"	"S1,1 (lambda=9.11055) [Re]"	"S1,1 (lambda=9.11055) [Im]"	"Ref.Imp. [Re]"	"Ref.Imp. [Im]"
#-----------------------------------------------------------------------------------------------------------
25.000000000000	0.38103818893433	-0.62229233980179	65.000000000000	0.00000000000000
25.010000228882	0.37958219647408	-0.62202417850494	65.000000000000	0.00000000000000
25.020000457764	0.37812474370003	-0.62175148725510	65.000000000000	0.00000000000000
25.030000686646	0.37666615843773	-0.62147414684296	65.000000000000	0.00000000000000
25.040000915527	0.37520623207092	-0.62119215726852	65.000000000000	0.00000000000000
25.049999237061	0.37374505400658	-0.62090551853180	65.000000000000	0.00000000000000
25.059999465942	0.37228262424469	-0.62061417102814	65.000000000000	0.00000000000000
25.069999694824	0.37081879377365	-0.62031829357147	65.000000000000	0.00000000000000
25.079999923706	0.36935386061668	-0.62001770734787	65.000000000000	0.00000000000000
25.090000152588	0.36788776516914	-0.61971229314804	65.000000000000	0.00000000000000
25.100000381470	0.36642029881477	-0.61940234899521	65.000000000000	0.00000000000000
25.110000610352	0.36495164036751	-0.61908751726151	65.000000000000	0.00000000000000
25.120000839233	0.36348187923431	-0.61876809597015	65.000000000000	0.00000000000000
25.129999160767	0.36201074719429	-0.61844384670258	65.000000000000	0.00000000000000
25.139999389648	0.36053854227066	-0.61811482906342	65.000000000000	0.00000000000000
25.149999618530	0.35906505584717	-0.61778104305267	65.000000000000	0.00000000000000
25.159999847412	0.35759049654007	-0.61744248867035	65.000000000000	0.00000000000000
25.170000076294	0.35611468553543	-0.61709904670715	65.000000000000	0.00000000000000
25.180000305176	0.35463786125183	-0.61675083637238	65.000000000000	0.00000000000000
25.190000534058	0.35315978527069	-0.61639779806137	65.000000000000	0.00000000000000
25.200000762939	0.35168057680130	-0.61603987216949	65.000000000000	0.00000000000000
25.209999084473	0.35020035505295	-0.61567711830139	65.000000000000	0.00000000000000
25.219999313354	0.34871882200241	-0.61530941724777	65.000000000000	0.00000000000000
25.229999542236	0.34723636507988	-0.61493682861328	65.000000000000	0.00000000000000
25.239999771118	0.34575277566910	-0.61455929279327	65.000000000000	0.00000000000000
25.250000000000	0.34426811337471	-0.61417680978775	65.000000000000	0.00000000000000
25.260000228882	0.34278237819672	-0.61378937959671	65.000000000000	0.00000000000000
25.270000457764	0.34129559993744	-0.61339706182480	65.000000000000	0.00000000000000
25.280000686646	0.33980780839920	-0.61299955844879	65.000000000000	0.00000000000000
25.290000915527	0.33831915259361	-0.61259716749191	65.000000000000	0.00000000000000
25.299999237061	0.33682918548584	-0.61218976974487	65.000000000000	0.00000000000000
25.309999465942	0.33533841371536	-0.61177736520767	65.000000000000	0.00000000000000
25.319999694824	0.33384665846825	-0.61135971546173	65.000000000000	0.00000000000000
25.329999923706	0.33235383033752	-0.61093717813492	65.000000000000	0.00000000000000
25.340000152588	0.33086025714874	-0.61050933599472	65.000000000000	0.00000000000000
25.350000381470	0.32936561107635	-0.61007648706436	65.000000000000	0.00000000000000
25.360000610352	0.32786992192268	-0.60963851213455	65.000000000000	0.00000000000000
25.370000839233	0.32637324929237	-0.60919547080994	65.000000000000	0.00000000000000
25.379999160767	0.32487589120865	-0.60874712467194	65.000000000000	0.00000000000000
25.389999389648	0.32337757945061	-0.60829359292984	65.000000000000	0.00000000000000
25.399999618530	0.32187828421593	-0.60783493518829	65.000000000000	0.00000000000000
25.409999847412	0.32037839293480	-0.60737091302872	65.000000000000	0.00000000000000
25.420000076294	0.31887730956078	-0.60690188407898	65.000000000000	0.00000000000000
25.430000305176	0.31737586855888	-0.60642725229263	65.000000000000	0.00000000000000
25.440000534058	0.31587329506874	-0.60594755411148	65.000000000000	0.00000000000000
25.450000762939	0.31436988711357	-0.60546255111694	65.000000000000	0.00000000000000
25.459999084473	0.31286624073982	-0.60497194528580	65.000000000000	0.00000000000000
25.469999313354	0.31136119365692	-0.60447633266449	65.000000000000	0.00000000000000
25.479999542236	0.30985537171364	-0.60397535562515	65.000000000000	0.00000000000000
25.489999771118	0.30834934115410	-0.60346877574921	65.000000000000	0.00000000000000
25.500000000000	0.30684232711792	-0.60295689105988	65.000000000000	0.00000000000000
25.510000228882	0.30533459782600	-0.60243970155716	65.000000000000	0.00000000000000
25.520000457764	0.30382645130157	-0.60191684961319	65.000000000000	0.00000000000000
25.530000686646	0.30231758952141	-0.60138851404190	65.000000000000	0.00000000000000
25.540000915527	0.30080783367157	-0.60085493326187	65.000000000000	0.00000000000000
25.549999237061	0.29929772019386	-0.60031569004059	65.000000000000	0.00000000000000
25.559999465942	0.29778671264648	-0.59977114200592	65.000000000000	0.00000000000000
25.569999694824	0.29627570509911	-0.59922069311142	65.000000000000	0.00000000000000
25.579999923706	0.29476353526115	-0.59866499900818	65.000000000000	0.00000000000000
25.590000152588	0.29325112700462	-0.59810358285904	65.000000000000	0.00000000000000
25.600000381470	0.29173824191093	-0.59753656387329	65.000000000000	0.00000000000000
25.610000610352	0.29022455215454	-0.59696412086487	65.000000000000	0.00000000000000
25.620000839233	0.28871098160744	-0.59638571739197	65.000000000000	0.00000000000000
25.629999160767	0.28719666600227	-0.59580183029175	65.000000000000	0.00000000000000
25.639999389648	0.28568193316460	-0.59521222114563	65.000000000000	0.00000000000000
25.649999618530	0.28416681289673	-0.59461694955826	65.000000000000	0.00000000000000
25.659999847412	0.28265127539635	-0.59401595592499	65.000000000000	0.00000000000000
25.670000076294	0.28113570809364	-0.59340906143188	65.000000000000	0.00000000000000
25.680000305176	0.27961927652359	-0.59279668331146	65.000000000000	0.00000000000000
25.690000534058	0.27810281515121	-0.59217846393585	65.000000000000	0.00000000000000
25.700000762939	0.27658635377884	-0.59155422449112	65.000000000000	0.00000000000000
25.709999084473	0.27506908774376	-0.59092444181442	65.000000000000	0.00000000000000
25.719999313354	0.27355217933655	-0.59028863906860	65.000000000000	0.00000000000000
25.729999542236	0.27203452587128	-0.58964723348618	65.000000000000	0.00000000000000
25.739999771118	0.27051693201065	-0.58899974822998	65.000000000000	0.00000000000000
25.750000000000	0.26899924874306	-0.58834636211395	65.000000000000	0.00000000000000
25.760000228882	0.26748141646385	-0.58768713474274	65.000000000000	0.00000000000000
25.770000457764	0.26596352458000	-0.58702194690704	65.000000000000	0.00000000000000
25.780000686646	0.26444554328918	-0.58635079860687	65.000000000000	0.00000000000000
25.790000915527	0.26292726397514	-0.58567380905151	65.000000000000	0.00000000000000
25.799999237061	0.26140925288200	-0.58499073982239	65.000000000000	0.00000000000000
25.809999465942	0.25989112257957	-0.58430165052414	65.000000000000	0.00000000000000
25.819999694824	0.25837305188179	-0.58360660076141	65.000000000000	0.00000000000000
25.829999923706	0.25685518980026	-0.58290547132492	65.000000000000	0.00000000000000
25.840000152588	0.25533741712570	-0.58219826221466	65.000000000000	0.00000000000000
25.850000381470	0.25381964445114	-0.58148509263992	65.000000000000	0.00000000000000
25.860000610352	0.25230205059052	-0.58076572418213	65.000000000000	0.00000000000000
25.870000839233	0.25078475475311	-0.58004021644592	65.000000000000	0.00000000000000
25.879999160767	0.24926754832268	-0.57930868864059	65.000000000000	0.00000000000000
25.889999389648	0.24775061011314	-0.57857102155685	65.000000000000	0.00000000000000
25.899999618530	0.24623404443264	-0.57782709598541	65.000000000000	0.00000000000000
25.909999847412	0.24471780657768	-0.57707703113556	65.000000000000	0.00000000000000
25.920000076294	0.24320176243782	-0.57632082700729	65.000000000000	0.00000000000000
25.930000305176	0.24168609082699	-0.57555836439133	65.000000000000	0.00000000000000
25.940000534058	0.24017095565796	-0.57478970289230	65.000000000000	0.00000000000000
25.950000762939	0.23865625262260	-0.57401484251022	65.000000000000	0.00000000000000
25.959999084473	0.23714186251163	-0.57323372364044	65.000000000000	0.00000000000000
25.969999313354	0.23562808334827	-0.57244628667831	65.000000000000	0.00000000000000
25.979999542236	0.23411484062672	-0.57165253162384	65.000000000000	0.00000000000000
25.989999771118	0.23260226845741	-0.57085257768631	65.000000000000	0.00000000000000
26.000000000000	0.23109014332294	-0.57004624605179	65.000000000000	0.00000000000000
26.010000228882	0.22957862913609	-0.56923353672028	65.000000000000	0.00000000000000
26.020000457764	0.22806777060032	-0.56841456890106	65.000000000000	0.00000000000000
26.030000686646	0.22655785083771	-0.56758922338486	65.000000000000	0.00000000000000
26.040000915527	0.22504836320877	-0.56675750017166	65.000000000000	0.00000000000000
26.049999237061	0.22353987395763	-0.56591933965683	65.000000000000	0.00000000000000
26.059999465942	0.22203217446804	-0.56507480144501	65.000000000000	0.00000000000000
26.069999694824	0.22052526473999	-0.56422376632690	65.000000000000	0.00000000000000
26.079999923706	0.21901920437813	-0.56336647272110	65.000000000000	0.00000000000000
26.090000152588	0.21751400828362	-0.56250268220901	65.000000000000	0.00000000000000
26.100000381470	0.21600998938084	-0.56163239479065	65.000000000000	0.00000000000000
26.110000610352	0.21450677514076	-0.56075572967529	65.000000000000	0.00000000000000
26.120000839233	0.21300464868546	-0.55987250804901	65.000000000000	0.00000000000000
26.129999160767	0.21150355041027	-0.55898284912109	65.000000000000	0.00000000000000
26.139999389648	0.21000359952450	-0.55808663368225	65.000000000000	0.00000000000000
26.149999618530	0.20850487053394	-0.55718398094177	65.000000000000	0.00000000000000
26.159999847412	0.20700709521770	-0.55627471208572	65.000000000000	0.00000000000000
26.170000076294	0.20551060140133	-0.55535900592804	65.000000000000	0.00000000000000
26.180000305176	0.20401541888714	-0.55443674325943	65.000000000000	0.00000000000000
26.190000534058	0.20252157747746	-0.55350792407990	65.000000000000	0.00000000000000
26.200000762939	0.20102898776531	-0.55257254838943	65.000000000000	0.00000000000000
26.209999084473	0.19953794777393	-0.55163049697876	65.000000000000	0.00000000000000
26.219999313354	0.19804793596268	-0.55068206787109	65.000000000000	0.00000000000000
26.229999542236	0.19655981659889	-0.54972690343857	65.000000000000	0.00000000000000
26.239999771118	0.19507281482220	-0.54876518249512	65.000000000000	0.00000000000000
26.250000000000	0.19358749687672	-0.54779684543610	65.000000000000	0.00000000000000
26.260000228882	0.19210389256477	-0.54682195186615	65.000000000000	0.00000000000000
26.270000457764	0.19062177836895	-0.54584038257599	65.000000000000	0.00000000000000
26.280000686646	0.18914119899273	-0.54485225677490	65.000000000000	0.00000000000000
26.290000915527	0.18766243755817	-0.54385739564896	65.000000000000	0.00000000000000
26.299999237061	0.18618528544903	-0.54285603761673	65.000000000000	0.00000000000000
26.309999465942	0.18471002578735	-0.54184788465500	65.000000000000	0.00000000000000
26.319999694824	0.18323658406734	-0.54083317518234	65.000000000000	0.00000000000000
26.329999923706	0.18176496028900	-0.53981178998947	65.000000000000	0.00000000000000
26.340000152588	0.18029522895813	-0.53878378868103	65.000000000000	0.00000000000000
26.350000381470	0.17882741987705	-0.53774911165237	65.000000000000	0.00000000000000
26.360000610352	0.17736168205738	-0.53670769929886	65.000000000000	0.00000000000000
26.370000839233	0.17589777708054	-0.53565961122513	65.000000000000	0.00000000000000
26.379999160767	0.17443606257439	-0.53460496664047	65.000000000000	0.00000000000000
26.389999389648	0.17297650873661	-0.53354352712631	65.000000000000	0.00000000000000
26.399999618530	0.17151896655560	-0.53247547149658	65.000000000000	0.00000000000000
26.409999847412	0.17006379365921	-0.53140074014664	65.000000000000	0.00000000000000
26.420000076294	0.16861066222191	-0.53031927347183	65.000000000000	0.00000000000000
26.430000305176	0.16715997457504	-0.52923119068146	65.000000000000	0.00000000000000
26.440000534058	0.16571144759655	-0.52813637256622	65.000000000000	0.00000000000000
26.450000762939	0.16426533460617	-0.52703487873077	65.000000000000	0.00000000000000
26.459999084473	0.16282176971436	-0.52592664957047	65.000000000000	0.00000000000000
26.469999313354	0.16138048470020	-0.52481174468994	65.000000000000	0.00000000000000
26.479999542236	0.15994183719158	-0.52369022369385	65.000000000000	0.00000000000000
26.489999771118	0.15850560367107	-0.52256196737289	65.000000000000	0.00000000000000
26.500000000000	0.15707200765610	-0.52142703533173	65.000000000000	0.00000000000000
26.510000228882	0.15564106404781	-0.52028542757034	65.000000000000	0.00000000000000
26.520000457764	0.15421277284622	-0.51913714408875	65.000000000000	0.00000000000000
26.530000686646	0.15278708934784	-0.51798212528229	65.000000000000	0.00000000000000
26.540000915527	0.15136440098286	-0.51682049036026	65.000000000000	0.00000000000000
26.549999237061	0.14994427561760	-0.51565212011337	65.000000000000	0.00000000000000
26.559999465942	0.14852708578110	-0.51447707414627	65.000000000000	0.00000000000000
26.569999694824	0.14711277186871	-0.51329541206360	65.000000000000	0.00000000000000
26.579999923706	0.14570149779320	-0.51210701465607	65.000000000000	0.00000000000000
26.590000152588	0.14429318904877	-0.51091206073761	65.000000000000	0.00000000000000
26.600000381470	0.14288786053658	-0.50971037149429	65.000000000000	0.00000000000000
26.610000610352	0.14148554205894	-0.50850206613541	65.000000000000	0.00000000000000
26.620000839233	0.14008632302284	-0.50728714466095	65.000000000000	0.00000000000000
26.629999160767	0.13869030773640	-0.50606554746628	65.000000000000	0.00000000000000
26.639999389648	0.13729745149612	-0.50483733415604	65.000000000000	0.00000000000000
26.649999618530	0.13590787351131	-0.50360244512558	65.000000000000	0.00000000000000
26.659999847412	0.13452167809010	-0.50236105918884	65.000000000000	0.00000000000000
26.670000076294	0.13313882052898	-0.50111293792725	65.000000000000	0.00000000000000
26.680000305176	0.13175930082798	-0.49985828995705	65.000000000000	0.00000000000000
26.690000534058	0.13038320839405	-0.49859702587128	65.000000000000	0.00000000000000
26.700000762939	0.12901051342487	-0.49732923507690	65.000000000000	0.00000000000000
26.709999084473	0.12764146924019	-0.49605482816696	65.000000000000	0.00000000000000
26.719999313354	0.12627576291561	-0.49477380514145	65.000000000000	0.00000000000000
26.729999542236	0.12491391599178	-0.49348631501198	65.000000000000	0.00000000000000
26.739999771118	0.12355559319258	-0.49219220876694	65.000000000000	0.00000000000000
26.750000000000	0.12220096588135	-0.49089169502258	65.000000000000	0.00000000000000
26.760000228882	0.12085018306971	-0.48958456516266	65.000000000000	0.00000000000000
26.770000457764	0.11950305849314	-0.48827087879181	65.000000000000	0.00000000000000
26.780000686646	0.11815986037254	-0.48695075511932	65.000000000000	0.00000000000000
26.790000915527	0.11682038754225	-0.48562422394753	65.000000000000	0.00000000000000
26.799999237061	0.11548503488302	-0.48429113626480	65.000000000000	0.00000000000000
26.809999465942	0.11415360867977	-0.48295164108276	65.000000000000	0.00000000000000
26.819999694824	0.11282614618540	-0.48160570859909	65.000000000000	0.00000000000000
26.829999923706	0.11150267720222	-0.48025327920914	65.000000000000	0.00000000000000
26.840000152588	0.11018337309361	-0.47889450192451	65.000000000000	0.00000000000000
26.850000381470	0.10886825621128	-0.47752928733826	65.000000000000	0.00000000000000
26.860000610352	0.10755725950003	-0.47615772485733	65.000000000000	0.00000000000000
26.870000839233	0.10625053942204	-0.47477975487709	65.000000000000	0.00000000000000
26.879999160767	0.10494811832905	-0.47339552640915	65.000000000000	0.00000000000000
26.889999389648	0.10365004837513	-0.47200486063957	65.000000000000	0.00000000000000
26.899999618530	0.10235625505447	-0.47060796618462	65.000000000000	0.00000000000000
26.909999847412	0.10106687247753	-0.46920469403267	65.000000000000	0.00000000000000
26.920000076294	0.099781960248947	-0.46779519319534	65.000000000000	0.00000000000000
26.930000305176	0.098501540720463	-0.46637943387032	65.000000000000	0.00000000000000
26.940000534058	0.097225658595562	-0.46495741605759	65.000000000000	0.00000000000000
26.950000762939	0.095954358577728	-0.46352913975716	65.000000000000	0.00000000000000
26.959999084473	0.094687663018703	-0.46209481358528	65.000000000000	0.00000000000000
26.969999313354	0.093425735831261	-0.46065413951874	65.000000000000	0.00000000000000
26.979999542236	0.092168487608433	-0.45920735597610	65.000000000000	0.00000000000000
26.989999771118	0.090915963053703	-0.45775443315506	65.000000000000	0.00000000000000
27.000000000000	0.089668206870556	-0.45629537105560	65.000000000000	0.00000000000000
27.010000228882	0.088425360620022	-0.45483022928238	65.000000000000	0.00000000000000
27.020000457764	0.087187342345715	-0.45335906744003	65.000000000000	0.00000000000000
27.030000686646	0.085954315960407	-0.45188179612160	65.000000000000	0.00000000000000
27.040000915527	0.084726303815842	-0.45039847493172	65.000000000000	0.00000000000000
27.049999237061	0.083503127098083	-0.44890919327736	65.000000000000	0.00000000000000
27.059999465942	0.082285165786743	-0.44741392135620	65.000000000000	0.00000000000000
27.069999694824	0.081072315573692	-0.44591262936592	65.000000000000	0.00000000000000
27.079999923706	0.079864531755447	-0.44440543651581	65.000000000000	0.00000000000000
27.090000152588	0.078661948442459	-0.44289231300354	65.000000000000	0.00000000000000
27.100000381470	0.077464595437050	-0.44137331843376	65.000000000000	0.00000000000000
27.110000610352	0.076272420585155	-0.43984848260880	65.000000000000	0.00000000000000
27.120000839233	0.075085751712322	-0.43831780552864	65.000000000000	0.00000000000000
27.129999160767	0.073904335498810	-0.43678128719330	65.000000000000	0.00000000000000
27.139999389648	0.072728291153908	-0.43523901700974	65.000000000000	0.00000000000000
27.149999618530	0.071557559072971	-0.43369102478027	65.000000000000	0.00000000000000
27.159999847412	0.070392377674580	-0.43213722109795	65.000000000000	0.00000000000000
27.170000076294	0.069232791662216	-0.43057778477669	65.000000000000	0.00000000000000
27.180000305176	0.068078622221947	-0.42901265621185	65.000000000000	0.00000000000000
27.190000534058	0.066930107772350	-0.42744183540344	65.000000000000	0.00000000000000
27.200000762939	0.065787293016911	-0.42586547136307	65.000000000000	0.00000000000000
27.209999084473	0.064650200307369	-0.42428347468376	65.000000000000	0.00000000000000
27.219999313354	0.063518658280373	-0.42269593477249	65.000000000000	0.00000000000000
27.229999542236	0.062392827123404	-0.42110288143158	65.000000000000	0.00000000000000
27.239999771118	0.061272911727428	-0.41950431466103	65.000000000000	0.00000000000000
27.250000000000	0.060158759355545	-0.41790026426315	65.000000000000	0.00000000000000
27.260000228882	0.059050403535366	-0.41629081964493	65.000000000000	0.00000000000000
27.270000457764	0.057948082685471	-0.41467595100403	65.000000000000	0.00000000000000
27.280000686646	0.056851718574762	-0.41305568814278	65.000000000000	0.00000000000000
27.290000915527	0.055761151015759	-0.41143015027046	65.000000000000	0.00000000000000
27.299999237061	0.054676711559296	-0.40979927778244	65.000000000000	0.00000000000000
27.309999465942	0.053598228842020	-0.40816307067871	65.000000000000	0.00000000000000
27.319999694824	0.052525941282511	-0.40652164816856	65.000000000000	0.00000000000000
