#Parameters = {d=0.2141959798995; l2=4.28391959799; lambda=8.5678391959799; r=0.028865050251256}
#"Frequency / GHz"	"S1,1 (lambda=8.56784) [Re]"	"S1,1 (lambda=8.56784) [Im]"	"Ref.Imp. [Re]"	"Ref.Imp. [Im]"
#-----------------------------------------------------------------------------------------------------------
25.000000000000	0.57277560234070	-0.61811494827271	65.000000000000	0.00000000000000
25.010000228882	0.57172691822052	-0.61835306882858	65.000000000000	0.00000000000000
25.020000457764	0.57067573070526	-0.61858916282654	65.000000000000	0.00000000000000
25.030000686646	0.56962198019028	-0.61882317066193	65.000000000000	0.00000000000000
25.040000915527	0.56856578588486	-0.61905509233475	65.000000000000	0.00000000000000
25.049999237061	0.56750702857971	-0.61928486824036	65.000000000000	0.00000000000000
25.059999465942	0.56644582748413	-0.61951255798340	65.000000000000	0.00000000000000
25.069999694824	0.56538212299347	-0.61973816156387	65.000000000000	0.00000000000000
25.079999923706	0.56431591510773	-0.61996150016785	65.000000000000	0.00000000000000
25.090000152588	0.56324726343155	-0.62018275260925	65.000000000000	0.00000000000000
25.100000381470	0.56217598915100	-0.62040179967880	65.000000000000	0.00000000000000
25.110000610352	0.56110239028931	-0.62061870098114	65.000000000000	0.00000000000000
25.120000839233	0.56002640724182	-0.62083339691162	65.000000000000	0.00000000000000
25.129999160767	0.55894780158997	-0.62104582786560	65.000000000000	0.00000000000000
25.139999389648	0.55786675214767	-0.62125611305237	65.000000000000	0.00000000000000
25.149999618530	0.55678337812424	-0.62146395444870	65.000000000000	0.00000000000000
25.159999847412	0.55569744110107	-0.62166970968246	65.000000000000	0.00000000000000
25.170000076294	0.55460911989212	-0.62187325954437	65.000000000000	0.00000000000000
25.180000305176	0.55351835489273	-0.62207436561584	65.000000000000	0.00000000000000
25.190000534058	0.55242520570755	-0.62227332592010	65.000000000000	0.00000000000000
25.200000762939	0.55132973194122	-0.62246984243393	65.000000000000	0.00000000000000
25.209999084473	0.55023163557053	-0.62266403436661	65.000000000000	0.00000000000000
25.219999313354	0.54913139343262	-0.62285596132278	65.000000000000	0.00000000000000
25.229999542236	0.54802864789963	-0.62304550409317	65.000000000000	0.00000000000000
25.239999771118	0.54692345857620	-0.62323272228241	65.000000000000	0.00000000000000
25.250000000000	0.54581606388092	-0.62341743707657	65.000000000000	0.00000000000000
25.260000228882	0.54470604658127	-0.62359994649887	65.000000000000	0.00000000000000
25.270000457764	0.54359388351440	-0.62377995252609	65.000000000000	0.00000000000000
25.280000686646	0.54247921705246	-0.62395757436752	65.000000000000	0.00000000000000
25.290000915527	0.54136228561401	-0.62413281202316	65.000000000000	0.00000000000000
25.299999237061	0.54024302959442	-0.62430554628372	65.000000000000	0.00000000000000
25.309999465942	0.53912138938904	-0.62447589635849	65.000000000000	0.00000000000000
25.319999694824	0.53799748420715	-0.62464368343353	65.000000000000	0.00000000000000
25.329999923706	0.53687119483948	-0.62480914592743	65.000000000000	0.00000000000000
25.340000152588	0.53574264049530	-0.62497198581696	65.000000000000	0.00000000000000
25.350000381470	0.53461170196533	-0.62513238191605	65.000000000000	0.00000000000000
25.360000610352	0.53347855806351	-0.62529027462006	65.000000000000	0.00000000000000
25.370000839233	0.53234291076660	-0.62544560432434	65.000000000000	0.00000000000000
25.379999160767	0.53120517730713	-0.62559843063354	65.000000000000	0.00000000000000
25.389999389648	0.53006511926651	-0.62574881315231	65.000000000000	0.00000000000000
25.399999618530	0.52892285585403	-0.62589657306671	65.000000000000	0.00000000000000
25.409999847412	0.52777826786041	-0.62604171037674	65.000000000000	0.00000000000000
25.420000076294	0.52663141489029	-0.62618428468704	65.000000000000	0.00000000000000
25.430000305176	0.52548193931580	-0.62632447481155	65.000000000000	0.00000000000000
25.440000534058	0.52433085441589	-0.62646162509918	65.000000000000	0.00000000000000
25.450000762939	0.52317696809769	-0.62659662961960	65.000000000000	0.00000000000000
25.459999084473	0.52202111482620	-0.62672883272171	65.000000000000	0.00000000000000
25.469999313354	0.52086299657822	-0.62685829401016	65.000000000000	0.00000000000000
25.479999542236	0.51970297098160	-0.62698489427567	65.000000000000	0.00000000000000
25.489999771118	0.51853978633881	-0.62710958719254	65.000000000000	0.00000000000000
25.500000000000	0.51737534999847	-0.62723088264465	65.000000000000	0.00000000000000
25.510000228882	0.51620841026306	-0.62734973430634	65.000000000000	0.00000000000000
25.520000457764	0.51503926515579	-0.62746584415436	65.000000000000	0.00000000000000
25.530000686646	0.51386755704880	-0.62757951021194	65.000000000000	0.00000000000000
25.540000915527	0.51269406080246	-0.62769025564194	65.000000000000	0.00000000000000
25.549999237061	0.51151800155640	-0.62779843807220	65.000000000000	0.00000000000000
25.559999465942	0.51034009456635	-0.62790364027023	65.000000000000	0.00000000000000
25.569999694824	0.50916010141373	-0.62800610065460	65.000000000000	0.00000000000000
25.579999923706	0.50797754526138	-0.62810605764389	65.000000000000	0.00000000000000
25.590000152588	0.50679320096970	-0.62820297479630	65.000000000000	0.00000000000000
25.600000381470	0.50560641288757	-0.62829732894897	65.000000000000	0.00000000000000
25.610000610352	0.50441777706146	-0.62838864326477	65.000000000000	0.00000000000000
25.620000839233	0.50322675704956	-0.62847733497620	65.000000000000	0.00000000000000
25.629999160767	0.50203359127045	-0.62856316566467	65.000000000000	0.00000000000000
25.639999389648	0.50083827972412	-0.62864619493484	65.000000000000	0.00000000000000
25.649999618530	0.49964094161987	-0.62872642278671	65.000000000000	0.00000000000000
25.659999847412	0.49844145774841	-0.62880367040634	65.000000000000	0.00000000000000
25.670000076294	0.49723994731903	-0.62887805700302	65.000000000000	0.00000000000000
25.680000305176	0.49603626132011	-0.62894952297211	65.000000000000	0.00000000000000
25.690000534058	0.49483025074005	-0.62901830673218	65.000000000000	0.00000000000000
25.700000762939	0.49362221360207	-0.62908422946930	65.000000000000	0.00000000000000
25.709999084473	0.49241235852242	-0.62914693355560	65.000000000000	0.00000000000000
25.719999313354	0.49120017886162	-0.62920683622360	65.000000000000	0.00000000000000
25.729999542236	0.48998597264290	-0.62926387786865	65.000000000000	0.00000000000000
25.739999771118	0.48876976966858	-0.62931793928146	65.000000000000	0.00000000000000
25.750000000000	0.48755112290382	-0.62936919927597	65.000000000000	0.00000000000000
25.760000228882	0.48633086681366	-0.62941724061966	65.000000000000	0.00000000000000
25.770000457764	0.48510828614235	-0.62946248054504	65.000000000000	0.00000000000000
25.780000686646	0.48388370871544	-0.62950468063354	65.000000000000	0.00000000000000
25.790000915527	0.48265695571899	-0.62954384088516	65.000000000000	0.00000000000000
25.799999237061	0.48142823576927	-0.62957996129990	65.000000000000	0.00000000000000
25.809999465942	0.48019754886627	-0.62961316108704	65.000000000000	0.00000000000000
25.819999694824	0.47896471619606	-0.62964332103729	65.000000000000	0.00000000000000
25.829999923706	0.47772994637489	-0.62967032194138	65.000000000000	0.00000000000000
25.840000152588	0.47649303078651	-0.62969434261322	65.000000000000	0.00000000000000
25.850000381470	0.47525423765182	-0.62971526384354	65.000000000000	0.00000000000000
25.860000610352	0.47401335835457	-0.62973314523697	65.000000000000	0.00000000000000
25.870000839233	0.47277054190636	-0.62974792718887	65.000000000000	0.00000000000000
25.879999160767	0.47152560949326	-0.62975949048996	65.000000000000	0.00000000000000
25.889999389648	0.47027865052223	-0.62976801395416	65.000000000000	0.00000000000000
25.899999618530	0.46902978420258	-0.62977337837219	65.000000000000	0.00000000000000
25.909999847412	0.46777883172035	-0.62977558374405	65.000000000000	0.00000000000000
25.920000076294	0.46652606129646	-0.62977468967438	65.000000000000	0.00000000000000
25.930000305176	0.46527111530304	-0.62977057695389	65.000000000000	0.00000000000000
25.940000534058	0.46401423215866	-0.62976324558258	65.000000000000	0.00000000000000
25.950000762939	0.46275559067726	-0.62975281476974	65.000000000000	0.00000000000000
25.959999084473	0.46149471402168	-0.62973910570145	65.000000000000	0.00000000000000
25.969999313354	0.46023201942444	-0.62972211837769	65.000000000000	0.00000000000000
25.979999542236	0.45896732807159	-0.62970197200775	65.000000000000	0.00000000000000
25.989999771118	0.45770069956779	-0.62967854738235	65.000000000000	0.00000000000000
26.000000000000	0.45643207430840	-0.62965190410614	65.000000000000	0.00000000000000
26.010000228882	0.45516163110733	-0.62962198257446	65.000000000000	0.00000000000000
26.020000457764	0.45388925075531	-0.62958866357803	65.000000000000	0.00000000000000
26.030000686646	0.45261478424072	-0.62955218553543	65.000000000000	0.00000000000000
26.040000915527	0.45133855938911	-0.62951231002808	65.000000000000	0.00000000000000
26.049999237061	0.45006039738655	-0.62946909666061	65.000000000000	0.00000000000000
26.059999465942	0.44878029823303	-0.62942260503769	65.000000000000	0.00000000000000
26.069999694824	0.44749832153320	-0.62937271595001	65.000000000000	0.00000000000000
26.079999923706	0.44621443748474	-0.62931942939758	65.000000000000	0.00000000000000
26.090000152588	0.44492867588997	-0.62926280498505	65.000000000000	0.00000000000000
26.100000381470	0.44364103674889	-0.62920266389847	65.000000000000	0.00000000000000
26.110000610352	0.44235154986382	-0.62913930416107	65.000000000000	0.00000000000000
26.120000839233	0.44106003642082	-0.62907242774963	65.000000000000	0.00000000000000
26.129999160767	0.43976679444313	-0.62900209426880	65.000000000000	0.00000000000000
26.139999389648	0.43847161531448	-0.62892830371857	65.000000000000	0.00000000000000
26.149999618530	0.43717470765114	-0.62885105609894	65.000000000000	0.00000000000000
26.159999847412	0.43587586283684	-0.62877035140991	65.000000000000	0.00000000000000
26.170000076294	0.43457522988319	-0.62868613004684	65.000000000000	0.00000000000000
26.180000305176	0.43327260017395	-0.62859833240509	65.000000000000	0.00000000000000
26.190000534058	0.43196836113930	-0.62850707769394	65.000000000000	0.00000000000000
26.200000762939	0.43066218495369	-0.62841230630875	65.000000000000	0.00000000000000
26.209999084473	0.42935422062874	-0.62831389904022	65.000000000000	0.00000000000000
26.219999313354	0.42804449796677	-0.62821203470230	65.000000000000	0.00000000000000
26.229999542236	0.42673289775848	-0.62810653448105	65.000000000000	0.00000000000000
26.239999771118	0.42541953921318	-0.62799745798111	65.000000000000	0.00000000000000
26.250000000000	0.42410445213318	-0.62788468599319	65.000000000000	0.00000000000000
26.260000228882	0.42278751730919	-0.62776839733124	65.000000000000	0.00000000000000
26.270000457764	0.42146888375282	-0.62764835357666	65.000000000000	0.00000000000000
26.280000686646	0.42014852166176	-0.62752473354340	65.000000000000	0.00000000000000
26.290000915527	0.41882631182671	-0.62739735841751	65.000000000000	0.00000000000000
26.299999237061	0.41750246286392	-0.62726640701294	65.000000000000	0.00000000000000
26.309999465942	0.41617670655251	-0.62713164091110	65.000000000000	0.00000000000000
26.319999694824	0.41484925150871	-0.62699323892593	65.000000000000	0.00000000000000
26.329999923706	0.41352024674416	-0.62685108184814	65.000000000000	0.00000000000000
26.340000152588	0.41218930482864	-0.62670511007309	65.000000000000	0.00000000000000
26.350000381470	0.41085690259933	-0.62655544281006	65.000000000000	0.00000000000000
26.360000610352	0.40952253341675	-0.62640190124512	65.000000000000	0.00000000000000
26.370000839233	0.40818664431572	-0.62624460458755	65.000000000000	0.00000000000000
26.379999160767	0.40684896707535	-0.62608355283737	65.000000000000	0.00000000000000
26.389999389648	0.40550974011421	-0.62591862678528	65.000000000000	0.00000000000000
26.399999618530	0.40416881442070	-0.62574988603592	65.000000000000	0.00000000000000
26.409999847412	0.40282610058784	-0.62557727098465	65.000000000000	0.00000000000000
26.420000076294	0.40148189663887	-0.62540078163147	65.000000000000	0.00000000000000
26.430000305176	0.40013599395752	-0.62522029876709	65.000000000000	0.00000000000000
26.440000534058	0.39878857135773	-0.62503600120544	65.000000000000	0.00000000000000
26.450000762939	0.39743936061859	-0.62484776973724	65.000000000000	0.00000000000000
26.459999084473	0.39608865976334	-0.62465560436249	65.000000000000	0.00000000000000
26.469999313354	0.39473626017570	-0.62445944547653	65.000000000000	0.00000000000000
26.479999542236	0.39338243007660	-0.62425929307938	65.000000000000	0.00000000000000
26.489999771118	0.39202687144279	-0.62405526638031	65.000000000000	0.00000000000000
26.500000000000	0.39066967368126	-0.62384712696075	65.000000000000	0.00000000000000
26.510000228882	0.38931116461754	-0.62363493442535	65.000000000000	0.00000000000000
26.520000457764	0.38795083761215	-0.62341880798340	65.000000000000	0.00000000000000
26.530000686646	0.38658919930458	-0.62319850921631	65.000000000000	0.00000000000000
26.540000915527	0.38522586226463	-0.62297421693802	65.000000000000	0.00000000000000
26.549999237061	0.38386100530624	-0.62274575233459	65.000000000000	0.00000000000000
26.559999465942	0.38249477744102	-0.62251323461533	65.000000000000	0.00000000000000
26.569999694824	0.38112708926201	-0.62227660417557	65.000000000000	0.00000000000000
26.579999923706	0.37975782155991	-0.62203580141068	65.000000000000	0.00000000000000
26.590000152588	0.37838697433472	-0.62179088592529	65.000000000000	0.00000000000000
26.600000381470	0.37701496481895	-0.62154167890549	65.000000000000	0.00000000000000
26.610000610352	0.37564116716385	-0.62128847837448	65.000000000000	0.00000000000000
26.620000839233	0.37426605820656	-0.62103086709976	65.000000000000	0.00000000000000
26.629999160767	0.37288954854012	-0.62076914310455	65.000000000000	0.00000000000000
26.639999389648	0.37151160836220	-0.62050312757492	65.000000000000	0.00000000000000
26.649999618530	0.37013229727745	-0.62023288011551	65.000000000000	0.00000000000000
26.659999847412	0.36875158548355	-0.61995834112167	65.000000000000	0.00000000000000
26.670000076294	0.36736935377121	-0.61967951059341	65.000000000000	0.00000000000000
26.680000305176	0.36598592996597	-0.61939632892609	65.000000000000	0.00000000000000
26.690000534058	0.36460110545158	-0.61910885572433	65.000000000000	0.00000000000000
26.700000762939	0.36321499943733	-0.61881703138351	65.000000000000	0.00000000000000
26.709999084473	0.36182752251625	-0.61852079629898	65.000000000000	0.00000000000000
26.719999313354	0.36043864488602	-0.61822026968002	65.000000000000	0.00000000000000
26.729999542236	0.35904848575592	-0.61791527271271	65.000000000000	0.00000000000000
26.739999771118	0.35765719413757	-0.61760586500168	65.000000000000	0.00000000000000
26.750000000000	0.35626450181007	-0.61729204654694	65.000000000000	0.00000000000000
26.760000228882	0.35487058758736	-0.61697375774384	65.000000000000	0.00000000000000
26.770000457764	0.35347557067871	-0.61665105819702	65.000000000000	0.00000000000000
26.780000686646	0.35207906365395	-0.61632388830185	65.000000000000	0.00000000000000
26.790000915527	0.35068148374557	-0.61599212884903	65.000000000000	0.00000000000000
26.799999237061	0.34928274154663	-0.61565583944321	65.000000000000	0.00000000000000
26.809999465942	0.34788268804550	-0.61531502008438	65.000000000000	0.00000000000000
26.819999694824	0.34648153185844	-0.61496973037720	65.000000000000	0.00000000000000
26.829999923706	0.34507921338081	-0.61461985111237	65.000000000000	0.00000000000000
26.840000152588	0.34367576241493	-0.61426532268524	65.000000000000	0.00000000000000
26.850000381470	0.34227123856544	-0.61390620470047	65.000000000000	0.00000000000000
26.860000610352	0.34086561203003	-0.61354249715805	65.000000000000	0.00000000000000
26.870000839233	0.33945882320404	-0.61317414045334	65.000000000000	0.00000000000000
26.879999160767	0.33805096149445	-0.61280107498169	65.000000000000	0.00000000000000
26.889999389648	0.33664217591286	-0.61242336034775	65.000000000000	0.00000000000000
26.899999618530	0.33523213863373	-0.61204099655151	65.000000000000	0.00000000000000
26.909999847412	0.33382120728493	-0.61165386438370	65.000000000000	0.00000000000000
26.920000076294	0.33240935206413	-0.61126208305359	65.000000000000	0.00000000000000
26.930000305176	0.33099636435509	-0.61086547374725	65.000000000000	0.00000000000000
26.940000534058	0.32958242297173	-0.61046409606934	65.000000000000	0.00000000000000
26.950000762939	0.32816758751869	-0.61005800962448	65.000000000000	0.00000000000000
26.959999084473	0.32675179839134	-0.60964709520340	65.000000000000	0.00000000000000
26.969999313354	0.32533487677574	-0.60923141241074	65.000000000000	0.00000000000000
26.979999542236	0.32391735911369	-0.60881084203720	65.000000000000	0.00000000000000
26.989999771118	0.32249882817268	-0.60838544368744	65.000000000000	0.00000000000000
27.000000000000	0.32107949256897	-0.60795521736145	65.000000000000	0.00000000000000
27.010000228882	0.31965920329094	-0.60752010345459	65.000000000000	0.00000000000000
27.020000457764	0.31823822855949	-0.60708004236221	65.000000000000	0.00000000000000
27.030000686646	0.31681632995605	-0.60663509368896	65.000000000000	0.00000000000000
27.040000915527	0.31539371609688	-0.60618525743484	65.000000000000	0.00000000000000
27.049999237061	0.31397032737732	-0.60573041439056	65.000000000000	0.00000000000000
27.059999465942	0.31254610419273	-0.60527068376541	65.000000000000	0.00000000000000
27.069999694824	0.31112131476402	-0.60480594635010	65.000000000000	0.00000000000000
27.079999923706	0.30969569087029	-0.60433626174927	65.000000000000	0.00000000000000
27.090000152588	0.30826941132545	-0.60386151075363	65.000000000000	0.00000000000000
27.100000381470	0.30684250593185	-0.60338169336319	65.000000000000	0.00000000000000
27.110000610352	0.30541494488716	-0.60289686918259	65.000000000000	0.00000000000000
27.120000839233	0.30398663878441	-0.60240697860718	65.000000000000	0.00000000000000
27.129999160767	0.30255779623985	-0.60191208124161	65.000000000000	0.00000000000000
27.139999389648	0.30112835764885	-0.60141205787659	65.000000000000	0.00000000000000
27.149999618530	0.29969841241837	-0.60090690851212	65.000000000000	0.00000000000000
27.159999847412	0.29826790094376	-0.60039657354355	65.000000000000	0.00000000000000
27.170000076294	0.29683694243431	-0.59988123178482	65.000000000000	0.00000000000000
27.180000305176	0.29540547728539	-0.59936064481735	65.000000000000	0.00000000000000
27.190000534058	0.29397341609001	-0.59883493185043	65.000000000000	0.00000000000000
27.200000762939	0.29254093766212	-0.59830409288406	65.000000000000	0.00000000000000
27.209999084473	0.29110816121101	-0.59776794910431	65.000000000000	0.00000000000000
27.219999313354	0.28967475891113	-0.59722667932510	65.000000000000	0.00000000000000
27.229999542236	0.28824123740196	-0.59668004512787	65.000000000000	0.00000000000000
27.239999771118	0.28680709004402	-0.59612834453583	65.000000000000	0.00000000000000
27.250000000000	0.28537291288376	-0.59557121992111	65.000000000000	0.00000000000000
27.260000228882	0.28393813967705	-0.59500896930695	65.000000000000	0.00000000000000
27.270000457764	0.28250309824944	-0.59444141387939	65.000000000000	0.00000000000000
27.280000686646	0.28106805682182	-0.59386849403381	65.000000000000	0.00000000000000
27.290000915527	0.27963250875473	-0.59329026937485	65.000000000000	0.00000000000000
27.299999237061	0.27819675207138	-0.59270668029785	65.000000000000	0.00000000000000
27.309999465942	0.27676081657410	-0.59211790561676	65.000000000000	0.00000000000000
27.319999694824	0.27532485127449	-0.59152364730835	65.000000000000	0.00000000000000
27.329999923706	0.27388873696327	-0.59092396497726	65.000000000000	0.00000000000000
