#Parameters = {d=0.23731155778894; l2=4.7462311557789; lambda=9.4924623115578; r=0.031980105527638}
#"Frequency / GHz"	"S1,1 (lambda=9.49246) [Re]"	"S1,1 (lambda=9.49246) [Im]"	"Ref.Imp. [Re]"	"Ref.Imp. [Im]"
#-----------------------------------------------------------------------------------------------------------
25.000000000000	0.22552099823952	-0.56613677740097	65.000000000000	0.00000000000000
25.010000228882	0.22396415472031	-0.56526905298233	65.000000000000	0.00000000000000
25.020000457764	0.22240798175335	-0.56439465284348	65.000000000000	0.00000000000000
25.030000686646	0.22085255384445	-0.56351357698441	65.000000000000	0.00000000000000
25.040000915527	0.21929803490639	-0.56262588500977	65.000000000000	0.00000000000000
25.049999237061	0.21774417161942	-0.56173151731491	65.000000000000	0.00000000000000
25.059999465942	0.21619130671024	-0.56083041429520	65.000000000000	0.00000000000000
25.069999694824	0.21463915705681	-0.55992251634598	65.000000000000	0.00000000000000
25.079999923706	0.21308805048466	-0.55900788307190	65.000000000000	0.00000000000000
25.090000152588	0.21153791248798	-0.55808651447296	65.000000000000	0.00000000000000
25.100000381470	0.20998872816563	-0.55715829133987	65.000000000000	0.00000000000000
25.110000610352	0.20844060182571	-0.55622333288193	65.000000000000	0.00000000000000
25.120000839233	0.20689362287521	-0.55528151988983	65.000000000000	0.00000000000000
25.129999160767	0.20534774661064	-0.55433291196823	65.000000000000	0.00000000000000
25.139999389648	0.20380300283432	-0.55337738990784	65.000000000000	0.00000000000000
25.149999618530	0.20225942134857	-0.55241501331329	65.000000000000	0.00000000000000
25.159999847412	0.20071718096733	-0.55144566297531	65.000000000000	0.00000000000000
25.170000076294	0.19917614758015	-0.55046945810318	65.000000000000	0.00000000000000
25.180000305176	0.19763654470444	-0.54948633909225	65.000000000000	0.00000000000000
25.190000534058	0.19609826803207	-0.54849630594254	65.000000000000	0.00000000000000
25.200000762939	0.19456133246422	-0.54749917984009	65.000000000000	0.00000000000000
25.209999084473	0.19302593171597	-0.54649519920349	65.000000000000	0.00000000000000
25.219999313354	0.19149194657803	-0.54548424482346	65.000000000000	0.00000000000000
25.229999542236	0.18995958566666	-0.54446631669998	65.000000000000	0.00000000000000
25.239999771118	0.18842896819115	-0.54344117641449	65.000000000000	0.00000000000000
25.250000000000	0.18689966201782	-0.54240924119949	65.000000000000	0.00000000000000
25.260000228882	0.18537220358849	-0.54137015342712	65.000000000000	0.00000000000000
25.270000457764	0.18384636938572	-0.54032397270203	65.000000000000	0.00000000000000
25.280000686646	0.18232247233391	-0.53927075862885	65.000000000000	0.00000000000000
25.290000915527	0.18080025911331	-0.53821045160294	65.000000000000	0.00000000000000
25.299999237061	0.17927984893322	-0.53714317083359	65.000000000000	0.00000000000000
25.309999465942	0.17776145040989	-0.53606867790222	65.000000000000	0.00000000000000
25.319999694824	0.17624488472939	-0.53498715162277	65.000000000000	0.00000000000000
25.329999923706	0.17473044991493	-0.53389841318130	65.000000000000	0.00000000000000
25.340000152588	0.17321795225143	-0.53280264139175	65.000000000000	0.00000000000000
25.350000381470	0.17170740664005	-0.53169971704483	65.000000000000	0.00000000000000
25.360000610352	0.17019936442375	-0.53058958053589	65.000000000000	0.00000000000000
25.370000839233	0.16869336366653	-0.52947229146957	65.000000000000	0.00000000000000
25.379999160767	0.16718946397305	-0.52834790945053	65.000000000000	0.00000000000000
25.389999389648	0.16568791866302	-0.52721637487411	65.000000000000	0.00000000000000
25.399999618530	0.16418881714344	-0.52607762813568	65.000000000000	0.00000000000000
25.409999847412	0.16269193589687	-0.52493166923523	65.000000000000	0.00000000000000
25.420000076294	0.16119757294655	-0.52377867698669	65.000000000000	0.00000000000000
25.430000305176	0.15970574319363	-0.52261829376221	65.000000000000	0.00000000000000
25.440000534058	0.15821625292301	-0.52145087718964	65.000000000000	0.00000000000000
25.450000762939	0.15672963857651	-0.52027606964111	65.000000000000	0.00000000000000
25.459999084473	0.15524548292160	-0.51909422874451	65.000000000000	0.00000000000000
25.469999313354	0.15376381576061	-0.51790523529053	65.000000000000	0.00000000000000
25.479999542236	0.15228511393070	-0.51670891046524	65.000000000000	0.00000000000000
25.489999771118	0.15080925822258	-0.51550537347794	65.000000000000	0.00000000000000
25.500000000000	0.14933601021767	-0.51429468393326	65.000000000000	0.00000000000000
25.510000228882	0.14786565303802	-0.51307684183121	65.000000000000	0.00000000000000
25.520000457764	0.14639848470688	-0.51185172796249	65.000000000000	0.00000000000000
25.530000686646	0.14493405818939	-0.51061940193176	65.000000000000	0.00000000000000
25.540000915527	0.14347290992737	-0.50937986373901	65.000000000000	0.00000000000000
25.549999237061	0.14201459288597	-0.50813305377960	65.000000000000	0.00000000000000
25.559999465942	0.14055964350700	-0.50687909126282	65.000000000000	0.00000000000000
25.569999694824	0.13910785317421	-0.50561791658401	65.000000000000	0.00000000000000
25.579999923706	0.13765905797482	-0.50434970855713	65.000000000000	0.00000000000000
25.590000152588	0.13621371984482	-0.50307416915894	65.000000000000	0.00000000000000
25.600000381470	0.13477194309235	-0.50179141759872	65.000000000000	0.00000000000000
25.610000610352	0.13333325088024	-0.50050151348114	65.000000000000	0.00000000000000
25.620000839233	0.13189820945263	-0.49920439720154	65.000000000000	0.00000000000000
25.629999160767	0.13046684861183	-0.49790015816689	65.000000000000	0.00000000000000
25.639999389648	0.12903892993927	-0.49658861756325	65.000000000000	0.00000000000000
25.649999618530	0.12761431932449	-0.49527004361153	65.000000000000	0.00000000000000
25.659999847412	0.12619376182556	-0.49394428730011	65.000000000000	0.00000000000000
25.670000076294	0.12477657943964	-0.49261143803596	65.000000000000	0.00000000000000
25.680000305176	0.12336328625679	-0.49127140641212	65.000000000000	0.00000000000000
25.690000534058	0.12195394188166	-0.48992422223091	65.000000000000	0.00000000000000
25.700000762939	0.12054856866598	-0.48856985569000	65.000000000000	0.00000000000000
25.709999084473	0.11914677917957	-0.48720854520798	65.000000000000	0.00000000000000
25.719999313354	0.11774929612875	-0.48584002256393	65.000000000000	0.00000000000000
25.729999542236	0.11635569483042	-0.48446446657181	65.000000000000	0.00000000000000
25.739999771118	0.11496625095606	-0.48308178782463	65.000000000000	0.00000000000000
25.750000000000	0.11358080059290	-0.48169210553169	65.000000000000	0.00000000000000
25.760000228882	0.11219982802868	-0.48029533028603	65.000000000000	0.00000000000000
25.770000457764	0.11082293838263	-0.47889149188995	65.000000000000	0.00000000000000
25.780000686646	0.10945037752390	-0.47748064994812	65.000000000000	0.00000000000000
25.790000915527	0.10808197408915	-0.47606283426285	65.000000000000	0.00000000000000
25.799999237061	0.10671824961901	-0.47463804483414	65.000000000000	0.00000000000000
25.809999465942	0.10535900294781	-0.47320622205734	65.000000000000	0.00000000000000
25.819999694824	0.10400404781103	-0.47176748514175	65.000000000000	0.00000000000000
25.829999923706	0.10265389829874	-0.47032180428505	65.000000000000	0.00000000000000
25.840000152588	0.10130824148655	-0.46886914968491	65.000000000000	0.00000000000000
25.850000381470	0.099967248737812	-0.46740958094597	65.000000000000	0.00000000000000
25.860000610352	0.098631069064140	-0.46594315767288	65.000000000000	0.00000000000000
25.870000839233	0.097299650311470	-0.46446990966797	65.000000000000	0.00000000000000
25.879999160767	0.095973007380962	-0.46298971772194	65.000000000000	0.00000000000000
25.889999389648	0.094651207327843	-0.46150276064873	65.000000000000	0.00000000000000
25.899999618530	0.093334399163723	-0.46000900864601	65.000000000000	0.00000000000000
25.909999847412	0.092022627592087	-0.45850843191147	65.000000000000	0.00000000000000
25.920000076294	0.090715833008289	-0.45700109004974	65.000000000000	0.00000000000000
25.930000305176	0.089414164423943	-0.45548704266548	65.000000000000	0.00000000000000
25.940000534058	0.088117651641369	-0.45396620035172	65.000000000000	0.00000000000000
25.950000762939	0.086826249957085	-0.45243871212006	65.000000000000	0.00000000000000
25.959999084473	0.085540205240250	-0.45090454816818	65.000000000000	0.00000000000000
25.969999313354	0.084259361028671	-0.44936379790306	65.000000000000	0.00000000000000
25.979999542236	0.082983955740929	-0.44781631231308	65.000000000000	0.00000000000000
25.989999771118	0.081713832914829	-0.44626227021217	65.000000000000	0.00000000000000
26.000000000000	0.080449253320694	-0.44470164179802	65.000000000000	0.00000000000000
26.010000228882	0.079190135002136	-0.44313448667526	65.000000000000	0.00000000000000
26.020000457764	0.077936641871929	-0.44156077504158	65.000000000000	0.00000000000000
26.030000686646	0.076688699424267	-0.43998062610626	65.000000000000	0.00000000000000
26.040000915527	0.075446255505085	-0.43839395046234	65.000000000000	0.00000000000000
26.049999237061	0.074209667742252	-0.43680092692375	65.000000000000	0.00000000000000
26.059999465942	0.072978861629963	-0.43520146608353	65.000000000000	0.00000000000000
26.069999694824	0.071753688156605	-0.43359559774399	65.000000000000	0.00000000000000
26.079999923706	0.070534482598305	-0.43198338150978	65.000000000000	0.00000000000000
26.090000152588	0.069321088492870	-0.43036484718323	65.000000000000	0.00000000000000
26.100000381470	0.068113751709461	-0.42874008417130	65.000000000000	0.00000000000000
26.110000610352	0.066912315785885	-0.42710900306702	65.000000000000	0.00000000000000
26.120000839233	0.065716922283173	-0.42547178268433	65.000000000000	0.00000000000000
26.129999160767	0.064527697861195	-0.42382827401161	65.000000000000	0.00000000000000
26.139999389648	0.063344396650791	-0.42217865586281	65.000000000000	0.00000000000000
26.149999618530	0.062167450785637	-0.42052292823792	65.000000000000	0.00000000000000
26.159999847412	0.060996711254120	-0.41886112093925	65.000000000000	0.00000000000000
26.170000076294	0.059832211583853	-0.41719320416451	65.000000000000	0.00000000000000
26.180000305176	0.058674089610577	-0.41551932692528	65.000000000000	0.00000000000000
26.190000534058	0.057522293180227	-0.41383945941925	65.000000000000	0.00000000000000
26.200000762939	0.056376855820417	-0.41215360164642	65.000000000000	0.00000000000000
26.209999084473	0.055237911641598	-0.41046181321144	65.000000000000	0.00000000000000
26.219999313354	0.054105501621962	-0.40876421332359	65.000000000000	0.00000000000000
26.229999542236	0.052979573607445	-0.40706077218056	65.000000000000	0.00000000000000
26.239999771118	0.051860265433788	-0.40535151958466	65.000000000000	0.00000000000000
26.250000000000	0.050747599452734	-0.40363645553589	65.000000000000	0.00000000000000
26.260000228882	0.049641534686089	-0.40191572904587	65.000000000000	0.00000000000000
26.270000457764	0.048542287200689	-0.40018931031227	65.000000000000	0.00000000000000
26.280000686646	0.047449711710215	-0.39845722913742	65.000000000000	0.00000000000000
26.290000915527	0.046364031732082	-0.39671948552132	65.000000000000	0.00000000000000
26.299999237061	0.045285098254681	-0.39497628808022	65.000000000000	0.00000000000000
26.309999465942	0.044213134795427	-0.39322748780251	65.000000000000	0.00000000000000
26.319999694824	0.043148081749678	-0.39147323369980	65.000000000000	0.00000000000000
26.329999923706	0.042089886963367	-0.38971355557442	65.000000000000	0.00000000000000
26.340000152588	0.041038766503334	-0.38794842362404	65.000000000000	0.00000000000000
26.350000381470	0.039994765073061	-0.38617792725563	65.000000000000	0.00000000000000
26.360000610352	0.038957908749580	-0.38440215587616	65.000000000000	0.00000000000000
26.370000839233	0.037928052246571	-0.38262104988098	65.000000000000	0.00000000000000
26.379999160767	0.036905411630869	-0.38083478808403	65.000000000000	0.00000000000000
26.389999389648	0.035890027880669	-0.37904331088066	65.000000000000	0.00000000000000
26.399999618530	0.034881744533777	-0.37724661827087	65.000000000000	0.00000000000000
26.409999847412	0.033880874514580	-0.37544488906860	65.000000000000	0.00000000000000
26.420000076294	0.032887358218431	-0.37363815307617	65.000000000000	0.00000000000000
26.430000305176	0.031901139765978	-0.37182635068893	65.000000000000	0.00000000000000
26.440000534058	0.030922340229154	-0.37000957131386	65.000000000000	0.00000000000000
26.450000762939	0.029950909316540	-0.36818787455559	65.000000000000	0.00000000000000
26.459999084473	0.028986960649490	-0.36636132001877	65.000000000000	0.00000000000000
26.469999313354	0.028030619025230	-0.36452990770340	65.000000000000	0.00000000000000
26.479999542236	0.027081742882729	-0.36269375681877	65.000000000000	0.00000000000000
26.489999771118	0.026140442118049	-0.36085283756256	65.000000000000	0.00000000000000
26.500000000000	0.025206672027707	-0.35900723934174	65.000000000000	0.00000000000000
26.510000228882	0.024280717596412	-0.35715702176094	65.000000000000	0.00000000000000
26.520000457764	0.023362353444099	-0.35530218482018	65.000000000000	0.00000000000000
26.530000686646	0.022451691329479	-0.35344281792641	65.000000000000	0.00000000000000
26.540000915527	0.021548856049776	-0.35157895088196	65.000000000000	0.00000000000000
26.549999237061	0.020653698593378	-0.34971064329147	65.000000000000	0.00000000000000
26.559999465942	0.019766336306930	-0.34783792495728	65.000000000000	0.00000000000000
26.569999694824	0.018886880949140	-0.34596085548401	65.000000000000	0.00000000000000
26.579999923706	0.018015284091234	-0.34407952427864	65.000000000000	0.00000000000000
26.590000152588	0.017151566222310	-0.34219393134117	65.000000000000	0.00000000000000
26.600000381470	0.016295842826366	-0.34030410647392	65.000000000000	0.00000000000000
26.610000610352	0.015448059886694	-0.33841013908386	65.000000000000	0.00000000000000
26.620000839233	0.014608161523938	-0.33651208877563	65.000000000000	0.00000000000000
26.629999160767	0.013776420615613	-0.33460998535156	65.000000000000	0.00000000000000
26.639999389648	0.012952622957528	-0.33270388841629	65.000000000000	0.00000000000000
26.649999618530	0.012136874720454	-0.33079382777214	65.000000000000	0.00000000000000
26.659999847412	0.011329283937812	-0.32887992262840	65.000000000000	0.00000000000000
26.670000076294	0.010529796592891	-0.32696214318275	65.000000000000	0.00000000000000
26.680000305176	0.0097385933622718	-0.32504054903984	65.000000000000	0.00000000000000
26.690000534058	0.0089553901925683	-0.32311525940895	65.000000000000	0.00000000000000
26.700000762939	0.0081805223599076	-0.32118624448776	65.000000000000	0.00000000000000
26.709999084473	0.0074138613417745	-0.31925365328789	65.000000000000	0.00000000000000
26.719999313354	0.0066554313525558	-0.31731745600700	65.000000000000	0.00000000000000
26.729999542236	0.0059052580036223	-0.31537774205208	65.000000000000	0.00000000000000
26.739999771118	0.0051633650436997	-0.31343454122543	65.000000000000	0.00000000000000
26.750000000000	0.0044299261644483	-0.31148791313171	65.000000000000	0.00000000000000
26.760000228882	0.0037046677898616	-0.30953791737556	65.000000000000	0.00000000000000
26.770000457764	0.0029879095964134	-0.30758461356163	65.000000000000	0.00000000000000
26.780000686646	0.0022795265540481	-0.30562806129456	65.000000000000	0.00000000000000
26.790000915527	0.0015795420622453	-0.30366829037666	65.000000000000	0.00000000000000
26.799999237061	0.00088797876378521	-0.30170536041260	65.000000000000	0.00000000000000
26.809999465942	0.00020485947607085	-0.29973936080933	65.000000000000	0.00000000000000
26.819999694824	-0.00046979353646748	-0.29777029156685	65.000000000000	0.00000000000000
26.829999923706	-0.0011359583586454	-0.29579824209213	65.000000000000	0.00000000000000
26.840000152588	-0.0017935431096703	-0.29382327198982	65.000000000000	0.00000000000000
26.850000381470	-0.0024426672607660	-0.29184544086456	65.000000000000	0.00000000000000
26.860000610352	-0.0030831699259579	-0.28986477851868	65.000000000000	0.00000000000000
26.870000839233	-0.0037151684518903	-0.28788131475449	65.000000000000	0.00000000000000
26.879999160767	-0.0043385741300881	-0.28589516878128	65.000000000000	0.00000000000000
26.889999389648	-0.0049533662386239	-0.28390637040138	65.000000000000	0.00000000000000
26.899999618530	-0.0055595920421183	-0.28191491961479	65.000000000000	0.00000000000000
26.909999847412	-0.0061571635305882	-0.27992096543312	65.000000000000	0.00000000000000
26.920000076294	-0.0067460625432432	-0.27792450785637	65.000000000000	0.00000000000000
26.930000305176	-0.0073262699879706	-0.27592563629150	65.000000000000	0.00000000000000
26.940000534058	-0.0078978324308991	-0.27392435073853	65.000000000000	0.00000000000000
26.950000762939	-0.0084607945755124	-0.27192080020905	65.000000000000	0.00000000000000
26.959999084473	-0.0090150078758597	-0.26991492509842	65.000000000000	0.00000000000000
26.969999313354	-0.0095604546368122	-0.26790684461594	65.000000000000	0.00000000000000
26.979999542236	-0.010097181424499	-0.26589661836624	65.000000000000	0.00000000000000
26.989999771118	-0.010625231079757	-0.26388433575630	65.000000000000	0.00000000000000
27.000000000000	-0.011144523508847	-0.26186993718147	65.000000000000	0.00000000000000
27.010000228882	-0.011654979549348	-0.25985357165337	65.000000000000	0.00000000000000
27.020000457764	-0.012156705372036	-0.25783529877663	65.000000000000	0.00000000000000
27.030000686646	-0.012649682350457	-0.25581514835358	65.000000000000	0.00000000000000
27.040000915527	-0.013133891858160	-0.25379317998886	65.000000000000	0.00000000000000
27.049999237061	-0.013609256595373	-0.25176942348480	65.000000000000	0.00000000000000
27.059999465942	-0.014075822196901	-0.24974398314953	65.000000000000	0.00000000000000
27.069999694824	-0.014533627778292	-0.24771691858768	65.000000000000	0.00000000000000
27.079999923706	-0.014982539229095	-0.24568821489811	65.000000000000	0.00000000000000
27.090000152588	-0.015422658994794	-0.24365802109241	65.000000000000	0.00000000000000
27.100000381470	-0.015853967517614	-0.24162630736828	65.000000000000	0.00000000000000
27.110000610352	-0.016276445239782	-0.23959317803383	65.000000000000	0.00000000000000
27.120000839233	-0.016690023243427	-0.23755869269371	65.000000000000	0.00000000000000
27.129999160767	-0.017094796523452	-0.23552289605141	65.000000000000	0.00000000000000
27.139999389648	-0.017490748316050	-0.23348583281040	65.000000000000	0.00000000000000
27.149999618530	-0.017877751961350	-0.23144759237766	65.000000000000	0.00000000000000
27.159999847412	-0.018256008625031	-0.22940821945667	65.000000000000	0.00000000000000
27.170000076294	-0.018625337630510	-0.22736772894859	65.000000000000	0.00000000000000
27.180000305176	-0.018985833972692	-0.22532624006271	65.000000000000	0.00000000000000
27.190000534058	-0.019337477162480	-0.22328375279903	65.000000000000	0.00000000000000
27.200000762939	-0.019680147990584	-0.22124035656452	65.000000000000	0.00000000000000
27.209999084473	-0.020014088600874	-0.21919611096382	65.000000000000	0.00000000000000
27.219999313354	-0.020339075475931	-0.21715106070042	65.000000000000	0.00000000000000
27.229999542236	-0.020655194297433	-0.21510525047779	65.000000000000	0.00000000000000
27.239999771118	-0.020962428301573	-0.21305876970291	65.000000000000	0.00000000000000
27.250000000000	-0.021260865032673	-0.21101163327694	65.000000000000	0.00000000000000
27.260000228882	-0.021550379693508	-0.20896393060684	65.000000000000	0.00000000000000
27.270000457764	-0.021831056103110	-0.20691567659378	65.000000000000	0.00000000000000
27.280000686646	-0.022102879360318	-0.20486696064472	65.000000000000	0.00000000000000
27.290000915527	-0.022365827113390	-0.20281785726547	65.000000000000	0.00000000000000
27.299999237061	-0.022619882598519	-0.20076839625835	65.000000000000	0.00000000000000
