#Parameters = {d=0.19912060301508; l2=3.9824120603015; lambda=7.964824120603; r=0.026833492462311}
#"Frequency / GHz"	"S1,1 (lambda=7.96482) [Re]"	"S1,1 (lambda=7.96482) [Im]"	"Ref.Imp. [Re]"	"Ref.Imp. [Im]"
#-----------------------------------------------------------------------------------------------------------
25.000000000000	0.72084140777588	-0.55989915132523	65.000000000000	0.00000000000000
25.010000228882	0.72021496295929	-0.56026828289032	65.000000000000	0.00000000000000
25.020000457764	0.71958667039871	-0.56063729524612	65.000000000000	0.00000000000000
25.030000686646	0.71895688772202	-0.56100606918335	65.000000000000	0.00000000000000
25.040000915527	0.71832555532455	-0.56137478351593	65.000000000000	0.00000000000000
25.049999237061	0.71769273281097	-0.56174319982529	65.000000000000	0.00000000000000
25.059999465942	0.71705836057663	-0.56211161613464	65.000000000000	0.00000000000000
25.069999694824	0.71642225980759	-0.56247961521149	65.000000000000	0.00000000000000
25.079999923706	0.71578460931778	-0.56284755468369	65.000000000000	0.00000000000000
25.090000152588	0.71514546871185	-0.56321525573730	65.000000000000	0.00000000000000
25.100000381470	0.71450471878052	-0.56358283758163	65.000000000000	0.00000000000000
25.110000610352	0.71386224031448	-0.56395006179810	65.000000000000	0.00000000000000
25.120000839233	0.71321809291840	-0.56431710720062	65.000000000000	0.00000000000000
25.129999160767	0.71257251501083	-0.56468397378922	65.000000000000	0.00000000000000
25.139999389648	0.71192520856857	-0.56505054235458	65.000000000000	0.00000000000000
25.149999618530	0.71127647161484	-0.56541687250137	65.000000000000	0.00000000000000
25.159999847412	0.71062588691711	-0.56578296422958	65.000000000000	0.00000000000000
25.170000076294	0.70997375249863	-0.56614881753922	65.000000000000	0.00000000000000
25.180000305176	0.70931994915009	-0.56651443243027	65.000000000000	0.00000000000000
25.190000534058	0.70866447687149	-0.56687968969345	65.000000000000	0.00000000000000
25.200000762939	0.70800745487213	-0.56724476814270	65.000000000000	0.00000000000000
25.209999084473	0.70734864473343	-0.56760948896408	65.000000000000	0.00000000000000
25.219999313354	0.70668822526932	-0.56797397136688	65.000000000000	0.00000000000000
25.229999542236	0.70602613687515	-0.56833809614182	65.000000000000	0.00000000000000
25.239999771118	0.70536249876022	-0.56870198249817	65.000000000000	0.00000000000000
25.250000000000	0.70469695329666	-0.56906551122665	65.000000000000	0.00000000000000
25.260000228882	0.70402973890305	-0.56942874193192	65.000000000000	0.00000000000000
25.270000457764	0.70336097478867	-0.56979167461395	65.000000000000	0.00000000000000
25.280000686646	0.70269054174423	-0.57015419006348	65.000000000000	0.00000000000000
25.290000915527	0.70201826095581	-0.57051646709442	65.000000000000	0.00000000000000
25.299999237061	0.70134431123734	-0.57087832689285	65.000000000000	0.00000000000000
25.309999465942	0.70066869258881	-0.57123976945877	65.000000000000	0.00000000000000
25.319999694824	0.69999134540558	-0.57160097360611	65.000000000000	0.00000000000000
25.329999923706	0.69931226968765	-0.57196182012558	65.000000000000	0.00000000000000
25.340000152588	0.69863146543503	-0.57232224941254	65.000000000000	0.00000000000000
25.350000381470	0.69794887304306	-0.57268220186234	65.000000000000	0.00000000000000
25.360000610352	0.69726467132568	-0.57304185628891	65.000000000000	0.00000000000000
25.370000839233	0.69657868146896	-0.57340109348297	65.000000000000	0.00000000000000
25.379999160767	0.69589108228683	-0.57375991344452	65.000000000000	0.00000000000000
25.389999389648	0.69520157575607	-0.57411831617355	65.000000000000	0.00000000000000
25.399999618530	0.69451034069061	-0.57447630167007	65.000000000000	0.00000000000000
25.409999847412	0.69381731748581	-0.57483392953873	65.000000000000	0.00000000000000
25.420000076294	0.69312268495560	-0.57519096136093	65.000000000000	0.00000000000000
25.430000305176	0.69242608547211	-0.57554769515991	65.000000000000	0.00000000000000
25.440000534058	0.69172787666321	-0.57590389251709	65.000000000000	0.00000000000000
25.450000762939	0.69102782011032	-0.57625967264175	65.000000000000	0.00000000000000
25.459999084473	0.69032603502274	-0.57661497592926	65.000000000000	0.00000000000000
25.469999313354	0.68962264060974	-0.57696968317032	65.000000000000	0.00000000000000
25.479999542236	0.68891727924347	-0.57732397317886	65.000000000000	0.00000000000000
25.489999771118	0.68821018934250	-0.57767784595490	65.000000000000	0.00000000000000
25.500000000000	0.68750137090683	-0.57803118228912	65.000000000000	0.00000000000000
25.510000228882	0.68679058551788	-0.57838398218155	65.000000000000	0.00000000000000
25.520000457764	0.68607813119888	-0.57873630523682	65.000000000000	0.00000000000000
25.530000686646	0.68536353111267	-0.57908844947815	65.000000000000	0.00000000000000
25.540000915527	0.68464744091034	-0.57943981885910	65.000000000000	0.00000000000000
25.549999237061	0.68392986059189	-0.57979017496109	65.000000000000	0.00000000000000
25.559999465942	0.68320983648300	-0.58014076948166	65.000000000000	0.00000000000000
25.569999694824	0.68248832225800	-0.58049041032791	65.000000000000	0.00000000000000
25.579999923706	0.68176525831223	-0.58083921670914	65.000000000000	0.00000000000000
25.590000152588	0.68104010820389	-0.58118766546249	65.000000000000	0.00000000000000
25.600000381470	0.68031316995621	-0.58153569698334	65.000000000000	0.00000000000000
25.610000610352	0.67958432435989	-0.58188301324844	65.000000000000	0.00000000000000
25.620000839233	0.67885398864746	-0.58222955465317	65.000000000000	0.00000000000000
25.629999160767	0.67812150716782	-0.58257573843002	65.000000000000	0.00000000000000
25.639999389648	0.67738729715347	-0.58292126655579	65.000000000000	0.00000000000000
25.649999618530	0.67665117979050	-0.58326631784439	65.000000000000	0.00000000000000
25.659999847412	0.67591315507889	-0.58361065387726	65.000000000000	0.00000000000000
25.670000076294	0.67517375946045	-0.58395403623581	65.000000000000	0.00000000000000
25.680000305176	0.67443186044693	-0.58429741859436	65.000000000000	0.00000000000000
25.690000534058	0.67368870973587	-0.58463954925537	65.000000000000	0.00000000000000
25.700000762939	0.67294341325760	-0.58498132228851	65.000000000000	0.00000000000000
25.709999084473	0.67219620943069	-0.58532238006592	65.000000000000	0.00000000000000
25.719999313354	0.67144727706909	-0.58566284179688	65.000000000000	0.00000000000000
25.729999542236	0.67069643735886	-0.58600258827209	65.000000000000	0.00000000000000
25.739999771118	0.66994374990463	-0.58634161949158	65.000000000000	0.00000000000000
25.750000000000	0.66918951272964	-0.58667969703674	65.000000000000	0.00000000000000
25.760000228882	0.66843312978745	-0.58701729774475	65.000000000000	0.00000000000000
25.770000457764	0.66767489910126	-0.58735424280167	65.000000000000	0.00000000000000
25.780000686646	0.66691482067108	-0.58769053220749	65.000000000000	0.00000000000000
25.790000915527	0.66615289449692	-0.58802598714828	65.000000000000	0.00000000000000
25.799999237061	0.66538912057877	-0.58836072683334	65.000000000000	0.00000000000000
25.809999465942	0.66462343931198	-0.58869463205338	65.000000000000	0.00000000000000
25.819999694824	0.66385585069656	-0.58902794122696	65.000000000000	0.00000000000000
25.829999923706	0.66308647394180	-0.58936035633087	65.000000000000	0.00000000000000
25.840000152588	0.66231524944305	-0.58969211578369	65.000000000000	0.00000000000000
25.850000381470	0.66154211759567	-0.59002304077148	65.000000000000	0.00000000000000
25.860000610352	0.66076701879501	-0.59035319089890	65.000000000000	0.00000000000000
25.870000839233	0.65999013185501	-0.59068256616592	65.000000000000	0.00000000000000
25.879999160767	0.65921145677567	-0.59101104736328	65.000000000000	0.00000000000000
25.889999389648	0.65843069553375	-0.59133887290955	65.000000000000	0.00000000000000
25.899999618530	0.65764820575714	-0.59166586399078	65.000000000000	0.00000000000000
25.909999847412	0.65686386823654	-0.59199196100235	65.000000000000	0.00000000000000
25.920000076294	0.65607756376266	-0.59231728315353	65.000000000000	0.00000000000000
25.930000305176	0.65528935194016	-0.59264171123505	65.000000000000	0.00000000000000
25.940000534058	0.65449935197830	-0.59296536445618	65.000000000000	0.00000000000000
25.950000762939	0.65370738506317	-0.59328812360764	65.000000000000	0.00000000000000
25.959999084473	0.65291357040405	-0.59361010789871	65.000000000000	0.00000000000000
25.969999313354	0.65211778879166	-0.59393113851547	65.000000000000	0.00000000000000
25.979999542236	0.65132021903992	-0.59425133466721	65.000000000000	0.00000000000000
25.989999771118	0.65052074193954	-0.59457057714462	65.000000000000	0.00000000000000
26.000000000000	0.64971935749054	-0.59488898515701	65.000000000000	0.00000000000000
26.010000228882	0.64891594648361	-0.59520649909973	65.000000000000	0.00000000000000
26.020000457764	0.64811068773270	-0.59552305936813	65.000000000000	0.00000000000000
26.030000686646	0.64730364084244	-0.59583872556686	65.000000000000	0.00000000000000
26.040000915527	0.64649462699890	-0.59615349769592	65.000000000000	0.00000000000000
26.049999237061	0.64568370580673	-0.59646737575531	65.000000000000	0.00000000000000
26.059999465942	0.64487087726593	-0.59678030014038	65.000000000000	0.00000000000000
26.069999694824	0.64405614137650	-0.59709215164185	65.000000000000	0.00000000000000
26.079999923706	0.64323943853378	-0.59740322828293	65.000000000000	0.00000000000000
26.090000152588	0.64242100715637	-0.59771329164505	65.000000000000	0.00000000000000
26.100000381470	0.64160060882568	-0.59802228212357	65.000000000000	0.00000000000000
26.110000610352	0.64077824354172	-0.59833043813705	65.000000000000	0.00000000000000
26.120000839233	0.63995397090912	-0.59863752126694	65.000000000000	0.00000000000000
26.129999160767	0.63912779092789	-0.59894365072250	65.000000000000	0.00000000000000
26.139999389648	0.63829958438873	-0.59924882650375	65.000000000000	0.00000000000000
26.149999618530	0.63746964931488	-0.59955286979675	65.000000000000	0.00000000000000
26.159999847412	0.63663768768311	-0.59985601902008	65.000000000000	0.00000000000000
26.170000076294	0.63580387830734	-0.60015809535980	65.000000000000	0.00000000000000
26.180000305176	0.63496810197830	-0.60045915842056	65.000000000000	0.00000000000000
26.190000534058	0.63413047790527	-0.60075920820236	65.000000000000	0.00000000000000
26.200000762939	0.63329094648361	-0.60105812549591	65.000000000000	0.00000000000000
26.209999084473	0.63244938850403	-0.60135602951050	65.000000000000	0.00000000000000
26.219999313354	0.63160598278046	-0.60165286064148	65.000000000000	0.00000000000000
26.229999542236	0.63076061010361	-0.60194873809814	65.000000000000	0.00000000000000
26.239999771118	0.62991338968277	-0.60224336385727	65.000000000000	0.00000000000000
26.250000000000	0.62906420230865	-0.60253703594208	65.000000000000	0.00000000000000
26.260000228882	0.62821304798126	-0.60282951593399	65.000000000000	0.00000000000000
26.270000457764	0.62735998630524	-0.60312098264694	65.000000000000	0.00000000000000
26.280000686646	0.62650507688522	-0.60341131687164	65.000000000000	0.00000000000000
26.290000915527	0.62564814090729	-0.60370057821274	65.000000000000	0.00000000000000
26.299999237061	0.62478929758072	-0.60398864746094	65.000000000000	0.00000000000000
26.309999465942	0.62392854690552	-0.60427552461624	65.000000000000	0.00000000000000
26.319999694824	0.62306582927704	-0.60456144809723	65.000000000000	0.00000000000000
26.329999923706	0.62220120429993	-0.60484611988068	65.000000000000	0.00000000000000
26.340000152588	0.62133461236954	-0.60512959957123	65.000000000000	0.00000000000000
26.350000381470	0.62046623229980	-0.60541200637817	65.000000000000	0.00000000000000
26.360000610352	0.61959576606750	-0.60569310188293	65.000000000000	0.00000000000000
26.370000839233	0.61872345209122	-0.60597318410873	65.000000000000	0.00000000000000
26.379999160767	0.61784923076630	-0.60625201463699	65.000000000000	0.00000000000000
26.389999389648	0.61697298288345	-0.60652965307236	65.000000000000	0.00000000000000
26.399999618530	0.61609482765198	-0.60680609941483	65.000000000000	0.00000000000000
26.409999847412	0.61521470546722	-0.60708135366440	65.000000000000	0.00000000000000
26.420000076294	0.61433261632919	-0.60735535621643	65.000000000000	0.00000000000000
26.430000305176	0.61344867944717	-0.60762810707092	65.000000000000	0.00000000000000
26.440000534058	0.61256271600723	-0.60789966583252	65.000000000000	0.00000000000000
26.450000762939	0.61167490482330	-0.60816997289658	65.000000000000	0.00000000000000
26.459999084473	0.61078518629074	-0.60843908786774	65.000000000000	0.00000000000000
26.469999313354	0.60989344120026	-0.60870683193207	65.000000000000	0.00000000000000
26.479999542236	0.60899960994720	-0.60897338390350	65.000000000000	0.00000000000000
26.489999771118	0.60810416936874	-0.60923868417740	65.000000000000	0.00000000000000
26.500000000000	0.60720652341843	-0.60950267314911	65.000000000000	0.00000000000000
26.510000228882	0.60630702972412	-0.60976541042328	65.000000000000	0.00000000000000
26.520000457764	0.60540562868118	-0.61002683639526	65.000000000000	0.00000000000000
26.530000686646	0.60450214147568	-0.61028689146042	65.000000000000	0.00000000000000
26.540000915527	0.60359686613083	-0.61054569482803	65.000000000000	0.00000000000000
26.549999237061	0.60268944501877	-0.61080312728882	65.000000000000	0.00000000000000
26.559999465942	0.60178041458130	-0.61105930805206	65.000000000000	0.00000000000000
26.569999694824	0.60086917877197	-0.61131411790848	65.000000000000	0.00000000000000
26.579999923706	0.59995597600937	-0.61156755685806	65.000000000000	0.00000000000000
26.590000152588	0.59904092550278	-0.61181968450546	65.000000000000	0.00000000000000
26.600000381470	0.59812390804291	-0.61207038164139	65.000000000000	0.00000000000000
26.610000610352	0.59720486402512	-0.61231982707977	65.000000000000	0.00000000000000
26.620000839233	0.59628391265869	-0.61256778240204	65.000000000000	0.00000000000000
26.629999160767	0.59536105394363	-0.61281436681747	65.000000000000	0.00000000000000
26.639999389648	0.59443622827530	-0.61305958032608	65.000000000000	0.00000000000000
26.649999618530	0.59350949525833	-0.61330342292786	65.000000000000	0.00000000000000
26.659999847412	0.59258067607880	-0.61354577541351	65.000000000000	0.00000000000000
26.670000076294	0.59165000915527	-0.61378681659698	65.000000000000	0.00000000000000
26.680000305176	0.59071737527847	-0.61402636766434	65.000000000000	0.00000000000000
26.690000534058	0.58978265523911	-0.61426442861557	65.000000000000	0.00000000000000
26.700000762939	0.58884614706039	-0.61450117826462	65.000000000000	0.00000000000000
26.709999084473	0.58790755271912	-0.61473637819290	65.000000000000	0.00000000000000
26.719999313354	0.58696717023849	-0.61497014760971	65.000000000000	0.00000000000000
26.729999542236	0.58602458238602	-0.61520242691040	65.000000000000	0.00000000000000
26.739999771118	0.58508014678955	-0.61543321609497	65.000000000000	0.00000000000000
26.750000000000	0.58413392305374	-0.61566257476807	65.000000000000	0.00000000000000
26.760000228882	0.58318543434143	-0.61589038372040	65.000000000000	0.00000000000000
26.770000457764	0.58223515748978	-0.61611670255661	65.000000000000	0.00000000000000
26.780000686646	0.58128291368484	-0.61634153127670	65.000000000000	0.00000000000000
26.790000915527	0.58032882213593	-0.61656481027603	65.000000000000	0.00000000000000
26.799999237061	0.57937258481979	-0.61678659915924	65.000000000000	0.00000000000000
26.809999465942	0.57841444015503	-0.61700677871704	65.000000000000	0.00000000000000
26.819999694824	0.57745432853699	-0.61722546815872	65.000000000000	0.00000000000000
26.829999923706	0.57649236917496	-0.61744254827499	65.000000000000	0.00000000000000
26.840000152588	0.57552826404572	-0.61765813827515	65.000000000000	0.00000000000000
26.850000381470	0.57456231117249	-0.61787211894989	65.000000000000	0.00000000000000
26.860000610352	0.57359427213669	-0.61808449029922	65.000000000000	0.00000000000000
26.870000839233	0.57262438535690	-0.61829525232315	65.000000000000	0.00000000000000
26.879999160767	0.57165253162384	-0.61850452423096	65.000000000000	0.00000000000000
26.889999389648	0.57067877054214	-0.61871206760406	65.000000000000	0.00000000000000
26.899999618530	0.56970292329788	-0.61891800165176	65.000000000000	0.00000000000000
26.909999847412	0.56872510910034	-0.61912238597870	65.000000000000	0.00000000000000
26.920000076294	0.56774544715881	-0.61932504177094	65.000000000000	0.00000000000000
26.930000305176	0.56676369905472	-0.61952614784241	65.000000000000	0.00000000000000
26.940000534058	0.56578004360199	-0.61972552537918	65.000000000000	0.00000000000000
26.950000762939	0.56479448080063	-0.61992329359055	65.000000000000	0.00000000000000
26.959999084473	0.56380671262741	-0.62011927366257	65.000000000000	0.00000000000000
26.969999313354	0.56281715631485	-0.62031364440918	65.000000000000	0.00000000000000
26.979999542236	0.56182569265366	-0.62050634622574	65.000000000000	0.00000000000000
26.989999771118	0.56083208322525	-0.62069731950760	65.000000000000	0.00000000000000
27.000000000000	0.55983668565750	-0.62088662385941	65.000000000000	0.00000000000000
27.010000228882	0.55883926153183	-0.62107414007187	65.000000000000	0.00000000000000
27.020000457764	0.55783969163895	-0.62125992774963	65.000000000000	0.00000000000000
27.030000686646	0.55683839321136	-0.62144404649734	65.000000000000	0.00000000000000
27.040000915527	0.55583494901657	-0.62162631750107	65.000000000000	0.00000000000000
27.049999237061	0.55482977628708	-0.62180685997009	65.000000000000	0.00000000000000
27.059999465942	0.55382239818573	-0.62198567390442	65.000000000000	0.00000000000000
27.069999694824	0.55281317234039	-0.62216269969940	65.000000000000	0.00000000000000
27.079999923706	0.55180203914642	-0.62233787775040	65.000000000000	0.00000000000000
27.090000152588	0.55078893899918	-0.62251132726669	65.000000000000	0.00000000000000
27.100000381470	0.54977357387543	-0.62268292903900	65.000000000000	0.00000000000000
27.110000610352	0.54875653982162	-0.62285280227661	65.000000000000	0.00000000000000
27.120000839233	0.54773736000061	-0.62302070856094	65.000000000000	0.00000000000000
27.129999160767	0.54671645164490	-0.62318688631058	65.000000000000	0.00000000000000
27.139999389648	0.54569339752197	-0.62335109710693	65.000000000000	0.00000000000000
27.149999618530	0.54466825723648	-0.62351357936859	65.000000000000	0.00000000000000
27.159999847412	0.54364138841629	-0.62367409467697	65.000000000000	0.00000000000000
27.170000076294	0.54261237382889	-0.62383276224136	65.000000000000	0.00000000000000
27.180000305176	0.54158157110214	-0.62398952245712	65.000000000000	0.00000000000000
27.190000534058	0.54054880142212	-0.62414443492889	65.000000000000	0.00000000000000
27.200000762939	0.53951388597488	-0.62429738044739	65.000000000000	0.00000000000000
27.209999084473	0.53847718238831	-0.62444847822189	65.000000000000	0.00000000000000
27.219999313354	0.53743845224380	-0.62459754943848	65.000000000000	0.00000000000000
27.229999542236	0.53639757633209	-0.62474471330643	65.000000000000	0.00000000000000
27.239999771118	0.53535497188568	-0.62488996982574	65.000000000000	0.00000000000000
27.250000000000	0.53431040048599	-0.62503325939178	65.000000000000	0.00000000000000
27.260000228882	0.53326368331909	-0.62517452239990	65.000000000000	0.00000000000000
27.270000457764	0.53221517801285	-0.62531387805939	65.000000000000	0.00000000000000
27.280000686646	0.53116470575333	-0.62545120716095	65.000000000000	0.00000000000000
27.290000915527	0.53011214733124	-0.62558645009995	65.000000000000	0.00000000000000
27.299999237061	0.52905768156052	-0.62571978569031	65.000000000000	0.00000000000000
27.309999465942	0.52800118923187	-0.62585103511810	65.000000000000	0.00000000000000
27.319999694824	0.52694296836853	-0.62598031759262	65.000000000000	0.00000000000000
27.329999923706	0.52588266134262	-0.62610745429993	65.000000000000	0.00000000000000
