#Parameters = {d=0.19007537688442; l2=3.8015075376885; lambda=7.6030150753769; r=0.025614557788945}
#"Frequency / GHz"	"S1,1 (lambda=7.60302) [Re]"	"S1,1 (lambda=7.60302) [Im]"	"Ref.Imp. [Re]"	"Ref.Imp. [Im]"
#-----------------------------------------------------------------------------------------------------------
25.000000000000	0.78328138589859	-0.51733928918839	65.000000000000	0.00000000000000
25.010000228882	0.78282052278519	-0.51770734786987	65.000000000000	0.00000000000000
25.020000457764	0.78235846757889	-0.51807546615601	65.000000000000	0.00000000000000
25.030000686646	0.78189569711685	-0.51844358444214	65.000000000000	0.00000000000000
25.040000915527	0.78143161535263	-0.51881170272827	65.000000000000	0.00000000000000
25.049999237061	0.78096663951874	-0.51917982101440	65.000000000000	0.00000000000000
25.059999465942	0.78050047159195	-0.51954799890518	65.000000000000	0.00000000000000
25.069999694824	0.78003340959549	-0.51991611719131	65.000000000000	0.00000000000000
25.079999923706	0.77956515550613	-0.52028423547745	65.000000000000	0.00000000000000
25.090000152588	0.77909594774246	-0.52065229415894	65.000000000000	0.00000000000000
25.100000381470	0.77862572669983	-0.52102035284042	65.000000000000	0.00000000000000
25.110000610352	0.77815431356430	-0.52138847112656	65.000000000000	0.00000000000000
25.120000839233	0.77768188714981	-0.52175658941269	65.000000000000	0.00000000000000
25.129999160767	0.77720838785172	-0.52212464809418	65.000000000000	0.00000000000000
25.139999389648	0.77673375606537	-0.52249270677567	65.000000000000	0.00000000000000
25.149999618530	0.77625817060471	-0.52286076545715	65.000000000000	0.00000000000000
25.159999847412	0.77578139305115	-0.52322876453400	65.000000000000	0.00000000000000
25.170000076294	0.77530360221863	-0.52359676361084	65.000000000000	0.00000000000000
25.180000305176	0.77482467889786	-0.52396476268768	65.000000000000	0.00000000000000
25.190000534058	0.77434474229813	-0.52433276176453	65.000000000000	0.00000000000000
25.200000762939	0.77386361360550	-0.52470076084137	65.000000000000	0.00000000000000
25.209999084473	0.77338135242462	-0.52506864070892	65.000000000000	0.00000000000000
25.219999313354	0.77289807796478	-0.52543658018112	65.000000000000	0.00000000000000
25.229999542236	0.77241379022598	-0.52580451965332	65.000000000000	0.00000000000000
25.239999771118	0.77192831039429	-0.52617239952087	65.000000000000	0.00000000000000
25.250000000000	0.77144163846970	-0.52654016017914	65.000000000000	0.00000000000000
25.260000228882	0.77095395326614	-0.52690798044205	65.000000000000	0.00000000000000
25.270000457764	0.77046513557434	-0.52727574110031	65.000000000000	0.00000000000000
25.280000686646	0.76997512578964	-0.52764350175858	65.000000000000	0.00000000000000
25.290000915527	0.76948422193527	-0.52801126241684	65.000000000000	0.00000000000000
25.299999237061	0.76899194717407	-0.52837890386581	65.000000000000	0.00000000000000
25.309999465942	0.76849859952927	-0.52874654531479	65.000000000000	0.00000000000000
25.319999694824	0.76800423860550	-0.52911412715912	65.000000000000	0.00000000000000
25.329999923706	0.76750868558884	-0.52948170900345	65.000000000000	0.00000000000000
25.340000152588	0.76701194047928	-0.52984917163849	65.000000000000	0.00000000000000
25.350000381470	0.76651406288147	-0.53021669387817	65.000000000000	0.00000000000000
25.360000610352	0.76601511240005	-0.53058409690857	65.000000000000	0.00000000000000
25.370000839233	0.76551496982574	-0.53095149993896	65.000000000000	0.00000000000000
25.379999160767	0.76501363515854	-0.53131878376007	65.000000000000	0.00000000000000
25.389999389648	0.76451122760773	-0.53168600797653	65.000000000000	0.00000000000000
25.399999618530	0.76400762796402	-0.53205329179764	65.000000000000	0.00000000000000
25.409999847412	0.76350289583206	-0.53242045640945	65.000000000000	0.00000000000000
25.420000076294	0.76299697160721	-0.53278756141663	65.000000000000	0.00000000000000
25.430000305176	0.76248985528946	-0.53315454721451	65.000000000000	0.00000000000000
25.440000534058	0.76198160648346	-0.53352153301239	65.000000000000	0.00000000000000
25.450000762939	0.76147216558456	-0.53388845920563	65.000000000000	0.00000000000000
25.459999084473	0.76096159219742	-0.53425532579422	65.000000000000	0.00000000000000
25.469999313354	0.76044988632202	-0.53462213277817	65.000000000000	0.00000000000000
25.479999542236	0.75993680953979	-0.53498882055283	65.000000000000	0.00000000000000
25.489999771118	0.75942271947861	-0.53535550832748	65.000000000000	0.00000000000000
25.500000000000	0.75890743732452	-0.53572201728821	65.000000000000	0.00000000000000
25.510000228882	0.75839090347290	-0.53608870506287	65.000000000000	0.00000000000000
25.520000457764	0.75787329673767	-0.53645479679108	65.000000000000	0.00000000000000
25.530000686646	0.75735425949097	-0.53682118654251	65.000000000000	0.00000000000000
25.540000915527	0.75683414936066	-0.53718751668930	65.000000000000	0.00000000000000
25.549999237061	0.75631272792816	-0.53755372762680	65.000000000000	0.00000000000000
25.559999465942	0.75579041242599	-0.53791946172714	65.000000000000	0.00000000000000
25.569999694824	0.75526642799377	-0.53828585147858	65.000000000000	0.00000000000000
25.579999923706	0.75474148988724	-0.53865176439285	65.000000000000	0.00000000000000
25.590000152588	0.75421524047852	-0.53901749849319	65.000000000000	0.00000000000000
25.600000381470	0.75368785858154	-0.53938311338425	65.000000000000	0.00000000000000
25.610000610352	0.75315928459167	-0.53974866867065	65.000000000000	0.00000000000000
25.620000839233	0.75262951850891	-0.54011404514313	65.000000000000	0.00000000000000
25.629999160767	0.75209820270538	-0.54047966003418	65.000000000000	0.00000000000000
25.639999389648	0.75156599283218	-0.54084479808807	65.000000000000	0.00000000000000
25.649999618530	0.75103253126144	-0.54120981693268	65.000000000000	0.00000000000000
25.659999847412	0.75049763917923	-0.54157495498657	65.000000000000	0.00000000000000
25.670000076294	0.74996173381805	-0.54193961620331	65.000000000000	0.00000000000000
25.680000305176	0.74942439794540	-0.54230451583862	65.000000000000	0.00000000000000
25.690000534058	0.74888604879379	-0.54266887903214	65.000000000000	0.00000000000000
25.700000762939	0.74834603071213	-0.54303383827209	65.000000000000	0.00000000000000
25.709999084473	0.74780517816544	-0.54339784383774	65.000000000000	0.00000000000000
25.719999313354	0.74726271629333	-0.54376244544983	65.000000000000	0.00000000000000
25.729999542236	0.74671918153763	-0.54412651062012	65.000000000000	0.00000000000000
25.739999771118	0.74617415666580	-0.54449069499969	65.000000000000	0.00000000000000
25.750000000000	0.74562823772430	-0.54485440254211	65.000000000000	0.00000000000000
25.760000228882	0.74508076906204	-0.54521822929382	65.000000000000	0.00000000000000
25.770000457764	0.74453204870224	-0.54558193683624	65.000000000000	0.00000000000000
25.780000686646	0.74398201704025	-0.54594534635544	65.000000000000	0.00000000000000
25.790000915527	0.74343085289001	-0.54630839824677	65.000000000000	0.00000000000000
25.799999237061	0.74287837743759	-0.54667150974274	65.000000000000	0.00000000000000
25.809999465942	0.74232453107834	-0.54703456163406	65.000000000000	0.00000000000000
25.819999694824	0.74176949262619	-0.54739731550217	65.000000000000	0.00000000000000
25.829999923706	0.74121296405792	-0.54775995016098	65.000000000000	0.00000000000000
25.840000152588	0.74065542221069	-0.54812240600586	65.000000000000	0.00000000000000
25.850000381470	0.74009639024734	-0.54848474264145	65.000000000000	0.00000000000000
25.860000610352	0.73953604698181	-0.54884690046310	65.000000000000	0.00000000000000
25.870000839233	0.73897439241409	-0.54920887947083	65.000000000000	0.00000000000000
25.879999160767	0.73841142654419	-0.54957062005997	65.000000000000	0.00000000000000
25.889999389648	0.73784720897675	-0.54993224143982	65.000000000000	0.00000000000000
25.899999618530	0.73728173971176	-0.55029362440109	65.000000000000	0.00000000000000
25.909999847412	0.73671478033066	-0.55065482854843	65.000000000000	0.00000000000000
25.920000076294	0.73614662885666	-0.55101585388184	65.000000000000	0.00000000000000
25.930000305176	0.73557716608047	-0.55137664079666	65.000000000000	0.00000000000000
25.940000534058	0.73500621318817	-0.55173736810684	65.000000000000	0.00000000000000
25.950000762939	0.73443400859833	-0.55209773778915	65.000000000000	0.00000000000000
25.959999084473	0.73386055231094	-0.55245798826218	65.000000000000	0.00000000000000
25.969999313354	0.73328566551208	-0.55281800031662	65.000000000000	0.00000000000000
25.979999542236	0.73270928859711	-0.55317783355713	65.000000000000	0.00000000000000
25.989999771118	0.73213195800781	-0.55353742837906	65.000000000000	0.00000000000000
26.000000000000	0.73155301809311	-0.55389678478241	65.000000000000	0.00000000000000
26.010000228882	0.73097264766693	-0.55425590276718	65.000000000000	0.00000000000000
26.020000457764	0.73039108514786	-0.55461478233337	65.000000000000	0.00000000000000
26.030000686646	0.72980803251266	-0.55497354269028	65.000000000000	0.00000000000000
26.040000915527	0.72922378778458	-0.55533194541931	65.000000000000	0.00000000000000
26.049999237061	0.72863805294037	-0.55569010972977	65.000000000000	0.00000000000000
26.059999465942	0.72805094718933	-0.55604809522629	65.000000000000	0.00000000000000
26.069999694824	0.72746258974075	-0.55640590190887	65.000000000000	0.00000000000000
26.079999923706	0.72687268257141	-0.55676335096359	65.000000000000	0.00000000000000
26.090000152588	0.72628146409988	-0.55712062120438	65.000000000000	0.00000000000000
26.100000381470	0.72568893432617	-0.55747753381729	65.000000000000	0.00000000000000
26.110000610352	0.72509491443634	-0.55783426761627	65.000000000000	0.00000000000000
26.120000839233	0.72449970245361	-0.55819070339203	65.000000000000	0.00000000000000
26.129999160767	0.72390294075012	-0.55854696035385	65.000000000000	0.00000000000000
26.139999389648	0.72330468893051	-0.55890280008316	65.000000000000	0.00000000000000
26.149999618530	0.72270524501801	-0.55925852060318	65.000000000000	0.00000000000000
26.159999847412	0.72210431098938	-0.55961394309998	65.000000000000	0.00000000000000
26.170000076294	0.72150206565857	-0.55996900796890	65.000000000000	0.00000000000000
26.180000305176	0.72089827060699	-0.56032383441925	65.000000000000	0.00000000000000
26.190000534058	0.72029310464859	-0.56067836284637	65.000000000000	0.00000000000000
26.200000762939	0.71968662738800	-0.56103259325027	65.000000000000	0.00000000000000
26.209999084473	0.71907866001129	-0.56138646602631	65.000000000000	0.00000000000000
26.219999313354	0.71846932172775	-0.56174010038376	65.000000000000	0.00000000000000
26.229999542236	0.71785843372345	-0.56209343671799	65.000000000000	0.00000000000000
26.239999771118	0.71724641323090	-0.56244647502899	65.000000000000	0.00000000000000
26.250000000000	0.71663272380829	-0.56279915571213	65.000000000000	0.00000000000000
26.260000228882	0.71601766347885	-0.56315153837204	65.000000000000	0.00000000000000
26.270000457764	0.71540111303329	-0.56350362300873	65.000000000000	0.00000000000000
26.280000686646	0.71478313207626	-0.56385535001755	65.000000000000	0.00000000000000
26.290000915527	0.71416378021240	-0.56420677900314	65.000000000000	0.00000000000000
26.299999237061	0.71354299783707	-0.56455785036087	65.000000000000	0.00000000000000
26.309999465942	0.71292072534561	-0.56490862369537	65.000000000000	0.00000000000000
26.319999694824	0.71229702234268	-0.56525903940201	65.000000000000	0.00000000000000
26.329999923706	0.71167194843292	-0.56560909748077	65.000000000000	0.00000000000000
26.340000152588	0.71104532480240	-0.56595879793167	65.000000000000	0.00000000000000
26.350000381470	0.71041727066040	-0.56630814075470	65.000000000000	0.00000000000000
26.360000610352	0.70978784561157	-0.56665718555450	65.000000000000	0.00000000000000
26.370000839233	0.70915687084198	-0.56700581312180	65.000000000000	0.00000000000000
26.379999160767	0.70852446556091	-0.56735420227051	65.000000000000	0.00000000000000
26.389999389648	0.70789057016373	-0.56770205497742	65.000000000000	0.00000000000000
26.399999618530	0.70725524425507	-0.56804955005646	65.000000000000	0.00000000000000
26.409999847412	0.70661842823029	-0.56839674711227	65.000000000000	0.00000000000000
26.420000076294	0.70598012208939	-0.56874346733093	65.000000000000	0.00000000000000
26.430000305176	0.70534038543701	-0.56908994913101	65.000000000000	0.00000000000000
26.440000534058	0.70469909906387	-0.56943589448929	65.000000000000	0.00000000000000
26.450000762939	0.70405644178391	-0.56978154182434	65.000000000000	0.00000000000000
26.459999084473	0.70341217517853	-0.57012671232224	65.000000000000	0.00000000000000
26.469999313354	0.70276647806168	-0.57047152519226	65.000000000000	0.00000000000000
26.479999542236	0.70211929082870	-0.57081592082977	65.000000000000	0.00000000000000
26.489999771118	0.70147061347961	-0.57115989923477	65.000000000000	0.00000000000000
26.500000000000	0.70082038640976	-0.57150352001190	65.000000000000	0.00000000000000
26.510000228882	0.70016884803772	-0.57184666395187	65.000000000000	0.00000000000000
26.520000457764	0.69951564073563	-0.57218939065933	65.000000000000	0.00000000000000
26.530000686646	0.69886100292206	-0.57253164052963	65.000000000000	0.00000000000000
26.540000915527	0.69820487499237	-0.57287347316742	65.000000000000	0.00000000000000
26.549999237061	0.69754707813263	-0.57321494817734	65.000000000000	0.00000000000000
26.559999465942	0.69688785076141	-0.57355588674545	65.000000000000	0.00000000000000
26.569999694824	0.69622713327408	-0.57389640808105	65.000000000000	0.00000000000000
26.579999923706	0.69556498527527	-0.57423651218414	65.000000000000	0.00000000000000
26.590000152588	0.69490122795105	-0.57457613945007	65.000000000000	0.00000000000000
26.600000381470	0.69423592090607	-0.57491528987885	65.000000000000	0.00000000000000
26.610000610352	0.69356906414032	-0.57525396347046	65.000000000000	0.00000000000000
26.620000839233	0.69290089607239	-0.57559227943420	65.000000000000	0.00000000000000
26.629999160767	0.69223099946976	-0.57592993974686	65.000000000000	0.00000000000000
26.639999389648	0.69155961275101	-0.57626724243164	65.000000000000	0.00000000000000
26.649999618530	0.69088661670685	-0.57660400867462	65.000000000000	0.00000000000000
26.659999847412	0.69021213054657	-0.57694029808044	65.000000000000	0.00000000000000
26.670000076294	0.68953627347946	-0.57727611064911	65.000000000000	0.00000000000000
26.680000305176	0.68885868787766	-0.57761144638062	65.000000000000	0.00000000000000
26.690000534058	0.68817955255508	-0.57794618606567	65.000000000000	0.00000000000000
26.700000762939	0.68749904632568	-0.57828050851822	65.000000000000	0.00000000000000
26.709999084473	0.68681681156158	-0.57861423492432	65.000000000000	0.00000000000000
26.719999313354	0.68613302707672	-0.57894754409790	65.000000000000	0.00000000000000
26.729999542236	0.68544775247574	-0.57928025722504	65.000000000000	0.00000000000000
26.739999771118	0.68476092815399	-0.57961243391037	65.000000000000	0.00000000000000
26.750000000000	0.68407255411148	-0.57994419336319	65.000000000000	0.00000000000000
26.760000228882	0.68338245153427	-0.58027529716492	65.000000000000	0.00000000000000
26.770000457764	0.68269091844559	-0.58060586452484	65.000000000000	0.00000000000000
26.780000686646	0.68199789524078	-0.58093595504761	65.000000000000	0.00000000000000
26.790000915527	0.68130326271057	-0.58126538991928	65.000000000000	0.00000000000000
26.799999237061	0.68060696125031	-0.58159440755844	65.000000000000	0.00000000000000
26.809999465942	0.67990911006927	-0.58192270994186	65.000000000000	0.00000000000000
26.819999694824	0.67920958995819	-0.58225053548813	65.000000000000	0.00000000000000
26.829999923706	0.67850875854492	-0.58257776498795	65.000000000000	0.00000000000000
26.840000152588	0.67780619859695	-0.58290439844131	65.000000000000	0.00000000000000
26.850000381470	0.67710196971893	-0.58323049545288	65.000000000000	0.00000000000000
26.860000610352	0.67639631032944	-0.58355599641800	65.000000000000	0.00000000000000
26.870000839233	0.67568886280060	-0.58388090133667	65.000000000000	0.00000000000000
26.879999160767	0.67498004436493	-0.58420521020889	65.000000000000	0.00000000000000
26.889999389648	0.67426949739456	-0.58452886343002	65.000000000000	0.00000000000000
26.899999618530	0.67355728149414	-0.58485198020935	65.000000000000	0.00000000000000
26.909999847412	0.67284363508224	-0.58517438173294	65.000000000000	0.00000000000000
26.920000076294	0.67212831974030	-0.58549624681473	65.000000000000	0.00000000000000
26.930000305176	0.67141139507294	-0.58581745624542	65.000000000000	0.00000000000000
26.940000534058	0.67069286108017	-0.58613818883896	65.000000000000	0.00000000000000
26.950000762939	0.66997277736664	-0.58645808696747	65.000000000000	0.00000000000000
26.959999084473	0.66925096511841	-0.58677744865417	65.000000000000	0.00000000000000
26.969999313354	0.66852754354477	-0.58709609508514	65.000000000000	0.00000000000000
26.979999542236	0.66780269145966	-0.58741414546967	65.000000000000	0.00000000000000
26.989999771118	0.66707599163055	-0.58773148059845	65.000000000000	0.00000000000000
27.000000000000	0.66634780168533	-0.58804821968079	65.000000000000	0.00000000000000
27.010000228882	0.66561794281006	-0.58836430311203	65.000000000000	0.00000000000000
27.020000457764	0.66488629579544	-0.58867967128754	65.000000000000	0.00000000000000
27.030000686646	0.66415327787399	-0.58899438381195	65.000000000000	0.00000000000000
27.040000915527	0.66341859102249	-0.58930838108063	65.000000000000	0.00000000000000
27.049999237061	0.66268217563629	-0.58962172269821	65.000000000000	0.00000000000000
27.059999465942	0.66194409132004	-0.58993434906006	65.000000000000	0.00000000000000
27.069999694824	0.66120457649231	-0.59024631977081	65.000000000000	0.00000000000000
27.079999923706	0.66046333312988	-0.59055757522583	65.000000000000	0.00000000000000
27.090000152588	0.65972036123276	-0.59086805582047	65.000000000000	0.00000000000000
27.100000381470	0.65897572040558	-0.59117788076401	65.000000000000	0.00000000000000
27.110000610352	0.65822952985764	-0.59148699045181	65.000000000000	0.00000000000000
27.120000839233	0.65748161077499	-0.59179532527924	65.000000000000	0.00000000000000
27.129999160767	0.65673214197159	-0.59210300445557	65.000000000000	0.00000000000000
27.139999389648	0.65598100423813	-0.59240984916687	65.000000000000	0.00000000000000
27.149999618530	0.65522819757462	-0.59271603822708	65.000000000000	0.00000000000000
27.159999847412	0.65447360277176	-0.59302145242691	65.000000000000	0.00000000000000
27.170000076294	0.65371757745743	-0.59332609176636	65.000000000000	0.00000000000000
27.180000305176	0.65295976400375	-0.59362995624542	65.000000000000	0.00000000000000
27.190000534058	0.65220022201538	-0.59393304586411	65.000000000000	0.00000000000000
27.200000762939	0.65143913030624	-0.59423542022705	65.000000000000	0.00000000000000
27.209999084473	0.65067625045776	-0.59453701972961	65.000000000000	0.00000000000000
27.219999313354	0.64991170167923	-0.59483772516251	65.000000000000	0.00000000000000
27.229999542236	0.64914548397064	-0.59513771533966	65.000000000000	0.00000000000000
27.239999771118	0.64837783575058	-0.59543693065643	65.000000000000	0.00000000000000
27.250000000000	0.64760828018188	-0.59573537111282	65.000000000000	0.00000000000000
27.260000228882	0.64683711528778	-0.59603291749954	65.000000000000	0.00000000000000
27.270000457764	0.64606428146362	-0.59632968902588	65.000000000000	0.00000000000000
27.280000686646	0.64528965950012	-0.59662568569183	65.000000000000	0.00000000000000
27.290000915527	0.64451336860657	-0.59692078828812	65.000000000000	0.00000000000000
27.299999237061	0.64373546838760	-0.59721511602402	65.000000000000	0.00000000000000
27.309999465942	0.64295595884323	-0.59750849008560	65.000000000000	0.00000000000000
27.319999694824	0.64217454195023	-0.59780114889145	65.000000000000	0.00000000000000
27.329999923706	0.64139151573181	-0.59809291362762	65.000000000000	0.00000000000000
