#Parameters = {d=0.19610552763819; l2=3.9221105527638; lambda=7.8442211055276; r=0.026427180904523}
#"Frequency / GHz"	"S1,1 (lambda=7.84422) [Re]"	"S1,1 (lambda=7.84422) [Im]"	"Ref.Imp. [Re]"	"Ref.Imp. [Im]"
#-----------------------------------------------------------------------------------------------------------
25.000000000000	0.74350559711456	-0.54599547386169	65.000000000000	0.00000000000000
25.010000228882	0.74293935298920	-0.54636728763580	65.000000000000	0.00000000000000
25.020000457764	0.74237167835236	-0.54673904180527	65.000000000000	0.00000000000000
25.030000686646	0.74180287122726	-0.54711067676544	65.000000000000	0.00000000000000
25.040000915527	0.74123263359070	-0.54748225212097	65.000000000000	0.00000000000000
25.049999237061	0.74066090583801	-0.54785370826721	65.000000000000	0.00000000000000
25.059999465942	0.74008798599243	-0.54822510480881	65.000000000000	0.00000000000000
25.069999694824	0.73951369524002	-0.54859632253647	65.000000000000	0.00000000000000
25.079999923706	0.73893791437149	-0.54896759986877	65.000000000000	0.00000000000000
25.090000152588	0.73836082220078	-0.54933863878250	65.000000000000	0.00000000000000
25.100000381470	0.73778253793716	-0.54970961809158	65.000000000000	0.00000000000000
25.110000610352	0.73720270395279	-0.55008053779602	65.000000000000	0.00000000000000
25.120000839233	0.73662155866623	-0.55045121908188	65.000000000000	0.00000000000000
25.129999160767	0.73603898286819	-0.55082184076309	65.000000000000	0.00000000000000
25.139999389648	0.73545503616333	-0.55119234323502	65.000000000000	0.00000000000000
25.149999618530	0.73486953973770	-0.55156272649765	65.000000000000	0.00000000000000
25.159999847412	0.73428279161453	-0.55193293094635	65.000000000000	0.00000000000000
25.170000076294	0.73369449377060	-0.55230307579041	65.000000000000	0.00000000000000
25.180000305176	0.73310494422913	-0.55267304182053	65.000000000000	0.00000000000000
25.190000534058	0.73251384496689	-0.55304288864136	65.000000000000	0.00000000000000
25.200000762939	0.73192137479782	-0.55341249704361	65.000000000000	0.00000000000000
25.209999084473	0.73132741451263	-0.55378204584122	65.000000000000	0.00000000000000
25.219999313354	0.73073214292526	-0.55415141582489	65.000000000000	0.00000000000000
25.229999542236	0.73013526201248	-0.55452060699463	65.000000000000	0.00000000000000
25.239999771118	0.72953706979752	-0.55488961935043	65.000000000000	0.00000000000000
25.250000000000	0.72893732786179	-0.55525851249695	65.000000000000	0.00000000000000
25.260000228882	0.72833627462387	-0.55562716722488	65.000000000000	0.00000000000000
25.270000457764	0.72773361206055	-0.55599570274353	65.000000000000	0.00000000000000
25.280000686646	0.72712951898575	-0.55636399984360	65.000000000000	0.00000000000000
25.290000915527	0.72652399539948	-0.55673211812973	65.000000000000	0.00000000000000
25.299999237061	0.72591698169708	-0.55710005760193	65.000000000000	0.00000000000000
25.309999465942	0.72530847787857	-0.55746775865555	65.000000000000	0.00000000000000
25.319999694824	0.72469854354858	-0.55783534049988	65.000000000000	0.00000000000000
25.329999923706	0.72408694028854	-0.55820262432098	65.000000000000	0.00000000000000
25.340000152588	0.72347396612167	-0.55856966972351	65.000000000000	0.00000000000000
25.350000381470	0.72285950183868	-0.55893659591675	65.000000000000	0.00000000000000
25.360000610352	0.72224354743958	-0.55930328369141	65.000000000000	0.00000000000000
25.370000839233	0.72162598371506	-0.55966967344284	65.000000000000	0.00000000000000
25.379999160767	0.72100692987442	-0.56003594398499	65.000000000000	0.00000000000000
25.389999389648	0.72038644552231	-0.56040185689926	65.000000000000	0.00000000000000
25.399999618530	0.71976435184479	-0.56076759099960	65.000000000000	0.00000000000000
25.409999847412	0.71914076805115	-0.56113302707672	65.000000000000	0.00000000000000
25.420000076294	0.71851581335068	-0.56149822473526	65.000000000000	0.00000000000000
25.430000305176	0.71788907051086	-0.56186318397522	65.000000000000	0.00000000000000
25.440000534058	0.71726095676422	-0.56222778558731	65.000000000000	0.00000000000000
25.450000762939	0.71663117408752	-0.56259220838547	65.000000000000	0.00000000000000
25.459999084473	0.71599990129471	-0.56295639276505	65.000000000000	0.00000000000000
25.469999313354	0.71536713838577	-0.56332021951675	65.000000000000	0.00000000000000
25.479999542236	0.71473270654678	-0.56368374824524	65.000000000000	0.00000000000000
25.489999771118	0.71409684419632	-0.56404703855515	65.000000000000	0.00000000000000
25.500000000000	0.71345949172974	-0.56440979242325	65.000000000000	0.00000000000000
25.510000228882	0.71282023191452	-0.56477272510529	65.000000000000	0.00000000000000
25.520000457764	0.71217948198318	-0.56513518095016	65.000000000000	0.00000000000000
25.530000686646	0.71153712272644	-0.56549733877182	65.000000000000	0.00000000000000
25.540000915527	0.71089363098145	-0.56585872173309	65.000000000000	0.00000000000000
25.549999237061	0.71024787425995	-0.56622046232224	65.000000000000	0.00000000000000
25.559999465942	0.70960134267807	-0.56658101081848	65.000000000000	0.00000000000000
25.569999694824	0.70895254611969	-0.56694209575653	65.000000000000	0.00000000000000
25.579999923706	0.70830261707306	-0.56730216741562	65.000000000000	0.00000000000000
25.590000152588	0.70765072107315	-0.56766241788864	65.000000000000	0.00000000000000
25.600000381470	0.70699733495712	-0.56802201271057	65.000000000000	0.00000000000000
25.610000610352	0.70634233951569	-0.56838136911392	65.000000000000	0.00000000000000
25.620000839233	0.70568561553955	-0.56874048709869	65.000000000000	0.00000000000000
25.629999160767	0.70502775907516	-0.56909865140915	65.000000000000	0.00000000000000
25.639999389648	0.70436787605286	-0.56945687532425	65.000000000000	0.00000000000000
25.649999618530	0.70370638370514	-0.56981486082077	65.000000000000	0.00000000000000
25.659999847412	0.70304316282272	-0.57017254829407	65.000000000000	0.00000000000000
25.670000076294	0.70237845182419	-0.57052958011627	65.000000000000	0.00000000000000
25.680000305176	0.70171231031418	-0.57088595628738	65.000000000000	0.00000000000000
25.690000534058	0.70104444026947	-0.57124209403992	65.000000000000	0.00000000000000
25.700000762939	0.70037490129471	-0.57159787416458	65.000000000000	0.00000000000000
25.709999084473	0.69970363378525	-0.57195329666138	65.000000000000	0.00000000000000
25.719999313354	0.69903057813644	-0.57230842113495	65.000000000000	0.00000000000000
25.729999542236	0.69835638999939	-0.57266259193420	65.000000000000	0.00000000000000
25.739999771118	0.69768023490906	-0.57301670312881	65.000000000000	0.00000000000000
25.750000000000	0.69700264930725	-0.57337009906769	65.000000000000	0.00000000000000
25.760000228882	0.69632291793823	-0.57372349500656	65.000000000000	0.00000000000000
25.770000457764	0.69564181566238	-0.57407617568970	65.000000000000	0.00000000000000
25.780000686646	0.69495898485184	-0.57442855834961	65.000000000000	0.00000000000000
25.790000915527	0.69427454471588	-0.57478022575378	65.000000000000	0.00000000000000
25.799999237061	0.69358837604523	-0.57513153553009	65.000000000000	0.00000000000000
25.809999465942	0.69290071725845	-0.57548236846924	65.000000000000	0.00000000000000
25.819999694824	0.69221121072769	-0.57583272457123	65.000000000000	0.00000000000000
25.829999923706	0.69152003526688	-0.57618254423141	65.000000000000	0.00000000000000
25.840000152588	0.69082731008530	-0.57653194665909	65.000000000000	0.00000000000000
25.850000381470	0.69013285636902	-0.57688075304031	65.000000000000	0.00000000000000
25.860000610352	0.68943673372269	-0.57722908258438	65.000000000000	0.00000000000000
25.870000839233	0.68873882293701	-0.57757687568665	65.000000000000	0.00000000000000
25.879999160767	0.68803936243057	-0.57792419195175	65.000000000000	0.00000000000000
25.889999389648	0.68733811378479	-0.57827097177505	65.000000000000	0.00000000000000
25.899999618530	0.68663525581360	-0.57861721515656	65.000000000000	0.00000000000000
25.909999847412	0.68593060970306	-0.57896286249161	65.000000000000	0.00000000000000
25.920000076294	0.68522429466248	-0.57930791378021	65.000000000000	0.00000000000000
25.930000305176	0.68451631069183	-0.57965254783630	65.000000000000	0.00000000000000
25.940000534058	0.68380647897720	-0.57999658584595	65.000000000000	0.00000000000000
25.950000762939	0.68309509754181	-0.58034002780914	65.000000000000	0.00000000000000
25.959999084473	0.68238186836243	-0.58068287372589	65.000000000000	0.00000000000000
25.969999313354	0.68166702985764	-0.58102518320084	65.000000000000	0.00000000000000
25.979999542236	0.68095058202744	-0.58136683702469	65.000000000000	0.00000000000000
25.989999771118	0.68023228645325	-0.58170801401138	65.000000000000	0.00000000000000
26.000000000000	0.67951208353043	-0.58204847574234	65.000000000000	0.00000000000000
26.010000228882	0.67879050970078	-0.58238846063614	65.000000000000	0.00000000000000
26.020000457764	0.67806702852249	-0.58272767066956	65.000000000000	0.00000000000000
26.030000686646	0.67734181880951	-0.58306634426117	65.000000000000	0.00000000000000
26.040000915527	0.67661488056183	-0.58340442180634	65.000000000000	0.00000000000000
26.049999237061	0.67588621377945	-0.58374184370041	65.000000000000	0.00000000000000
26.059999465942	0.67515587806702	-0.58407860994339	65.000000000000	0.00000000000000
26.069999694824	0.67442375421524	-0.58441472053528	65.000000000000	0.00000000000000
26.079999923706	0.67368990182877	-0.58475023508072	65.000000000000	0.00000000000000
26.090000152588	0.67295438051224	-0.58508509397507	65.000000000000	0.00000000000000
26.100000381470	0.67221701145172	-0.58541923761368	65.000000000000	0.00000000000000
26.110000610352	0.67147797346115	-0.58575272560120	65.000000000000	0.00000000000000
26.120000839233	0.67073714733124	-0.58608549833298	65.000000000000	0.00000000000000
26.129999160767	0.66999459266663	-0.58641773462296	65.000000000000	0.00000000000000
26.139999389648	0.66925019025803	-0.58674913644791	65.000000000000	0.00000000000000
26.149999618530	0.66850411891937	-0.58707988262177	65.000000000000	0.00000000000000
26.159999847412	0.66775625944138	-0.58740991353989	65.000000000000	0.00000000000000
26.170000076294	0.66700673103333	-0.58773922920227	65.000000000000	0.00000000000000
26.180000305176	0.66625529527664	-0.58806788921356	65.000000000000	0.00000000000000
26.190000534058	0.66550213098526	-0.58839583396912	65.000000000000	0.00000000000000
26.200000762939	0.66474735736847	-0.58872294425964	65.000000000000	0.00000000000000
26.209999084473	0.66399079561234	-0.58904939889908	65.000000000000	0.00000000000000
26.219999313354	0.66323232650757	-0.58937513828278	65.000000000000	0.00000000000000
26.229999542236	0.66247206926346	-0.58970004320145	65.000000000000	0.00000000000000
26.239999771118	0.66171002388000	-0.59002423286438	65.000000000000	0.00000000000000
26.250000000000	0.66094642877579	-0.59034770727158	65.000000000000	0.00000000000000
26.260000228882	0.66018086671829	-0.59067040681839	65.000000000000	0.00000000000000
26.270000457764	0.65941351652145	-0.59099227190018	65.000000000000	0.00000000000000
26.280000686646	0.65864449739456	-0.59131342172623	65.000000000000	0.00000000000000
26.290000915527	0.65787369012833	-0.59163367748260	65.000000000000	0.00000000000000
26.299999237061	0.65710103511810	-0.59195327758789	65.000000000000	0.00000000000000
26.309999465942	0.65632665157318	-0.59227198362350	65.000000000000	0.00000000000000
26.319999694824	0.65555047988892	-0.59258997440338	65.000000000000	0.00000000000000
26.329999923706	0.65477252006531	-0.59290707111359	65.000000000000	0.00000000000000
26.340000152588	0.65399277210236	-0.59322333335876	65.000000000000	0.00000000000000
26.350000381470	0.65321117639542	-0.59353882074356	65.000000000000	0.00000000000000
26.360000610352	0.65242779254913	-0.59385347366333	65.000000000000	0.00000000000000
26.370000839233	0.65164262056351	-0.59416723251343	65.000000000000	0.00000000000000
26.379999160767	0.65085572004318	-0.59448015689850	65.000000000000	0.00000000000000
26.389999389648	0.65006685256958	-0.59479230642319	65.000000000000	0.00000000000000
26.399999618530	0.64927631616592	-0.59510356187820	65.000000000000	0.00000000000000
26.409999847412	0.64848387241364	-0.59541398286819	65.000000000000	0.00000000000000
26.420000076294	0.64768981933594	-0.59572345018387	65.000000000000	0.00000000000000
26.430000305176	0.64689379930496	-0.59603208303452	65.000000000000	0.00000000000000
26.440000534058	0.64609605073929	-0.59633982181549	65.000000000000	0.00000000000000
26.450000762939	0.64529645442963	-0.59664660692215	65.000000000000	0.00000000000000
26.459999084473	0.64449501037598	-0.59695261716843	65.000000000000	0.00000000000000
26.469999313354	0.64369177818298	-0.59725761413574	65.000000000000	0.00000000000000
26.479999542236	0.64288675785065	-0.59756171703339	65.000000000000	0.00000000000000
26.489999771118	0.64207988977432	-0.59786498546600	65.000000000000	0.00000000000000
26.500000000000	0.64127129316330	-0.59816724061966	65.000000000000	0.00000000000000
26.510000228882	0.64046078920364	-0.59846860170364	65.000000000000	0.00000000000000
26.520000457764	0.63964855670929	-0.59876894950867	65.000000000000	0.00000000000000
26.530000686646	0.63883429765701	-0.59906840324402	65.000000000000	0.00000000000000
26.540000915527	0.63801836967468	-0.59936690330505	65.000000000000	0.00000000000000
26.549999237061	0.63720065355301	-0.59966439008713	65.000000000000	0.00000000000000
26.559999465942	0.63638097047806	-0.59996104240417	65.000000000000	0.00000000000000
26.569999694824	0.63555955886841	-0.60025662183762	65.000000000000	0.00000000000000
26.579999923706	0.63473623991013	-0.60055124759674	65.000000000000	0.00000000000000
26.590000152588	0.63391119241714	-0.60084480047226	65.000000000000	0.00000000000000
26.600000381470	0.63308429718018	-0.60113745927811	65.000000000000	0.00000000000000
26.610000610352	0.63225543498993	-0.60142904520035	65.000000000000	0.00000000000000
26.620000839233	0.63142490386963	-0.60171973705292	65.000000000000	0.00000000000000
26.629999160767	0.63059252500534	-0.60200923681259	65.000000000000	0.00000000000000
26.639999389648	0.62975817918777	-0.60229784250259	65.000000000000	0.00000000000000
26.649999618530	0.62892192602158	-0.60258543491364	65.000000000000	0.00000000000000
26.659999847412	0.62808406352997	-0.60287183523178	65.000000000000	0.00000000000000
26.670000076294	0.62724417448044	-0.60315734148026	65.000000000000	0.00000000000000
26.680000305176	0.62640249729156	-0.60344171524048	65.000000000000	0.00000000000000
26.690000534058	0.62555909156799	-0.60372501611710	65.000000000000	0.00000000000000
26.700000762939	0.62471359968185	-0.60400730371475	65.000000000000	0.00000000000000
26.709999084473	0.62386637926102	-0.60428851842880	65.000000000000	0.00000000000000
26.719999313354	0.62301731109619	-0.60456854104996	65.000000000000	0.00000000000000
26.729999542236	0.62216645479202	-0.60484760999680	65.000000000000	0.00000000000000
26.739999771118	0.62131363153458	-0.60512554645538	65.000000000000	0.00000000000000
26.750000000000	0.62045907974243	-0.60540235042572	65.000000000000	0.00000000000000
26.760000228882	0.61960256099701	-0.60567808151245	65.000000000000	0.00000000000000
26.770000457764	0.61874413490295	-0.60595268011093	65.000000000000	0.00000000000000
26.780000686646	0.61788398027420	-0.60622620582581	65.000000000000	0.00000000000000
26.790000915527	0.61702191829681	-0.60649847984314	65.000000000000	0.00000000000000
26.799999237061	0.61615794897079	-0.60676968097687	65.000000000000	0.00000000000000
26.809999465942	0.61529219150543	-0.60703974962234	65.000000000000	0.00000000000000
26.819999694824	0.61442452669144	-0.60730862617493	65.000000000000	0.00000000000000
26.829999923706	0.61355495452881	-0.60757637023926	65.000000000000	0.00000000000000
26.840000152588	0.61268347501755	-0.60784292221069	65.000000000000	0.00000000000000
26.850000381470	0.61181026697159	-0.60810828208923	65.000000000000	0.00000000000000
26.860000610352	0.61093515157700	-0.60837250947952	65.000000000000	0.00000000000000
26.870000839233	0.61005812883377	-0.60863548517227	65.000000000000	0.00000000000000
26.879999160767	0.60917913913727	-0.60889732837677	65.000000000000	0.00000000000000
26.889999389648	0.60829848051071	-0.60915791988373	65.000000000000	0.00000000000000
26.899999618530	0.60741579532623	-0.60941725969315	65.000000000000	0.00000000000000
26.909999847412	0.60653132200241	-0.60967540740967	65.000000000000	0.00000000000000
26.920000076294	0.60564488172531	-0.60993236303329	65.000000000000	0.00000000000000
26.930000305176	0.60475653409958	-0.61018800735474	65.000000000000	0.00000000000000
26.940000534058	0.60386645793915	-0.61044251918793	65.000000000000	0.00000000000000
26.950000762939	0.60297429561615	-0.61069560050964	65.000000000000	0.00000000000000
26.959999084473	0.60208040475845	-0.61094754934311	65.000000000000	0.00000000000000
26.969999313354	0.60118466615677	-0.61119824647903	65.000000000000	0.00000000000000
26.979999542236	0.60028702020645	-0.61144763231277	65.000000000000	0.00000000000000
26.989999771118	0.59938728809357	-0.61169570684433	65.000000000000	0.00000000000000
27.000000000000	0.59848588705063	-0.61194252967834	65.000000000000	0.00000000000000
27.010000228882	0.59758251905441	-0.61218798160553	65.000000000000	0.00000000000000
27.020000457764	0.59667718410492	-0.61243218183517	65.000000000000	0.00000000000000
27.030000686646	0.59577018022537	-0.61267501115799	65.000000000000	0.00000000000000
27.040000915527	0.59486103057861	-0.61291658878326	65.000000000000	0.00000000000000
27.049999237061	0.59395003318787	-0.61315679550171	65.000000000000	0.00000000000000
27.059999465942	0.59303724765778	-0.61339563131332	65.000000000000	0.00000000000000
27.069999694824	0.59212255477905	-0.61363309621811	65.000000000000	0.00000000000000
27.079999923706	0.59120583534241	-0.61386930942535	65.000000000000	0.00000000000000
27.090000152588	0.59028738737106	-0.61410409212112	65.000000000000	0.00000000000000
27.100000381470	0.58936685323715	-0.61433750391006	65.000000000000	0.00000000000000
27.110000610352	0.58844465017319	-0.61456954479218	65.000000000000	0.00000000000000
27.120000839233	0.58752030134201	-0.61480015516281	65.000000000000	0.00000000000000
27.129999160767	0.58659428358078	-0.61502933502197	65.000000000000	0.00000000000000
27.139999389648	0.58566617965698	-0.61525720357895	65.000000000000	0.00000000000000
27.149999618530	0.58473622798920	-0.61548364162445	65.000000000000	0.00000000000000
27.159999847412	0.58380448818207	-0.61570858955383	65.000000000000	0.00000000000000
27.170000076294	0.58287060260773	-0.61593216657639	65.000000000000	0.00000000000000
27.180000305176	0.58193492889404	-0.61615431308746	65.000000000000	0.00000000000000
27.190000534058	0.58099740743637	-0.61637496948242	65.000000000000	0.00000000000000
27.200000762939	0.58005791902542	-0.61659413576126	65.000000000000	0.00000000000000
27.209999084473	0.57911652326584	-0.61681187152863	65.000000000000	0.00000000000000
27.219999313354	0.57817327976227	-0.61702811717987	65.000000000000	0.00000000000000
27.229999542236	0.57722800970078	-0.61724287271500	65.000000000000	0.00000000000000
27.239999771118	0.57628089189529	-0.61745619773865	65.000000000000	0.00000000000000
27.250000000000	0.57533192634583	-0.61766791343689	65.000000000000	0.00000000000000
27.260000228882	0.57438087463379	-0.61787825822830	65.000000000000	0.00000000000000
27.270000457764	0.57342815399170	-0.61808699369431	65.000000000000	0.00000000000000
27.280000686646	0.57247328758240	-0.61829417943954	65.000000000000	0.00000000000000
27.290000915527	0.57151663303375	-0.61849981546402	65.000000000000	0.00000000000000
27.299999237061	0.57055801153183	-0.61870390176773	65.000000000000	0.00000000000000
27.309999465942	0.56959748268127	-0.61890649795532	65.000000000000	0.00000000000000
27.319999694824	0.56863498687744	-0.61910760402679	65.000000000000	0.00000000000000
27.329999923706	0.56767070293427	-0.61930692195892	65.000000000000	0.00000000000000
