#Parameters = {d=0.21469849246231; l2=4.2939698492462; lambda=8.5879396984925; r=0.028932768844221}
#"Frequency / GHz"	"S1,1 (lambda=8.58794) [Re]"	"S1,1 (lambda=8.58794) [Im]"	"Ref.Imp. [Re]"	"Ref.Imp. [Im]"
#-----------------------------------------------------------------------------------------------------------
25.000000000000	0.56668758392334	-0.61943531036377	65.000000000000	0.00000000000000
25.010000228882	0.56562209129333	-0.61966258287430	65.000000000000	0.00000000000000
25.020000457764	0.56455391645432	-0.61988765001297	65.000000000000	0.00000000000000
25.030000686646	0.56348335742950	-0.62011051177979	65.000000000000	0.00000000000000
25.040000915527	0.56241035461426	-0.62033116817474	65.000000000000	0.00000000000000
25.049999237061	0.56133478879929	-0.62054961919785	65.000000000000	0.00000000000000
25.059999465942	0.56025665998459	-0.62076592445374	65.000000000000	0.00000000000000
25.069999694824	0.55917608737946	-0.62097990512848	65.000000000000	0.00000000000000
25.079999923706	0.55809313058853	-0.62119168043137	65.000000000000	0.00000000000000
25.090000152588	0.55700773000717	-0.62140125036240	65.000000000000	0.00000000000000
25.100000381470	0.55591982603073	-0.62160849571228	65.000000000000	0.00000000000000
25.110000610352	0.55482923984528	-0.62181347608566	65.000000000000	0.00000000000000
25.120000839233	0.55373650789261	-0.62201607227325	65.000000000000	0.00000000000000
25.129999160767	0.55264121294022	-0.62221646308899	65.000000000000	0.00000000000000
25.139999389648	0.55154353380203	-0.62241446971893	65.000000000000	0.00000000000000
25.149999618530	0.55044335126877	-0.62261021137238	65.000000000000	0.00000000000000
25.159999847412	0.54934072494507	-0.62280356884003	65.000000000000	0.00000000000000
25.170000076294	0.54823577404022	-0.62299454212189	65.000000000000	0.00000000000000
25.180000305176	0.54712837934494	-0.62318319082260	65.000000000000	0.00000000000000
25.190000534058	0.54601866006851	-0.62336933612823	65.000000000000	0.00000000000000
25.200000762939	0.54490649700165	-0.62355315685272	65.000000000000	0.00000000000000
25.209999084473	0.54379189014435	-0.62373453378677	65.000000000000	0.00000000000000
25.219999313354	0.54267495870590	-0.62391352653503	65.000000000000	0.00000000000000
25.229999542236	0.54155564308167	-0.62409001588821	65.000000000000	0.00000000000000
25.239999771118	0.54043394327164	-0.62426406145096	65.000000000000	0.00000000000000
25.250000000000	0.53930991888046	-0.62443572282791	65.000000000000	0.00000000000000
25.260000228882	0.53818351030350	-0.62460482120514	65.000000000000	0.00000000000000
25.270000457764	0.53705477714539	-0.62477147579193	65.000000000000	0.00000000000000
25.280000686646	0.53592371940613	-0.62493556737900	65.000000000000	0.00000000000000
25.290000915527	0.53479033708572	-0.62509721517563	65.000000000000	0.00000000000000
25.299999237061	0.53365463018417	-0.62525624036789	65.000000000000	0.00000000000000
25.309999465942	0.53251653909683	-0.62541282176971	65.000000000000	0.00000000000000
25.319999694824	0.53137618303299	-0.62556678056717	65.000000000000	0.00000000000000
25.329999923706	0.53023356199265	-0.62571829557419	65.000000000000	0.00000000000000
25.340000152588	0.52908861637115	-0.62586706876755	65.000000000000	0.00000000000000
25.350000381470	0.52794134616852	-0.62601339817047	65.000000000000	0.00000000000000
25.360000610352	0.52679187059402	-0.62615704536438	65.000000000000	0.00000000000000
25.370000839233	0.52564007043839	-0.62629812955856	65.000000000000	0.00000000000000
25.379999160767	0.52448600530624	-0.62643659114838	65.000000000000	0.00000000000000
25.389999389648	0.52332967519760	-0.62657243013382	65.000000000000	0.00000000000000
25.399999618530	0.52217096090317	-0.62670570611954	65.000000000000	0.00000000000000
25.409999847412	0.52100998163223	-0.62683629989624	65.000000000000	0.00000000000000
25.420000076294	0.51984703540802	-0.62696403264999	65.000000000000	0.00000000000000
25.430000305176	0.51868164539337	-0.62708926200867	65.000000000000	0.00000000000000
25.440000534058	0.51751422882080	-0.62721157073975	65.000000000000	0.00000000000000
25.450000762939	0.51634466648102	-0.62733113765717	65.000000000000	0.00000000000000
25.459999084473	0.51517260074615	-0.62744832038879	65.000000000000	0.00000000000000
25.469999313354	0.51399797201157	-0.62756294012070	65.000000000000	0.00000000000000
25.479999542236	0.51282209157944	-0.62767410278320	65.000000000000	0.00000000000000
25.489999771118	0.51164311170578	-0.62778323888779	65.000000000000	0.00000000000000
25.500000000000	0.51046252250671	-0.62788909673691	65.000000000000	0.00000000000000
25.510000228882	0.50927919149399	-0.62799263000488	65.000000000000	0.00000000000000
25.520000457764	0.50809395313263	-0.62809318304062	65.000000000000	0.00000000000000
25.530000686646	0.50690662860870	-0.62819093465805	65.000000000000	0.00000000000000
25.540000915527	0.50571686029434	-0.62828606367111	65.000000000000	0.00000000000000
25.549999237061	0.50452548265457	-0.62837785482407	65.000000000000	0.00000000000000
25.559999465942	0.50333136320114	-0.62846732139587	65.000000000000	0.00000000000000
25.569999694824	0.50213545560837	-0.62855368852615	65.000000000000	0.00000000000000
25.579999923706	0.50093746185303	-0.62863713502884	65.000000000000	0.00000000000000
25.590000152588	0.49973702430725	-0.62871801853180	65.000000000000	0.00000000000000
25.600000381470	0.49853450059891	-0.62879592180252	65.000000000000	0.00000000000000
25.610000610352	0.49732980132103	-0.62887096405029	65.000000000000	0.00000000000000
25.620000839233	0.49612310528755	-0.62894302606583	65.000000000000	0.00000000000000
25.629999160767	0.49491432309151	-0.62901222705841	65.000000000000	0.00000000000000
25.639999389648	0.49370342493057	-0.62907838821411	65.000000000000	0.00000000000000
25.649999618530	0.49249020218849	-0.62914186716080	65.000000000000	0.00000000000000
25.659999847412	0.49127489328384	-0.62920236587524	65.000000000000	0.00000000000000
25.670000076294	0.49005785584450	-0.62925964593887	65.000000000000	0.00000000000000
25.680000305176	0.48883846402168	-0.62931418418884	65.000000000000	0.00000000000000
25.690000534058	0.48761707544327	-0.62936562299728	65.000000000000	0.00000000000000
25.700000762939	0.48639360070229	-0.62941408157349	65.000000000000	0.00000000000000
25.709999084473	0.48516786098480	-0.62945967912674	65.000000000000	0.00000000000000
25.719999313354	0.48394036293030	-0.62950205802917	65.000000000000	0.00000000000000
25.729999542236	0.48271039128304	-0.62954181432724	65.000000000000	0.00000000000000
25.739999771118	0.48147863149643	-0.62957823276520	65.000000000000	0.00000000000000
25.750000000000	0.48024487495422	-0.62961149215698	65.000000000000	0.00000000000000
25.760000228882	0.47900885343552	-0.62964189052582	65.000000000000	0.00000000000000
25.770000457764	0.47777089476585	-0.62966918945313	65.000000000000	0.00000000000000
25.780000686646	0.47653093934059	-0.62969332933426	65.000000000000	0.00000000000000
25.790000915527	0.47528892755508	-0.62971436977386	65.000000000000	0.00000000000000
25.799999237061	0.47404497861862	-0.62973237037659	65.000000000000	0.00000000000000
25.809999465942	0.47279888391495	-0.62974721193314	65.000000000000	0.00000000000000
25.819999694824	0.47155076265335	-0.62975895404816	65.000000000000	0.00000000000000
25.829999923706	0.47030076384544	-0.62976759672165	65.000000000000	0.00000000000000
25.840000152588	0.46904864907265	-0.62977296113968	65.000000000000	0.00000000000000
25.850000381470	0.46779465675354	-0.62977522611618	65.000000000000	0.00000000000000
25.860000610352	0.46653860807419	-0.62977433204651	65.000000000000	0.00000000000000
25.870000839233	0.46528056263924	-0.62977027893066	65.000000000000	0.00000000000000
25.879999160767	0.46402049064636	-0.62976294755936	65.000000000000	0.00000000000000
25.889999389648	0.46275851130486	-0.62975233793259	65.000000000000	0.00000000000000
25.899999618530	0.46149453520775	-0.62973862886429	65.000000000000	0.00000000000000
25.909999847412	0.46022862195969	-0.62972158193588	65.000000000000	0.00000000000000
25.920000076294	0.45896068215370	-0.62970137596130	65.000000000000	0.00000000000000
25.930000305176	0.45769092440605	-0.62967777252197	65.000000000000	0.00000000000000
25.940000534058	0.45641914010048	-0.62965095043182	65.000000000000	0.00000000000000
25.950000762939	0.45514532923698	-0.62962085008621	65.000000000000	0.00000000000000
25.959999084473	0.45386981964111	-0.62958735227585	65.000000000000	0.00000000000000
25.969999313354	0.45259225368500	-0.62955063581467	65.000000000000	0.00000000000000
25.979999542236	0.45131269097328	-0.62951052188873	65.000000000000	0.00000000000000
25.989999771118	0.45003128051758	-0.62946712970734	65.000000000000	0.00000000000000
26.000000000000	0.44874787330627	-0.62942034006119	65.000000000000	0.00000000000000
26.010000228882	0.44746261835098	-0.62937009334564	65.000000000000	0.00000000000000
26.020000457764	0.44617545604706	-0.62931656837463	65.000000000000	0.00000000000000
26.030000686646	0.44488638639450	-0.62925958633423	65.000000000000	0.00000000000000
26.040000915527	0.44359543919563	-0.62919914722443	65.000000000000	0.00000000000000
26.049999237061	0.44230270385742	-0.62913537025452	65.000000000000	0.00000000000000
26.059999465942	0.44100818037987	-0.62906807661057	65.000000000000	0.00000000000000
26.069999694824	0.43971151113510	-0.62899732589722	65.000000000000	0.00000000000000
26.079999923706	0.43841317296028	-0.62892311811447	65.000000000000	0.00000000000000
26.090000152588	0.43711295723915	-0.62884545326233	65.000000000000	0.00000000000000
26.100000381470	0.43581086397171	-0.62876421213150	65.000000000000	0.00000000000000
26.110000610352	0.43450689315796	-0.62867951393127	65.000000000000	0.00000000000000
26.120000839233	0.43320098519325	-0.62859135866165	65.000000000000	0.00000000000000
26.129999160767	0.43189340829849	-0.62849950790405	65.000000000000	0.00000000000000
26.139999389648	0.43058410286903	-0.62840414047241	65.000000000000	0.00000000000000
26.149999618530	0.42927283048630	-0.62830519676208	65.000000000000	0.00000000000000
26.159999847412	0.42795985937119	-0.62820273637772	65.000000000000	0.00000000000000
26.170000076294	0.42664495110512	-0.62809658050537	65.000000000000	0.00000000000000
26.180000305176	0.42532825469971	-0.62798690795898	65.000000000000	0.00000000000000
26.190000534058	0.42400991916656	-0.62787353992462	65.000000000000	0.00000000000000
26.200000762939	0.42268967628479	-0.62775653600693	65.000000000000	0.00000000000000
26.209999084473	0.42136773467064	-0.62763583660126	65.000000000000	0.00000000000000
26.219999313354	0.42004391551018	-0.62751150131226	65.000000000000	0.00000000000000
26.229999542236	0.41871842741966	-0.62738341093063	65.000000000000	0.00000000000000
26.239999771118	0.41739121079445	-0.62725168466568	65.000000000000	0.00000000000000
26.250000000000	0.41606223583221	-0.62711620330811	65.000000000000	0.00000000000000
26.260000228882	0.41473144292831	-0.62697696685791	65.000000000000	0.00000000000000
26.270000457764	0.41339904069901	-0.62683403491974	65.000000000000	0.00000000000000
26.280000686646	0.41206482052803	-0.62668728828430	65.000000000000	0.00000000000000
26.290000915527	0.41072896122932	-0.62653672695160	65.000000000000	0.00000000000000
26.299999237061	0.40939149260521	-0.62638241052628	65.000000000000	0.00000000000000
26.309999465942	0.40805226564407	-0.62622421979904	65.000000000000	0.00000000000000
26.319999694824	0.40671116113663	-0.62606227397919	65.000000000000	0.00000000000000
26.329999923706	0.40536868572235	-0.62589645385742	65.000000000000	0.00000000000000
26.340000152588	0.40402442216873	-0.62572669982910	65.000000000000	0.00000000000000
26.350000381470	0.40267851948738	-0.62555319070816	65.000000000000	0.00000000000000
26.360000610352	0.40133085846901	-0.62537562847137	65.000000000000	0.00000000000000
26.370000839233	0.39998158812523	-0.62519431114197	65.000000000000	0.00000000000000
26.379999160767	0.39863070845604	-0.62500900030136	65.000000000000	0.00000000000000
26.389999389648	0.39727821946144	-0.62481969594955	65.000000000000	0.00000000000000
26.399999618530	0.39592424035072	-0.62462651729584	65.000000000000	0.00000000000000
26.409999847412	0.39456847310066	-0.62442934513092	65.000000000000	0.00000000000000
26.420000076294	0.39321124553680	-0.62422806024551	65.000000000000	0.00000000000000
26.430000305176	0.39185240864754	-0.62402290105820	65.000000000000	0.00000000000000
26.440000534058	0.39049193263054	-0.62381362915039	65.000000000000	0.00000000000000
26.450000762939	0.38912990689278	-0.62360036373138	65.000000000000	0.00000000000000
26.459999084473	0.38776648044586	-0.62338304519653	65.000000000000	0.00000000000000
26.469999313354	0.38640129566193	-0.62316161394119	65.000000000000	0.00000000000000
26.479999542236	0.38503462076187	-0.62293606996536	65.000000000000	0.00000000000000
26.489999771118	0.38366651535034	-0.62270647287369	65.000000000000	0.00000000000000
26.500000000000	0.38229691982269	-0.62247270345688	65.000000000000	0.00000000000000
26.510000228882	0.38092568516731	-0.62223482131958	65.000000000000	0.00000000000000
26.520000457764	0.37955322861671	-0.62199276685715	65.000000000000	0.00000000000000
26.530000686646	0.37817898392677	-0.62174648046494	65.000000000000	0.00000000000000
26.540000915527	0.37680342793465	-0.62149602174759	65.000000000000	0.00000000000000
26.549999237061	0.37542644143105	-0.62124145030975	65.000000000000	0.00000000000000
26.559999465942	0.37404787540436	-0.62098252773285	65.000000000000	0.00000000000000
26.569999694824	0.37266817688942	-0.62071937322617	65.000000000000	0.00000000000000
26.579999923706	0.37128672003746	-0.62045204639435	65.000000000000	0.00000000000000
26.590000152588	0.36990410089493	-0.62018036842346	65.000000000000	0.00000000000000
26.600000381470	0.36852002143860	-0.61990439891815	65.000000000000	0.00000000000000
26.610000610352	0.36713451147079	-0.61962413787842	65.000000000000	0.00000000000000
26.620000839233	0.36574754118919	-0.61933952569962	65.000000000000	0.00000000000000
26.629999160767	0.36435943841934	-0.61905050277710	65.000000000000	0.00000000000000
26.639999389648	0.36296990513802	-0.61875724792480	65.000000000000	0.00000000000000
26.649999618530	0.36157914996147	-0.61845952272415	65.000000000000	0.00000000000000
26.659999847412	0.36018693447113	-0.61815732717514	65.000000000000	0.00000000000000
26.670000076294	0.35879346728325	-0.61785084009171	65.000000000000	0.00000000000000
26.680000305176	0.35739862918854	-0.61753988265991	65.000000000000	0.00000000000000
26.690000534058	0.35600250959396	-0.61722445487976	65.000000000000	0.00000000000000
26.700000762939	0.35460525751114	-0.61690455675125	65.000000000000	0.00000000000000
26.709999084473	0.35320681333542	-0.61658006906509	65.000000000000	0.00000000000000
26.719999313354	0.35180690884590	-0.61625123023987	65.000000000000	0.00000000000000
26.729999542236	0.35040608048439	-0.61591780185699	65.000000000000	0.00000000000000
26.739999771118	0.34900379180908	-0.61557984352112	65.000000000000	0.00000000000000
26.750000000000	0.34760037064552	-0.61523735523224	65.000000000000	0.00000000000000
26.760000228882	0.34619593620300	-0.61489027738571	65.000000000000	0.00000000000000
26.770000457764	0.34479022026062	-0.61453860998154	65.000000000000	0.00000000000000
26.780000686646	0.34338340163231	-0.61418229341507	65.000000000000	0.00000000000000
26.790000915527	0.34197539091110	-0.61382138729095	65.000000000000	0.00000000000000
26.799999237061	0.34056642651558	-0.61345583200455	65.000000000000	0.00000000000000
26.809999465942	0.33915624022484	-0.61308556795120	65.000000000000	0.00000000000000
26.819999694824	0.33774504065514	-0.61271071434021	65.000000000000	0.00000000000000
26.829999923706	0.33633264899254	-0.61233109235764	65.000000000000	0.00000000000000
26.840000152588	0.33491954207420	-0.61194676160812	65.000000000000	0.00000000000000
26.850000381470	0.33350515365601	-0.61155772209167	65.000000000000	0.00000000000000
26.860000610352	0.33208981156349	-0.61116391420364	65.000000000000	0.00000000000000
26.870000839233	0.33067336678505	-0.61076539754868	65.000000000000	0.00000000000000
26.879999160767	0.32925599813461	-0.61036205291748	65.000000000000	0.00000000000000
26.889999389648	0.32783788442612	-0.60995388031006	65.000000000000	0.00000000000000
26.899999618530	0.32641854882240	-0.60954099893570	65.000000000000	0.00000000000000
26.909999847412	0.32499858736992	-0.60912311077118	65.000000000000	0.00000000000000
26.920000076294	0.32357752323151	-0.60870051383972	65.000000000000	0.00000000000000
26.930000305176	0.32215562462807	-0.60827302932739	65.000000000000	0.00000000000000
26.940000534058	0.32073286175728	-0.60784059762955	65.000000000000	0.00000000000000
26.950000762939	0.31930932402611	-0.60740333795547	65.000000000000	0.00000000000000
26.959999084473	0.31788471341133	-0.60696119070053	65.000000000000	0.00000000000000
26.969999313354	0.31645959615707	-0.60651397705078	65.000000000000	0.00000000000000
26.979999542236	0.31503343582153	-0.60606187582016	65.000000000000	0.00000000000000
26.989999771118	0.31360670924187	-0.60560488700867	65.000000000000	0.00000000000000
27.000000000000	0.31217926740646	-0.60514277219772	65.000000000000	0.00000000000000
27.010000228882	0.31075102090836	-0.60467576980591	65.000000000000	0.00000000000000
27.020000457764	0.30932193994522	-0.60420370101929	65.000000000000	0.00000000000000
27.030000686646	0.30789232254028	-0.60372662544250	65.000000000000	0.00000000000000
27.040000915527	0.30646198987961	-0.60324448347092	65.000000000000	0.00000000000000
27.049999237061	0.30503115057945	-0.60275727510452	65.000000000000	0.00000000000000
27.059999465942	0.30359941720963	-0.60226500034332	65.000000000000	0.00000000000000
27.069999694824	0.30216711759567	-0.60176759958267	65.000000000000	0.00000000000000
27.079999923706	0.30073443055153	-0.60126507282257	65.000000000000	0.00000000000000
27.090000152588	0.29930108785629	-0.60075747966766	65.000000000000	0.00000000000000
27.100000381470	0.29786720871925	-0.60024470090866	65.000000000000	0.00000000000000
27.110000610352	0.29643285274506	-0.59972673654556	65.000000000000	0.00000000000000
27.120000839233	0.29499790072441	-0.59920358657837	65.000000000000	0.00000000000000
27.129999160767	0.29356265068054	-0.59867537021637	65.000000000000	0.00000000000000
27.139999389648	0.29212668538094	-0.59814184904099	65.000000000000	0.00000000000000
27.149999618530	0.29069063067436	-0.59760314226151	65.000000000000	0.00000000000000
27.159999847412	0.28925386071205	-0.59705913066864	65.000000000000	0.00000000000000
27.170000076294	0.28781688213348	-0.59650993347168	65.000000000000	0.00000000000000
27.180000305176	0.28637960553169	-0.59595543146133	65.000000000000	0.00000000000000
27.190000534058	0.28494185209274	-0.59539562463760	65.000000000000	0.00000000000000
27.200000762939	0.28350383043289	-0.59483057260513	65.000000000000	0.00000000000000
27.209999084473	0.28206551074982	-0.59426021575928	65.000000000000	0.00000000000000
27.219999313354	0.28062692284584	-0.59368443489075	65.000000000000	0.00000000000000
27.229999542236	0.27918815612793	-0.59310340881348	65.000000000000	0.00000000000000
27.239999771118	0.27774921059608	-0.59251695871353	65.000000000000	0.00000000000000
27.250000000000	0.27631005644798	-0.59192520380020	65.000000000000	0.00000000000000
27.260000228882	0.27487060427666	-0.59132808446884	65.000000000000	0.00000000000000
27.270000457764	0.27343103289604	-0.59072548151016	65.000000000000	0.00000000000000
27.280000686646	0.27199149131775	-0.59011751413345	65.000000000000	0.00000000000000
27.290000915527	0.27055189013481	-0.58950412273407	65.000000000000	0.00000000000000
27.299999237061	0.26911208033562	-0.58888530731201	65.000000000000	0.00000000000000
27.309999465942	0.26767221093178	-0.58826094865799	65.000000000000	0.00000000000000
27.319999694824	0.26623249053955	-0.58763116598129	65.000000000000	0.00000000000000
27.329999923706	0.26479265093803	-0.58699601888657	65.000000000000	0.00000000000000
