#Parameters = {d=0.22072864321608; l2=4.4145728643216; lambda=8.8291457286432; r=0.029745391959799}
#"Frequency / GHz"	"S1,1 (lambda=8.82915) [Re]"	"S1,1 (lambda=8.82915) [Im]"	"Ref.Imp. [Re]"	"Ref.Imp. [Im]"
#-----------------------------------------------------------------------------------------------------------
25.000000000000	0.48727205395699	-0.62939244508743	65.000000000000	0.00000000000000
25.010000228882	0.48600769042969	-0.62944567203522	65.000000000000	0.00000000000000
25.020000457764	0.48474076390266	-0.62949556112289	65.000000000000	0.00000000000000
25.030000686646	0.48347187042236	-0.62954205274582	65.000000000000	0.00000000000000
25.040000915527	0.48220074176788	-0.62958520650864	65.000000000000	0.00000000000000
25.049999237061	0.48092731833458	-0.62962490320206	65.000000000000	0.00000000000000
25.059999465942	0.47965174913406	-0.62966126203537	65.000000000000	0.00000000000000
25.069999694824	0.47837397456169	-0.62969416379929	65.000000000000	0.00000000000000
25.079999923706	0.47709414362907	-0.62972360849380	65.000000000000	0.00000000000000
25.090000152588	0.47581204771996	-0.62974965572357	65.000000000000	0.00000000000000
25.100000381470	0.47452774643898	-0.62977218627930	65.000000000000	0.00000000000000
25.110000610352	0.47324141860008	-0.62979131937027	65.000000000000	0.00000000000000
25.120000839233	0.47195303440094	-0.62980693578720	65.000000000000	0.00000000000000
25.129999160767	0.47066232562065	-0.62981903553009	65.000000000000	0.00000000000000
25.139999389648	0.46936962008476	-0.62982767820358	65.000000000000	0.00000000000000
25.149999618530	0.46807488799095	-0.62983286380768	65.000000000000	0.00000000000000
25.159999847412	0.46677789092064	-0.62983447313309	65.000000000000	0.00000000000000
25.170000076294	0.46547904610634	-0.62983244657516	65.000000000000	0.00000000000000
25.180000305176	0.46417796611786	-0.62982702255249	65.000000000000	0.00000000000000
25.190000534058	0.46287471055984	-0.62981796264648	65.000000000000	0.00000000000000
25.200000762939	0.46156960725784	-0.62980538606644	65.000000000000	0.00000000000000
25.209999084473	0.46026235818863	-0.62978917360306	65.000000000000	0.00000000000000
25.219999313354	0.45895320177078	-0.62976938486099	65.000000000000	0.00000000000000
25.229999542236	0.45764181017876	-0.62974596023560	65.000000000000	0.00000000000000
25.239999771118	0.45632857084274	-0.62971895933151	65.000000000000	0.00000000000000
25.250000000000	0.45501327514648	-0.62968832254410	65.000000000000	0.00000000000000
25.260000228882	0.45369616150856	-0.62965404987335	65.000000000000	0.00000000000000
25.270000457764	0.45237684249878	-0.62961608171463	65.000000000000	0.00000000000000
25.280000686646	0.45105564594269	-0.62957441806793	65.000000000000	0.00000000000000
25.290000915527	0.44973239302635	-0.62952917814255	65.000000000000	0.00000000000000
25.299999237061	0.44840723276138	-0.62948018312454	65.000000000000	0.00000000000000
25.309999465942	0.44708010554314	-0.62942755222321	65.000000000000	0.00000000000000
25.319999694824	0.44575098156929	-0.62937116622925	65.000000000000	0.00000000000000
25.329999923706	0.44442000985146	-0.62931102514267	65.000000000000	0.00000000000000
25.340000152588	0.44308710098267	-0.62924712896347	65.000000000000	0.00000000000000
25.350000381470	0.44175231456757	-0.62917953729630	65.000000000000	0.00000000000000
25.360000610352	0.44041559100151	-0.62910825014114	65.000000000000	0.00000000000000
25.370000839233	0.43907704949379	-0.62903314828873	65.000000000000	0.00000000000000
25.379999160767	0.43773669004440	-0.62895399332047	65.000000000000	0.00000000000000
25.389999389648	0.43639406561852	-0.62887150049210	65.000000000000	0.00000000000000
25.399999618530	0.43505007028580	-0.62878477573395	65.000000000000	0.00000000000000
25.409999847412	0.43370398879051	-0.62869429588318	65.000000000000	0.00000000000000
25.420000076294	0.43235605955124	-0.62860012054443	65.000000000000	0.00000000000000
25.430000305176	0.43100610375404	-0.62850219011307	65.000000000000	0.00000000000000
25.440000534058	0.42965444922447	-0.62840020656586	65.000000000000	0.00000000000000
25.450000762939	0.42830091714859	-0.62829446792603	65.000000000000	0.00000000000000
25.459999084473	0.42694577574730	-0.62818467617035	65.000000000000	0.00000000000000
25.469999313354	0.42558869719505	-0.62807112932205	65.000000000000	0.00000000000000
25.479999542236	0.42422997951508	-0.62795341014862	65.000000000000	0.00000000000000
25.489999771118	0.42286914587021	-0.62783211469650	65.000000000000	0.00000000000000
25.500000000000	0.42150670289993	-0.62770682573318	65.000000000000	0.00000000000000
25.510000228882	0.42014268040657	-0.62757730484009	65.000000000000	0.00000000000000
25.520000457764	0.41877654194832	-0.62744408845901	65.000000000000	0.00000000000000
25.530000686646	0.41740915179253	-0.62730658054352	65.000000000000	0.00000000000000
25.540000915527	0.41603964567184	-0.62716525793076	65.000000000000	0.00000000000000
25.549999237061	0.41466832160950	-0.62702006101608	65.000000000000	0.00000000000000
25.559999465942	0.41329520940781	-0.62687081098557	65.000000000000	0.00000000000000
25.569999694824	0.41192090511322	-0.62671720981598	65.000000000000	0.00000000000000
25.579999923706	0.41054457426071	-0.62655985355377	65.000000000000	0.00000000000000
25.590000152588	0.40916642546654	-0.62639838457108	65.000000000000	0.00000000000000
25.600000381470	0.40778657793999	-0.62623286247253	65.000000000000	0.00000000000000
25.610000610352	0.40640527009964	-0.62606316804886	65.000000000000	0.00000000000000
25.620000839233	0.40502229332924	-0.62588936090469	65.000000000000	0.00000000000000
25.629999160767	0.40363782644272	-0.62571120262146	65.000000000000	0.00000000000000
25.639999389648	0.40225142240524	-0.62552922964096	65.000000000000	0.00000000000000
25.649999618530	0.40086337924004	-0.62534308433533	65.000000000000	0.00000000000000
25.659999847412	0.39947363734245	-0.62515276670456	65.000000000000	0.00000000000000
25.670000076294	0.39808252453804	-0.62495809793472	65.000000000000	0.00000000000000
25.680000305176	0.39668980240822	-0.62475925683975	65.000000000000	0.00000000000000
25.690000534058	0.39529517292976	-0.62455642223358	65.000000000000	0.00000000000000
25.700000762939	0.39389920234680	-0.62434917688370	65.000000000000	0.00000000000000
25.709999084473	0.39250195026398	-0.62413746118546	65.000000000000	0.00000000000000
25.719999313354	0.39110255241394	-0.62392193078995	65.000000000000	0.00000000000000
25.729999542236	0.38970184326172	-0.62370187044144	65.000000000000	0.00000000000000
25.739999771118	0.38829964399338	-0.62347757816315	65.000000000000	0.00000000000000
25.750000000000	0.38689586520195	-0.62324899435043	65.000000000000	0.00000000000000
25.760000228882	0.38549059629440	-0.62301605939865	65.000000000000	0.00000000000000
25.770000457764	0.38408374786377	-0.62277883291245	65.000000000000	0.00000000000000
25.780000686646	0.38267552852631	-0.62253719568253	65.000000000000	0.00000000000000
25.790000915527	0.38126558065414	-0.62229120731354	65.000000000000	0.00000000000000
25.799999237061	0.37985423207283	-0.62204080820084	65.000000000000	0.00000000000000
25.809999465942	0.37844151258469	-0.62178599834442	65.000000000000	0.00000000000000
25.819999694824	0.37702739238739	-0.62152677774429	65.000000000000	0.00000000000000
25.829999923706	0.37561175227165	-0.62126314640045	65.000000000000	0.00000000000000
25.840000152588	0.37419465184212	-0.62099510431290	65.000000000000	0.00000000000000
25.850000381470	0.37277603149414	-0.62072259187698	65.000000000000	0.00000000000000
25.860000610352	0.37135636806488	-0.62044548988342	65.000000000000	0.00000000000000
25.870000839233	0.36993500590324	-0.62016403675079	65.000000000000	0.00000000000000
25.879999160767	0.36851233243942	-0.61987793445587	65.000000000000	0.00000000000000
25.889999389648	0.36708834767342	-0.61958736181259	65.000000000000	0.00000000000000
25.899999618530	0.36566287279129	-0.61929219961166	65.000000000000	0.00000000000000
25.909999847412	0.36423611640930	-0.61899256706238	65.000000000000	0.00000000000000
25.920000076294	0.36280795931816	-0.61868828535080	65.000000000000	0.00000000000000
25.930000305176	0.36137866973877	-0.61837941408157	65.000000000000	0.00000000000000
25.940000534058	0.35994797945023	-0.61806589365005	65.000000000000	0.00000000000000
25.950000762939	0.35851588845253	-0.61774778366089	65.000000000000	0.00000000000000
25.959999084473	0.35708260536194	-0.61742508411407	65.000000000000	0.00000000000000
25.969999313354	0.35564813017845	-0.61709749698639	65.000000000000	0.00000000000000
25.979999542236	0.35421234369278	-0.61676543951035	65.000000000000	0.00000000000000
25.989999771118	0.35277539491653	-0.61642861366272	65.000000000000	0.00000000000000
26.000000000000	0.35133698582649	-0.61608701944351	65.000000000000	0.00000000000000
26.010000228882	0.34989762306213	-0.61574077606201	65.000000000000	0.00000000000000
26.020000457764	0.34845697879791	-0.61538970470428	65.000000000000	0.00000000000000
26.030000686646	0.34701508283615	-0.61503386497498	65.000000000000	0.00000000000000
26.040000915527	0.34557229280472	-0.61467325687408	65.000000000000	0.00000000000000
26.049999237061	0.34412813186646	-0.61430788040161	65.000000000000	0.00000000000000
26.059999465942	0.34268277883530	-0.61393761634827	65.000000000000	0.00000000000000
26.069999694824	0.34123638272285	-0.61356252431870	65.000000000000	0.00000000000000
26.079999923706	0.33978888392448	-0.61318260431290	65.000000000000	0.00000000000000
26.090000152588	0.33834034204483	-0.61279779672623	65.000000000000	0.00000000000000
26.100000381470	0.33689072728157	-0.61240810155869	65.000000000000	0.00000000000000
26.110000610352	0.33544012904167	-0.61201345920563	65.000000000000	0.00000000000000
26.120000839233	0.33398830890656	-0.61161392927170	65.000000000000	0.00000000000000
26.129999160767	0.33253559470177	-0.61120939254761	65.000000000000	0.00000000000000
26.139999389648	0.33108180761337	-0.61079990863800	65.000000000000	0.00000000000000
26.149999618530	0.32962715625763	-0.61038547754288	65.000000000000	0.00000000000000
26.159999847412	0.32817137241364	-0.60996603965759	65.000000000000	0.00000000000000
26.170000076294	0.32671475410461	-0.60954153537750	65.000000000000	0.00000000000000
26.180000305176	0.32525727152824	-0.60911202430725	65.000000000000	0.00000000000000
26.190000534058	0.32379871606827	-0.60867744684219	65.000000000000	0.00000000000000
26.200000762939	0.32233941555023	-0.60823786258698	65.000000000000	0.00000000000000
26.209999084473	0.32087904214859	-0.60779315233231	65.000000000000	0.00000000000000
26.219999313354	0.31941789388657	-0.60734325647354	65.000000000000	0.00000000000000
26.229999542236	0.31795606017113	-0.60688835382462	65.000000000000	0.00000000000000
26.239999771118	0.31649324297905	-0.60642832517624	65.000000000000	0.00000000000000
26.250000000000	0.31502959132195	-0.60596311092377	65.000000000000	0.00000000000000
26.260000228882	0.31356525421143	-0.60549259185791	65.000000000000	0.00000000000000
26.270000457764	0.31210014224052	-0.60501700639725	65.000000000000	0.00000000000000
26.280000686646	0.31063428521156	-0.60453623533249	65.000000000000	0.00000000000000
26.290000915527	0.30916768312454	-0.60405009984970	65.000000000000	0.00000000000000
26.299999237061	0.30770033597946	-0.60355883836746	65.000000000000	0.00000000000000
26.309999465942	0.30623230338097	-0.60306227207184	65.000000000000	0.00000000000000
26.319999694824	0.30476373434067	-0.60256040096283	65.000000000000	0.00000000000000
26.329999923706	0.30329450964928	-0.60205328464508	65.000000000000	0.00000000000000
26.340000152588	0.30182451009750	-0.60154080390930	65.000000000000	0.00000000000000
26.350000381470	0.30035418272018	-0.60102301836014	65.000000000000	0.00000000000000
26.360000610352	0.29888311028481	-0.60049986839294	65.000000000000	0.00000000000000
26.370000839233	0.29741147160530	-0.59997129440308	65.000000000000	0.00000000000000
26.379999160767	0.29593926668167	-0.59943747520447	65.000000000000	0.00000000000000
26.389999389648	0.29446658492088	-0.59889811277390	65.000000000000	0.00000000000000
26.399999618530	0.29299348592758	-0.59835344552994	65.000000000000	0.00000000000000
26.409999847412	0.29151982069016	-0.59780335426331	65.000000000000	0.00000000000000
26.420000076294	0.29004591703415	-0.59724766016006	65.000000000000	0.00000000000000
26.430000305176	0.28857135772705	-0.59668666124344	65.000000000000	0.00000000000000
26.440000534058	0.28709650039673	-0.59612005949020	65.000000000000	0.00000000000000
26.450000762939	0.28562128543854	-0.59554803371429	65.000000000000	0.00000000000000
26.459999084473	0.28414583206177	-0.59497046470642	65.000000000000	0.00000000000000
26.469999313354	0.28266987204552	-0.59438735246658	65.000000000000	0.00000000000000
26.479999542236	0.28119364380836	-0.59379875659943	65.000000000000	0.00000000000000
26.489999771118	0.27971723675728	-0.59320449829102	65.000000000000	0.00000000000000
26.500000000000	0.27824059128761	-0.59260469675064	65.000000000000	0.00000000000000
26.510000228882	0.27676352858543	-0.59199929237366	65.000000000000	0.00000000000000
26.520000457764	0.27528640627861	-0.59138828516006	65.000000000000	0.00000000000000
26.530000686646	0.27380919456482	-0.59077161550522	65.000000000000	0.00000000000000
26.540000915527	0.27233174443245	-0.59014928340912	65.000000000000	0.00000000000000
26.549999237061	0.27085423469543	-0.58952134847641	65.000000000000	0.00000000000000
26.559999465942	0.26937651634216	-0.58888775110245	65.000000000000	0.00000000000000
26.569999694824	0.26789879798889	-0.58824849128723	65.000000000000	0.00000000000000
26.579999923706	0.26642116904259	-0.58760344982147	65.000000000000	0.00000000000000
26.590000152588	0.26494339108467	-0.58695268630981	65.000000000000	0.00000000000000
26.600000381470	0.26346570253372	-0.58629620075226	65.000000000000	0.00000000000000
26.610000610352	0.26198789477348	-0.58563405275345	65.000000000000	0.00000000000000
26.620000839233	0.26051029562950	-0.58496600389481	65.000000000000	0.00000000000000
26.629999160767	0.25903272628784	-0.58429223299026	65.000000000000	0.00000000000000
26.639999389648	0.25755536556244	-0.58361268043518	65.000000000000	0.00000000000000
26.649999618530	0.25607815384865	-0.58292728662491	65.000000000000	0.00000000000000
26.659999847412	0.25460097193718	-0.58223617076874	65.000000000000	0.00000000000000
26.670000076294	0.25312405824661	-0.58153909444809	65.000000000000	0.00000000000000
26.680000305176	0.25164747238159	-0.58083617687225	65.000000000000	0.00000000000000
26.690000534058	0.25017130374908	-0.58012747764587	65.000000000000	0.00000000000000
26.700000762939	0.24869520962238	-0.57941281795502	65.000000000000	0.00000000000000
26.709999084473	0.24721941351891	-0.57869237661362	65.000000000000	0.00000000000000
26.719999313354	0.24574404954910	-0.57796597480774	65.000000000000	0.00000000000000
26.729999542236	0.24426902830601	-0.57723367214203	65.000000000000	0.00000000000000
26.739999771118	0.24279449880123	-0.57649534940720	65.000000000000	0.00000000000000
26.750000000000	0.24132052063942	-0.57575112581253	65.000000000000	0.00000000000000
26.760000228882	0.23984682559967	-0.57500106096268	65.000000000000	0.00000000000000
26.770000457764	0.23837369680405	-0.57424491643906	65.000000000000	0.00000000000000
26.780000686646	0.23690120875835	-0.57348287105560	65.000000000000	0.00000000000000
26.790000915527	0.23542921245098	-0.57271480560303	65.000000000000	0.00000000000000
26.799999237061	0.23395775258541	-0.57194072008133	65.000000000000	0.00000000000000
26.809999465942	0.23248699307442	-0.57116061449051	65.000000000000	0.00000000000000
26.819999694824	0.23101697862148	-0.57037454843521	65.000000000000	0.00000000000000
26.829999923706	0.22954756021500	-0.56958240270615	65.000000000000	0.00000000000000
26.840000152588	0.22807897627354	-0.56878423690796	65.000000000000	0.00000000000000
26.850000381470	0.22661116719246	-0.56797999143600	65.000000000000	0.00000000000000
26.860000610352	0.22514395415783	-0.56716972589493	65.000000000000	0.00000000000000
26.870000839233	0.22367763519287	-0.56635338068008	65.000000000000	0.00000000000000
26.879999160767	0.22221234440804	-0.56553095579147	65.000000000000	0.00000000000000
26.889999389648	0.22074785828590	-0.56470239162445	65.000000000000	0.00000000000000
26.899999618530	0.21928434073925	-0.56386780738831	65.000000000000	0.00000000000000
26.909999847412	0.21782170236111	-0.56302702426910	65.000000000000	0.00000000000000
26.920000076294	0.21636009216309	-0.56218016147614	65.000000000000	0.00000000000000
26.930000305176	0.21489952504635	-0.56132715940475	65.000000000000	0.00000000000000
26.940000534058	0.21344006061554	-0.56046801805496	65.000000000000	0.00000000000000
26.950000762939	0.21198171377182	-0.55960273742676	65.000000000000	0.00000000000000
26.959999084473	0.21052439510822	-0.55873131752014	65.000000000000	0.00000000000000
26.969999313354	0.20906825363636	-0.55785375833511	65.000000000000	0.00000000000000
26.979999542236	0.20761348307133	-0.55697000026703	65.000000000000	0.00000000000000
26.989999771118	0.20615978538990	-0.55608004331589	65.000000000000	0.00000000000000
27.000000000000	0.20470739901066	-0.55518394708633	65.000000000000	0.00000000000000
27.010000228882	0.20325630903244	-0.55428171157837	65.000000000000	0.00000000000000
27.020000457764	0.20180654525757	-0.55337315797806	65.000000000000	0.00000000000000
27.030000686646	0.20035833120346	-0.55245852470398	65.000000000000	0.00000000000000
27.040000915527	0.19891135394573	-0.55153763294220	65.000000000000	0.00000000000000
27.049999237061	0.19746582210064	-0.55061048269272	65.000000000000	0.00000000000000
27.059999465942	0.19602189958096	-0.54967707395554	65.000000000000	0.00000000000000
27.069999694824	0.19457949697971	-0.54873764514923	65.000000000000	0.00000000000000
27.079999923706	0.19313859939575	-0.54779177904129	65.000000000000	0.00000000000000
27.090000152588	0.19169926643372	-0.54683983325958	65.000000000000	0.00000000000000
27.100000381470	0.19026155769825	-0.54588156938553	65.000000000000	0.00000000000000
27.110000610352	0.18882557749748	-0.54491704702377	65.000000000000	0.00000000000000
27.120000839233	0.18739128112793	-0.54394626617432	65.000000000000	0.00000000000000
27.129999160767	0.18595869839191	-0.54296934604645	65.000000000000	0.00000000000000
27.139999389648	0.18452784419060	-0.54198616743088	65.000000000000	0.00000000000000
27.149999618530	0.18309900164604	-0.54099661111832	65.000000000000	0.00000000000000
27.159999847412	0.18167197704315	-0.54000091552734	65.000000000000	0.00000000000000
27.170000076294	0.18024662137032	-0.53899890184402	65.000000000000	0.00000000000000
27.180000305176	0.17882339656353	-0.53799062967300	65.000000000000	0.00000000000000
27.190000534058	0.17740207910538	-0.53697609901428	65.000000000000	0.00000000000000
27.200000762939	0.17598281800747	-0.53595525026321	65.000000000000	0.00000000000000
27.209999084473	0.17456552386284	-0.53492826223373	65.000000000000	0.00000000000000
27.219999313354	0.17315036058426	-0.53389489650726	65.000000000000	0.00000000000000
27.229999542236	0.17173737287521	-0.53285533189774	65.000000000000	0.00000000000000
27.239999771118	0.17032641172409	-0.53180950880051	65.000000000000	0.00000000000000
27.250000000000	0.16891770064831	-0.53075736761093	65.000000000000	0.00000000000000
27.260000228882	0.16751123964787	-0.52969896793365	65.000000000000	0.00000000000000
27.270000457764	0.16610710322857	-0.52863430976868	65.000000000000	0.00000000000000
27.280000686646	0.16470527648926	-0.52756345272064	65.000000000000	0.00000000000000
27.290000915527	0.16330568492413	-0.52648627758026	65.000000000000	0.00000000000000
27.299999237061	0.16190849244595	-0.52540278434753	65.000000000000	0.00000000000000
27.309999465942	0.16051372885704	-0.52431315183640	65.000000000000	0.00000000000000
27.319999694824	0.15912155807018	-0.52321714162827	65.000000000000	0.00000000000000
27.329999923706	0.15773177146912	-0.52211493253708	65.000000000000	0.00000000000000
