#Parameters = {d=0.22374371859296; l2=4.4748743718593; lambda=8.9497487437186; r=0.030151703517588}
#"Frequency / GHz"	"S1,1 (lambda=8.94975) [Re]"	"S1,1 (lambda=8.94975) [Im]"	"Ref.Imp. [Re]"	"Ref.Imp. [Im]"
#-----------------------------------------------------------------------------------------------------------
25.000000000000	0.44342103600502	-0.62927359342575	65.000000000000	0.00000000000000
25.010000228882	0.44206535816193	-0.62920683622360	65.000000000000	0.00000000000000
25.020000457764	0.44070774316788	-0.62913620471954	65.000000000000	0.00000000000000
25.030000686646	0.43934825062752	-0.62906163930893	65.000000000000	0.00000000000000
25.040000915527	0.43798679113388	-0.62898308038712	65.000000000000	0.00000000000000
25.049999237061	0.43662336468697	-0.62890052795410	65.000000000000	0.00000000000000
25.059999465942	0.43525817990303	-0.62881404161453	65.000000000000	0.00000000000000
25.069999694824	0.43389105796814	-0.62872344255447	65.000000000000	0.00000000000000
25.079999923706	0.43252202868462	-0.62862890958786	65.000000000000	0.00000000000000
25.090000152588	0.43115106225014	-0.62853032350540	65.000000000000	0.00000000000000
25.100000381470	0.42977833747864	-0.62842762470245	65.000000000000	0.00000000000000
25.110000610352	0.42840376496315	-0.62832093238831	65.000000000000	0.00000000000000
25.120000839233	0.42702731490135	-0.62821018695831	65.000000000000	0.00000000000000
25.129999160767	0.42564904689789	-0.62809526920319	65.000000000000	0.00000000000000
25.139999389648	0.42426905035973	-0.62797635793686	65.000000000000	0.00000000000000
25.149999618530	0.42288711667061	-0.62785327434540	65.000000000000	0.00000000000000
25.159999847412	0.42150345444679	-0.62772613763809	65.000000000000	0.00000000000000
25.170000076294	0.42011803388596	-0.62759476900101	65.000000000000	0.00000000000000
25.180000305176	0.41873079538345	-0.62745934724808	65.000000000000	0.00000000000000
25.190000534058	0.41734176874161	-0.62731969356537	65.000000000000	0.00000000000000
25.200000762939	0.41595110297203	-0.62717592716217	65.000000000000	0.00000000000000
25.209999084473	0.41455861926079	-0.62702792882919	65.000000000000	0.00000000000000
25.219999313354	0.41316446661949	-0.62687575817108	65.000000000000	0.00000000000000
25.229999542236	0.41176852583885	-0.62671935558319	65.000000000000	0.00000000000000
25.239999771118	0.41037097573280	-0.62655878067017	65.000000000000	0.00000000000000
25.250000000000	0.40897157788277	-0.62639397382736	65.000000000000	0.00000000000000
25.260000228882	0.40757051110268	-0.62622487545013	65.000000000000	0.00000000000000
25.270000457764	0.40616783499718	-0.62605154514313	65.000000000000	0.00000000000000
25.280000686646	0.40476357936859	-0.62587392330170	65.000000000000	0.00000000000000
25.290000915527	0.40335762500763	-0.62569195032120	65.000000000000	0.00000000000000
25.299999237061	0.40194997191429	-0.62550574541092	65.000000000000	0.00000000000000
25.309999465942	0.40054062008858	-0.62531524896622	65.000000000000	0.00000000000000
25.319999694824	0.39912977814674	-0.62512040138245	65.000000000000	0.00000000000000
25.329999923706	0.39771732687950	-0.62492108345032	65.000000000000	0.00000000000000
25.340000152588	0.39630320668221	-0.62471765279770	65.000000000000	0.00000000000000
25.350000381470	0.39488747715950	-0.62450981140137	65.000000000000	0.00000000000000
25.360000610352	0.39347013831139	-0.62429749965668	65.000000000000	0.00000000000000
25.370000839233	0.39205148816109	-0.62408065795898	65.000000000000	0.00000000000000
25.379999160767	0.39063096046448	-0.62385958433151	65.000000000000	0.00000000000000
25.389999389648	0.38920924067497	-0.62363392114639	65.000000000000	0.00000000000000
25.399999618530	0.38778597116470	-0.62340378761292	65.000000000000	0.00000000000000
25.409999847412	0.38636085391045	-0.62316936254501	65.000000000000	0.00000000000000
25.420000076294	0.38493427634239	-0.62293052673340	65.000000000000	0.00000000000000
25.430000305176	0.38350644707680	-0.62268710136414	65.000000000000	0.00000000000000
25.440000534058	0.38207685947418	-0.62243914604187	65.000000000000	0.00000000000000
25.450000762939	0.38064581155777	-0.62218677997589	65.000000000000	0.00000000000000
25.459999084473	0.37921360135078	-0.62192964553833	65.000000000000	0.00000000000000
25.469999313354	0.37777999043465	-0.62166804075241	65.000000000000	0.00000000000000
25.479999542236	0.37634468078613	-0.62140196561813	65.000000000000	0.00000000000000
25.489999771118	0.37490794062614	-0.62113124132156	65.000000000000	0.00000000000000
25.500000000000	0.37346982955933	-0.62085598707199	65.000000000000	0.00000000000000
25.510000228882	0.37203037738800	-0.62057608366013	65.000000000000	0.00000000000000
25.520000457764	0.37058958411217	-0.62029153108597	65.000000000000	0.00000000000000
25.530000686646	0.36914709210396	-0.62000244855881	65.000000000000	0.00000000000000
25.540000915527	0.36770364642143	-0.61970853805542	65.000000000000	0.00000000000000
25.549999237061	0.36625859141350	-0.61941003799438	65.000000000000	0.00000000000000
25.559999465942	0.36481258273125	-0.61910676956177	65.000000000000	0.00000000000000
25.569999694824	0.36336496472359	-0.61879879236221	65.000000000000	0.00000000000000
25.579999923706	0.36191579699516	-0.61848640441895	65.000000000000	0.00000000000000
25.590000152588	0.36046573519707	-0.61816889047623	65.000000000000	0.00000000000000
25.600000381470	0.35901448130608	-0.61784666776657	65.000000000000	0.00000000000000
25.610000610352	0.35756137967110	-0.61751997470856	65.000000000000	0.00000000000000
25.620000839233	0.35610771179199	-0.61718803644180	65.000000000000	0.00000000000000
25.629999160767	0.35465201735497	-0.61685186624527	65.000000000000	0.00000000000000
25.639999389648	0.35319575667381	-0.61651039123535	65.000000000000	0.00000000000000
25.649999618530	0.35173806548119	-0.61616420745850	65.000000000000	0.00000000000000
25.659999847412	0.35027900338173	-0.61581337451935	65.000000000000	0.00000000000000
25.670000076294	0.34881913661957	-0.61545735597610	65.000000000000	0.00000000000000
25.680000305176	0.34735789895058	-0.61509662866592	65.000000000000	0.00000000000000
25.690000534058	0.34589561820030	-0.61473089456558	65.000000000000	0.00000000000000
25.700000762939	0.34443199634552	-0.61436033248901	65.000000000000	0.00000000000000
25.709999084473	0.34296736121178	-0.61398488283157	65.000000000000	0.00000000000000
25.719999313354	0.34150171279907	-0.61360430717468	65.000000000000	0.00000000000000
25.729999542236	0.34003478288651	-0.61321884393692	65.000000000000	0.00000000000000
25.739999771118	0.33856692910194	-0.61282837390900	65.000000000000	0.00000000000000
25.750000000000	0.33709812164307	-0.61243283748627	65.000000000000	0.00000000000000
25.760000228882	0.33562839031219	-0.61203223466873	65.000000000000	0.00000000000000
25.770000457764	0.33415690064430	-0.61162692308426	65.000000000000	0.00000000000000
25.780000686646	0.33268505334854	-0.61121618747711	65.000000000000	0.00000000000000
25.790000915527	0.33121210336685	-0.61080050468445	65.000000000000	0.00000000000000
25.799999237061	0.32973796129227	-0.61037969589233	65.000000000000	0.00000000000000
25.809999465942	0.32826304435730	-0.60995382070541	65.000000000000	0.00000000000000
25.819999694824	0.32678717374802	-0.60952275991440	65.000000000000	0.00000000000000
25.829999923706	0.32531049847603	-0.60908657312393	65.000000000000	0.00000000000000
25.840000152588	0.32383263111115	-0.60864526033401	65.000000000000	0.00000000000000
25.850000381470	0.32235416769981	-0.60819870233536	65.000000000000	0.00000000000000
25.860000610352	0.32087469100952	-0.60774701833725	65.000000000000	0.00000000000000
25.870000839233	0.31939432024956	-0.60729002952576	65.000000000000	0.00000000000000
25.879999160767	0.31791332364082	-0.60682779550552	65.000000000000	0.00000000000000
25.889999389648	0.31643134355545	-0.60636049509048	65.000000000000	0.00000000000000
25.899999618530	0.31494873762131	-0.60588771104813	65.000000000000	0.00000000000000
25.909999847412	0.31346517801285	-0.60540968179703	65.000000000000	0.00000000000000
25.920000076294	0.31198078393936	-0.60492640733719	65.000000000000	0.00000000000000
25.930000305176	0.31049594283104	-0.60443770885468	65.000000000000	0.00000000000000
25.940000534058	0.30901023745537	-0.60394382476807	65.000000000000	0.00000000000000
25.950000762939	0.30752384662628	-0.60344445705414	65.000000000000	0.00000000000000
25.959999084473	0.30603682994843	-0.60293978452682	65.000000000000	0.00000000000000
25.969999313354	0.30454897880554	-0.60242962837219	65.000000000000	0.00000000000000
25.979999542236	0.30306085944176	-0.60191410779953	65.000000000000	0.00000000000000
25.989999771118	0.30157184600830	-0.60139316320419	65.000000000000	0.00000000000000
26.000000000000	0.30008238554001	-0.60086673498154	65.000000000000	0.00000000000000
26.010000228882	0.29859226942062	-0.60033494234085	65.000000000000	0.00000000000000
26.020000457764	0.29710176587105	-0.59979754686356	65.000000000000	0.00000000000000
26.030000686646	0.29561042785645	-0.59925466775894	65.000000000000	0.00000000000000
26.040000915527	0.29411882162094	-0.59870636463165	65.000000000000	0.00000000000000
26.049999237061	0.29262673854828	-0.59815245866776	65.000000000000	0.00000000000000
26.059999465942	0.29113408923149	-0.59759300947189	65.000000000000	0.00000000000000
26.069999694824	0.28964132070541	-0.59702801704407	65.000000000000	0.00000000000000
26.079999923706	0.28814786672592	-0.59645736217499	65.000000000000	0.00000000000000
26.090000152588	0.28665390610695	-0.59588122367859	65.000000000000	0.00000000000000
26.100000381470	0.28515991568565	-0.59529930353165	65.000000000000	0.00000000000000
26.110000610352	0.28366544842720	-0.59471184015274	65.000000000000	0.00000000000000
26.120000839233	0.28217059373856	-0.59411877393723	65.000000000000	0.00000000000000
26.129999160767	0.28067559003830	-0.59351998567581	65.000000000000	0.00000000000000
26.139999389648	0.27918022871017	-0.59291553497314	65.000000000000	0.00000000000000
26.149999618530	0.27768480777740	-0.59230536222458	65.000000000000	0.00000000000000
26.159999847412	0.27618899941444	-0.59168946743011	65.000000000000	0.00000000000000
26.170000076294	0.27469292283058	-0.59106785058975	65.000000000000	0.00000000000000
26.180000305176	0.27319687604904	-0.59044045209885	65.000000000000	0.00000000000000
26.190000534058	0.27170056104660	-0.58980727195740	65.000000000000	0.00000000000000
26.200000762939	0.27020430564880	-0.58916836977005	65.000000000000	0.00000000000000
26.209999084473	0.26870787143707	-0.58852368593216	65.000000000000	0.00000000000000
26.219999313354	0.26721152663231	-0.58787310123444	65.000000000000	0.00000000000000
26.229999542236	0.26571503281593	-0.58721673488617	65.000000000000	0.00000000000000
26.239999771118	0.26421841979027	-0.58655452728271	65.000000000000	0.00000000000000
26.250000000000	0.26272201538086	-0.58588641881943	65.000000000000	0.00000000000000
26.260000228882	0.26122552156448	-0.58521246910095	65.000000000000	0.00000000000000
26.270000457764	0.25972926616669	-0.58453255891800	65.000000000000	0.00000000000000
26.280000686646	0.25823304057121	-0.58384680747986	65.000000000000	0.00000000000000
26.290000915527	0.25673708319664	-0.58315515518188	65.000000000000	0.00000000000000
26.299999237061	0.25524118542671	-0.58245748281479	65.000000000000	0.00000000000000
26.309999465942	0.25374534726143	-0.58175396919250	65.000000000000	0.00000000000000
26.319999694824	0.25225001573563	-0.58104431629181	65.000000000000	0.00000000000000
26.329999923706	0.25075483322144	-0.58032888174057	65.000000000000	0.00000000000000
26.340000152588	0.24925997853279	-0.57960736751556	65.000000000000	0.00000000000000
26.350000381470	0.24776527285576	-0.57887983322144	65.000000000000	0.00000000000000
26.360000610352	0.24627102911472	-0.57814627885818	65.000000000000	0.00000000000000
26.370000839233	0.24477723240852	-0.57740676403046	65.000000000000	0.00000000000000
26.379999160767	0.24328380823135	-0.57666105031967	65.000000000000	0.00000000000000
26.389999389648	0.24179083108902	-0.57590937614441	65.000000000000	0.00000000000000
26.399999618530	0.24029831588268	-0.57515156269073	65.000000000000	0.00000000000000
26.409999847412	0.23880617320538	-0.57438772916794	65.000000000000	0.00000000000000
26.420000076294	0.23731468617916	-0.57361775636673	65.000000000000	0.00000000000000
26.430000305176	0.23582391440868	-0.57284170389175	65.000000000000	0.00000000000000
26.440000534058	0.23433355987072	-0.57205945253372	65.000000000000	0.00000000000000
26.450000762939	0.23284383118153	-0.57127118110657	65.000000000000	0.00000000000000
26.459999084473	0.23135490715504	-0.57047659158707	65.000000000000	0.00000000000000
26.469999313354	0.22986637055874	-0.56967604160309	65.000000000000	0.00000000000000
26.479999542236	0.22837883234024	-0.56886923313141	65.000000000000	0.00000000000000
26.489999771118	0.22689200937748	-0.56805616617203	65.000000000000	0.00000000000000
26.500000000000	0.22540597617626	-0.56723695993423	65.000000000000	0.00000000000000
26.510000228882	0.22392074763775	-0.56641155481339	65.000000000000	0.00000000000000
26.520000457764	0.22243645787239	-0.56557989120483	65.000000000000	0.00000000000000
26.530000686646	0.22095304727554	-0.56474202871323	65.000000000000	0.00000000000000
26.540000915527	0.21947038173676	-0.56389790773392	65.000000000000	0.00000000000000
26.549999237061	0.21798895299435	-0.56304758787155	65.000000000000	0.00000000000000
26.559999465942	0.21650831401348	-0.56219094991684	65.000000000000	0.00000000000000
26.569999694824	0.21502877771854	-0.56132805347443	65.000000000000	0.00000000000000
26.579999923706	0.21355043351650	-0.56045895814896	65.000000000000	0.00000000000000
26.590000152588	0.21207299828529	-0.55958348512650	65.000000000000	0.00000000000000
26.600000381470	0.21059678494930	-0.55870181322098	65.000000000000	0.00000000000000
26.610000610352	0.20912182331085	-0.55781370401382	65.000000000000	0.00000000000000
26.620000839233	0.20764799416065	-0.55691939592361	65.000000000000	0.00000000000000
26.629999160767	0.20617550611496	-0.55601871013641	65.000000000000	0.00000000000000
26.639999389648	0.20470419526100	-0.55511170625687	65.000000000000	0.00000000000000
26.649999618530	0.20323431491852	-0.55419844388962	65.000000000000	0.00000000000000
26.659999847412	0.20176568627357	-0.55327874422073	65.000000000000	0.00000000000000
26.670000076294	0.20029851794243	-0.55235272645950	65.000000000000	0.00000000000000
26.680000305176	0.19883269071579	-0.55142039060593	65.000000000000	0.00000000000000
26.690000534058	0.19736836850643	-0.55048161745071	65.000000000000	0.00000000000000
26.700000762939	0.19590558111668	-0.54953646659851	65.000000000000	0.00000000000000
26.709999084473	0.19444426894188	-0.54858505725861	65.000000000000	0.00000000000000
26.719999313354	0.19298456609249	-0.54762721061707	65.000000000000	0.00000000000000
26.729999542236	0.19152663648129	-0.54666292667389	65.000000000000	0.00000000000000
26.739999771118	0.19007012248039	-0.54569232463837	65.000000000000	0.00000000000000
26.750000000000	0.18861544132233	-0.54471522569656	65.000000000000	0.00000000000000
26.760000228882	0.18716239929199	-0.54373186826706	65.000000000000	0.00000000000000
26.770000457764	0.18571127951145	-0.54274201393127	65.000000000000	0.00000000000000
26.780000686646	0.18426181375980	-0.54174578189850	65.000000000000	0.00000000000000
26.790000915527	0.18281421065331	-0.54074311256409	65.000000000000	0.00000000000000
26.799999237061	0.18136851489544	-0.53973406553268	65.000000000000	0.00000000000000
26.809999465942	0.17992471158504	-0.53871858119965	65.000000000000	0.00000000000000
26.819999694824	0.17848302423954	-0.53769671916962	65.000000000000	0.00000000000000
26.829999923706	0.17704330384731	-0.53666836023331	65.000000000000	0.00000000000000
26.840000152588	0.17560547590256	-0.53563362360001	65.000000000000	0.00000000000000
26.850000381470	0.17416971921921	-0.53459250926971	65.000000000000	0.00000000000000
26.860000610352	0.17273616790771	-0.53354483842850	65.000000000000	0.00000000000000
26.870000839233	0.17130477726460	-0.53249084949493	65.000000000000	0.00000000000000
26.879999160767	0.16987565159798	-0.53143036365509	65.000000000000	0.00000000000000
26.889999389648	0.16844861209393	-0.53036355972290	65.000000000000	0.00000000000000
26.899999618530	0.16702391207218	-0.52929019927979	65.000000000000	0.00000000000000
26.909999847412	0.16560162603855	-0.52821046113968	65.000000000000	0.00000000000000
26.920000076294	0.16418153047562	-0.52712428569794	65.000000000000	0.00000000000000
26.930000305176	0.16276399791241	-0.52603167295456	65.000000000000	0.00000000000000
26.940000534058	0.16134886443615	-0.52493262290955	65.000000000000	0.00000000000000
26.950000762939	0.15993602573872	-0.52382725477219	65.000000000000	0.00000000000000
26.959999084473	0.15852589905262	-0.52271538972855	65.000000000000	0.00000000000000
26.969999313354	0.15711821615696	-0.52159702777863	65.000000000000	0.00000000000000
26.979999542236	0.15571331977844	-0.52047234773636	65.000000000000	0.00000000000000
26.989999771118	0.15431088209152	-0.51934123039246	65.000000000000	0.00000000000000
27.000000000000	0.15291126072407	-0.51820367574692	65.000000000000	0.00000000000000
27.010000228882	0.15151424705982	-0.51705968379974	65.000000000000	0.00000000000000
27.020000457764	0.15011994540691	-0.51590943336487	65.000000000000	0.00000000000000
27.030000686646	0.14872854948044	-0.51475262641907	65.000000000000	0.00000000000000
27.040000915527	0.14733991026878	-0.51358944177628	65.000000000000	0.00000000000000
27.049999237061	0.14595429599285	-0.51241987943649	65.000000000000	0.00000000000000
27.059999465942	0.14457160234451	-0.51124393939972	65.000000000000	0.00000000000000
27.069999694824	0.14319176971912	-0.51006168127060	65.000000000000	0.00000000000000
27.079999923706	0.14181506633759	-0.50887298583984	65.000000000000	0.00000000000000
27.090000152588	0.14044126868248	-0.50767791271210	65.000000000000	0.00000000000000
27.100000381470	0.13907067477703	-0.50647652149200	65.000000000000	0.00000000000000
27.110000610352	0.13770318031311	-0.50526869297028	65.000000000000	0.00000000000000
27.120000839233	0.13633884489536	-0.50405466556549	65.000000000000	0.00000000000000
27.129999160767	0.13497769832611	-0.50283414125443	65.000000000000	0.00000000000000
27.139999389648	0.13361990451813	-0.50160735845566	65.000000000000	0.00000000000000
27.149999618530	0.13226523995399	-0.50037419795990	65.000000000000	0.00000000000000
27.159999847412	0.13091409206390	-0.49913474917412	65.000000000000	0.00000000000000
27.170000076294	0.12956617772579	-0.49788904190063	65.000000000000	0.00000000000000
27.180000305176	0.12822185456753	-0.49663698673248	65.000000000000	0.00000000000000
27.190000534058	0.12688083946705	-0.49537861347198	65.000000000000	0.00000000000000
27.200000762939	0.12554338574409	-0.49411410093307	65.000000000000	0.00000000000000
27.209999084473	0.12420949339867	-0.49284315109253	65.000000000000	0.00000000000000
27.219999313354	0.12287925928831	-0.49156603217125	65.000000000000	0.00000000000000
27.229999542236	0.12155255675316	-0.49028265476227	65.000000000000	0.00000000000000
27.239999771118	0.12022957205772	-0.48899301886559	65.000000000000	0.00000000000000
27.250000000000	0.11891019344330	-0.48769721388817	65.000000000000	0.00000000000000
27.260000228882	0.11759460717440	-0.48639518022537	65.000000000000	0.00000000000000
27.270000457764	0.11628282070160	-0.48508688807487	65.000000000000	0.00000000000000
27.280000686646	0.11497500538826	-0.48377251625061	65.000000000000	0.00000000000000
27.290000915527	0.11367094516754	-0.48245185613632	65.000000000000	0.00000000000000
27.299999237061	0.11237069964409	-0.48112514615059	65.000000000000	0.00000000000000
27.309999465942	0.11107451468706	-0.47979223728180	65.000000000000	0.00000000000000
27.319999694824	0.10978244990110	-0.47845318913460	65.000000000000	0.00000000000000
27.329999923706	0.10849440097809	-0.47710806131363	65.000000000000	0.00000000000000
