#Parameters = {d=0.2714824120603; l2=5.429648241206; lambda=10.859296482412; r=0.036584969849246}
#"Frequency / GHz"	"S1,1 (lambda=10.8593) [Re]"	"S1,1 (lambda=10.8593) [Im]"	"Ref.Imp. [Re]"	"Ref.Imp. [Im]"
#-----------------------------------------------------------------------------------------------------------
25.000000000000	0.010807773098350	0.042854167521000	65.000000000000	0.00000000000000
25.010000228882	0.011615085415542	0.044813428074121	65.000000000000	0.00000000000000
25.020000457764	0.012429848313332	0.046766269952059	65.000000000000	0.00000000000000
25.030000686646	0.013252020813525	0.048712667077780	65.000000000000	0.00000000000000
25.040000915527	0.014081547968090	0.050652582198381	65.000000000000	0.00000000000000
25.049999237061	0.014918352477252	0.052585992962122	65.000000000000	0.00000000000000
25.059999465942	0.015762399882078	0.054512858390808	65.000000000000	0.00000000000000
25.069999694824	0.016613597050309	0.056433144956827	65.000000000000	0.00000000000000
25.079999923706	0.017471913248301	0.058346834033728	65.000000000000	0.00000000000000
25.090000152588	0.018337290734053	0.060253888368607	65.000000000000	0.00000000000000
25.100000381470	0.019209645688534	0.062154281884432	65.000000000000	0.00000000000000
25.110000610352	0.020088963210583	0.064047999680042	65.000000000000	0.00000000000000
25.120000839233	0.020975150167942	0.065934978425503	65.000000000000	0.00000000000000
25.129999160767	0.021868148818612	0.067815214395523	65.000000000000	0.00000000000000
25.139999389648	0.022767931222916	0.069688692688942	65.000000000000	0.00000000000000
25.149999618530	0.023674398660660	0.071555361151695	65.000000000000	0.00000000000000
25.159999847412	0.024587526917458	0.073415212333202	65.000000000000	0.00000000000000
25.170000076294	0.025507232174277	0.075268216431141	65.000000000000	0.00000000000000
25.180000305176	0.026433475315571	0.077114351093769	65.000000000000	0.00000000000000
25.190000534058	0.027366191148758	0.078953579068184	65.000000000000	0.00000000000000
25.200000762939	0.028305314481258	0.080785892903805	65.000000000000	0.00000000000000
25.209999084473	0.029250780120492	0.082611262798309	65.000000000000	0.00000000000000
25.219999313354	0.030202575027943	0.084429666399956	65.000000000000	0.00000000000000
25.229999542236	0.031160570681095	0.086241096258163	65.000000000000	0.00000000000000
25.239999771118	0.032124776393175	0.088045507669449	65.000000000000	0.00000000000000
25.250000000000	0.033095091581345	0.089842893183231	65.000000000000	0.00000000000000
25.260000228882	0.034071464091539	0.091633222997189	65.000000000000	0.00000000000000
25.270000457764	0.035053856670856	0.093416497111320	65.000000000000	0.00000000000000
25.280000686646	0.036042183637619	0.095192670822144	65.000000000000	0.00000000000000
25.290000915527	0.037036407738924	0.096961751580238	65.000000000000	0.00000000000000
25.299999237061	0.038036461919546	0.098723717033863	65.000000000000	0.00000000000000
25.309999465942	0.039042275398970	0.10047852247953	65.000000000000	0.00000000000000
25.319999694824	0.040053848177195	0.10222617536783	65.000000000000	0.00000000000000
25.329999923706	0.041071023792028	0.10396666824818	65.000000000000	0.00000000000000
25.340000152588	0.042093828320503	0.10569995641708	65.000000000000	0.00000000000000
25.350000381470	0.043122172355652	0.10742604732513	65.000000000000	0.00000000000000
25.360000610352	0.044156007468700	0.10914491117001	65.000000000000	0.00000000000000
25.370000839233	0.045195255428553	0.11085654795170	65.000000000000	0.00000000000000
25.379999160767	0.046239867806435	0.11256092786789	65.000000000000	0.00000000000000
25.389999389648	0.047289811074734	0.11425806581974	65.000000000000	0.00000000000000
25.399999618530	0.048345007002354	0.11594790965319	65.000000000000	0.00000000000000
25.409999847412	0.049405392259359	0.11763046681881	65.000000000000	0.00000000000000
25.420000076294	0.050470933318138	0.11930573731661	65.000000000000	0.00000000000000
25.430000305176	0.051541529595852	0.12097369134426	65.000000000000	0.00000000000000
25.440000534058	0.052617184817791	0.12263432890177	65.000000000000	0.00000000000000
25.450000762939	0.053697790950537	0.12428762763739	65.000000000000	0.00000000000000
25.459999084473	0.054783325642347	0.12593358755112	65.000000000000	0.00000000000000
25.469999313354	0.055873721837997	0.12757220864296	65.000000000000	0.00000000000000
25.479999542236	0.056968905031681	0.12920346856117	65.000000000000	0.00000000000000
25.489999771118	0.058068841695786	0.13082735240459	65.000000000000	0.00000000000000
25.500000000000	0.059173472225666	0.13244384527206	65.000000000000	0.00000000000000
25.510000228882	0.060282744467258	0.13405297696590	65.000000000000	0.00000000000000
25.520000457764	0.061396565288305	0.13565470278263	65.000000000000	0.00000000000000
25.530000686646	0.062514901161194	0.13724903762341	65.000000000000	0.00000000000000
25.540000915527	0.063637755811214	0.13883596658707	65.000000000000	0.00000000000000
25.549999237061	0.064764998853207	0.14041548967361	65.000000000000	0.00000000000000
25.559999465942	0.065896585583687	0.14198759198189	65.000000000000	0.00000000000000
25.569999694824	0.067032478749752	0.14355227351189	65.000000000000	0.00000000000000
25.579999923706	0.068172648549080	0.14510953426361	65.000000000000	0.00000000000000
25.590000152588	0.069316960871220	0.14665935933590	65.000000000000	0.00000000000000
25.600000381470	0.070465460419655	0.14820174872875	65.000000000000	0.00000000000000
25.610000610352	0.071618050336838	0.14973671734333	65.000000000000	0.00000000000000
25.620000839233	0.072774626314640	0.15126423537731	65.000000000000	0.00000000000000
25.629999160767	0.073935180902481	0.15278431773186	65.000000000000	0.00000000000000
25.639999389648	0.075099691748619	0.15429693460464	65.000000000000	0.00000000000000
25.649999618530	0.076268069446087	0.15580214560032	65.000000000000	0.00000000000000
25.659999847412	0.077440224587917	0.15729987621307	65.000000000000	0.00000000000000
25.670000076294	0.078616194427013	0.15879017114639	65.000000000000	0.00000000000000
25.680000305176	0.079795837402344	0.16027301549911	65.000000000000	0.00000000000000
25.690000534058	0.080979168415070	0.16174842417240	65.000000000000	0.00000000000000
25.700000762939	0.082166090607643	0.16321639716625	65.000000000000	0.00000000000000
25.709999084473	0.083356551826000	0.16467688977718	65.000000000000	0.00000000000000
25.719999313354	0.084550537168980	0.16612996160984	65.000000000000	0.00000000000000
25.729999542236	0.085747957229614	0.16757555305958	65.000000000000	0.00000000000000
25.739999771118	0.086948782205582	0.16901375353336	65.000000000000	0.00000000000000
25.750000000000	0.088152959942818	0.17044448852539	65.000000000000	0.00000000000000
25.760000228882	0.089360371232033	0.17186778783798	65.000000000000	0.00000000000000
25.770000457764	0.090571090579033	0.17328365147114	65.000000000000	0.00000000000000
25.780000686646	0.091785021126270	0.17469207942486	65.000000000000	0.00000000000000
25.790000915527	0.093002110719681	0.17609308660030	65.000000000000	0.00000000000000
25.799999237061	0.094222187995911	0.17748670279980	65.000000000000	0.00000000000000
25.809999465942	0.095445349812508	0.17887286841869	65.000000000000	0.00000000000000
25.819999694824	0.096671536564827	0.18025159835815	65.000000000000	0.00000000000000
25.829999923706	0.097900681197643	0.18162293732166	65.000000000000	0.00000000000000
25.840000152588	0.099132694303989	0.18298685550690	65.000000000000	0.00000000000000
25.850000381470	0.10036754608154	0.18434341251850	65.000000000000	0.00000000000000
25.860000610352	0.10160513222218	0.18569257855415	65.000000000000	0.00000000000000
25.870000839233	0.10284549742937	0.18703435361385	65.000000000000	0.00000000000000
25.879999160767	0.10408856719732	0.18836873769760	65.000000000000	0.00000000000000
25.889999389648	0.10533428937197	0.18969574570656	65.000000000000	0.00000000000000
25.899999618530	0.10658268630505	0.19101537764072	65.000000000000	0.00000000000000
25.909999847412	0.10783349722624	0.19232770800591	65.000000000000	0.00000000000000
25.920000076294	0.10908695310354	0.19363261759281	65.000000000000	0.00000000000000
25.930000305176	0.11034271121025	0.19493027031422	65.000000000000	0.00000000000000
25.940000534058	0.11160098761320	0.19622054696083	65.000000000000	0.00000000000000
25.950000762939	0.11286162585020	0.19750349223614	65.000000000000	0.00000000000000
25.959999084473	0.11412457376719	0.19877912104130	65.000000000000	0.00000000000000
25.969999313354	0.11538975685835	0.20004746317863	65.000000000000	0.00000000000000
25.979999542236	0.11665723472834	0.20130848884583	65.000000000000	0.00000000000000
25.989999771118	0.11792692542076	0.20256219804287	65.000000000000	0.00000000000000
26.000000000000	0.11919861286879	0.20380872488022	65.000000000000	0.00000000000000
26.010000228882	0.12047240138054	0.20504797995090	65.000000000000	0.00000000000000
26.020000457764	0.12174832820892	0.20627990365028	65.000000000000	0.00000000000000
26.030000686646	0.12302616983652	0.20750464498997	65.000000000000	0.00000000000000
26.040000915527	0.12430606037378	0.20872212946415	65.000000000000	0.00000000000000
26.049999237061	0.12558785080910	0.20993237197399	65.000000000000	0.00000000000000
26.059999465942	0.12687145173550	0.21113546192646	65.000000000000	0.00000000000000
26.069999694824	0.12815684080124	0.21233135461807	65.000000000000	0.00000000000000
26.079999923706	0.12944407761097	0.21352005004883	65.000000000000	0.00000000000000
26.090000152588	0.13073307275772	0.21470153331757	65.000000000000	0.00000000000000
26.100000381470	0.13202369213104	0.21587592363358	65.000000000000	0.00000000000000
26.110000610352	0.13331599533558	0.21704314649105	65.000000000000	0.00000000000000
26.120000839233	0.13460992276669	0.21820323169231	65.000000000000	0.00000000000000
26.129999160767	0.13590531051159	0.21935625374317	65.000000000000	0.00000000000000
26.139999389648	0.13720242679119	0.22050206363201	65.000000000000	0.00000000000000
26.149999618530	0.13850092887878	0.22164085507393	65.000000000000	0.00000000000000
26.159999847412	0.13980072736740	0.22277264297009	65.000000000000	0.00000000000000
26.170000076294	0.14110210537910	0.22389723360538	65.000000000000	0.00000000000000
26.180000305176	0.14240485429764	0.22501482069492	65.000000000000	0.00000000000000
26.190000534058	0.14370870590210	0.22612547874451	65.000000000000	0.00000000000000
26.200000762939	0.14501406252384	0.22722901403904	65.000000000000	0.00000000000000
26.209999084473	0.14632058143616	0.22832557559013	65.000000000000	0.00000000000000
26.219999313354	0.14762821793556	0.22941517829895	65.000000000000	0.00000000000000
26.229999542236	0.14893706142902	0.23049779236317	65.000000000000	0.00000000000000
26.239999771118	0.15024705231190	0.23157343268394	65.000000000000	0.00000000000000
26.250000000000	0.15155816078186	0.23264217376709	65.000000000000	0.00000000000000
26.260000228882	0.15287025272846	0.23370398581028	65.000000000000	0.00000000000000
26.270000457764	0.15418338775635	0.23475888371468	65.000000000000	0.00000000000000
26.280000686646	0.15549749135971	0.23580691218376	65.000000000000	0.00000000000000
26.290000915527	0.15681250393391	0.23684807121754	65.000000000000	0.00000000000000
26.299999237061	0.15812836587429	0.23788239061832	65.000000000000	0.00000000000000
26.309999465942	0.15944510698318	0.23890985548496	65.000000000000	0.00000000000000
26.319999694824	0.16076268255711	0.23993049561977	65.000000000000	0.00000000000000
26.329999923706	0.16208098828793	0.24094435572624	65.000000000000	0.00000000000000
26.340000152588	0.16340011358261	0.24195142090321	65.000000000000	0.00000000000000
26.350000381470	0.16471990942955	0.24295175075531	65.000000000000	0.00000000000000
26.360000610352	0.16604037582874	0.24394528567791	65.000000000000	0.00000000000000
26.370000839233	0.16736145317554	0.24493214488029	65.000000000000	0.00000000000000
26.379999160767	0.16868311166763	0.24591228365898	65.000000000000	0.00000000000000
26.389999389648	0.17000542581081	0.24688570201397	65.000000000000	0.00000000000000
26.399999618530	0.17132817208767	0.24785248935223	65.000000000000	0.00000000000000
26.409999847412	0.17265149950981	0.24881258606911	65.000000000000	0.00000000000000
26.420000076294	0.17397516965866	0.24976609647274	65.000000000000	0.00000000000000
26.430000305176	0.17529933154583	0.25071293115616	65.000000000000	0.00000000000000
26.440000534058	0.17662392556667	0.25165322422981	65.000000000000	0.00000000000000
26.450000762939	0.17794883251190	0.25258693099022	65.000000000000	0.00000000000000
26.459999084473	0.17927408218384	0.25351408123970	65.000000000000	0.00000000000000
26.469999313354	0.18059961497784	0.25443467497826	65.000000000000	0.00000000000000
26.479999542236	0.18192540109158	0.25534877181053	65.000000000000	0.00000000000000
26.489999771118	0.18325144052505	0.25625637173653	65.000000000000	0.00000000000000
26.500000000000	0.18457759916782	0.25715750455856	65.000000000000	0.00000000000000
26.510000228882	0.18590401113033	0.25805217027664	65.000000000000	0.00000000000000
26.520000457764	0.18723054230213	0.25894039869308	65.000000000000	0.00000000000000
26.530000686646	0.18855710327625	0.25982218980789	65.000000000000	0.00000000000000
26.540000915527	0.18988379836082	0.26069763302803	65.000000000000	0.00000000000000
26.549999237061	0.19121049344540	0.26156663894653	65.000000000000	0.00000000000000
26.559999465942	0.19253720343113	0.26242935657501	65.000000000000	0.00000000000000
26.569999694824	0.19386391341686	0.26328572630882	65.000000000000	0.00000000000000
26.579999923706	0.19519048929214	0.26413577795029	65.000000000000	0.00000000000000
26.590000152588	0.19651708006859	0.26497957110405	65.000000000000	0.00000000000000
26.600000381470	0.19784350693226	0.26581701636314	65.000000000000	0.00000000000000
26.610000610352	0.19916984438896	0.26664826273918	65.000000000000	0.00000000000000
26.620000839233	0.20049592852592	0.26747325062752	65.000000000000	0.00000000000000
26.629999160767	0.20182187855244	0.26829209923744	65.000000000000	0.00000000000000
26.639999389648	0.20314756035805	0.26910471916199	65.000000000000	0.00000000000000
26.649999618530	0.20447303354740	0.26991119980812	65.000000000000	0.00000000000000
26.659999847412	0.20579814910889	0.27071151137352	65.000000000000	0.00000000000000
26.670000076294	0.20712302625179	0.27150574326515	65.000000000000	0.00000000000000
26.680000305176	0.20844750106335	0.27229386568069	65.000000000000	0.00000000000000
26.690000534058	0.20977166295052	0.27307590842247	65.000000000000	0.00000000000000
26.700000762939	0.21109534800053	0.27385190129280	65.000000000000	0.00000000000000
26.709999084473	0.21241866052151	0.27462181448936	65.000000000000	0.00000000000000
26.719999313354	0.21374154090881	0.27538579702377	65.000000000000	0.00000000000000
26.729999542236	0.21506397426128	0.27614375948906	65.000000000000	0.00000000000000
26.739999771118	0.21638582646847	0.27689576148987	65.000000000000	0.00000000000000
26.750000000000	0.21770717203617	0.27764180302620	65.000000000000	0.00000000000000
26.760000228882	0.21902802586555	0.27838197350502	65.000000000000	0.00000000000000
26.770000457764	0.22034820914268	0.27911618351936	65.000000000000	0.00000000000000
26.780000686646	0.22166784107685	0.27984455227852	65.000000000000	0.00000000000000
26.790000915527	0.22298686206341	0.28056707978249	65.000000000000	0.00000000000000
26.799999237061	0.22430521249771	0.28128376603127	65.000000000000	0.00000000000000
26.809999465942	0.22562287747860	0.28199464082718	65.000000000000	0.00000000000000
26.819999694824	0.22693993151188	0.28269976377487	65.000000000000	0.00000000000000
26.829999923706	0.22825610637665	0.28339907526970	65.000000000000	0.00000000000000
26.840000152588	0.22957161068916	0.28409266471863	65.000000000000	0.00000000000000
26.850000381470	0.23088636994362	0.28478056192398	65.000000000000	0.00000000000000
26.860000610352	0.23220027983189	0.28546276688576	65.000000000000	0.00000000000000
26.870000839233	0.23351344466209	0.28613927960396	65.000000000000	0.00000000000000
26.879999160767	0.23482576012611	0.28681015968323	65.000000000000	0.00000000000000
26.889999389648	0.23613712191582	0.28747540712357	65.000000000000	0.00000000000000
26.899999618530	0.23744767904282	0.28813505172729	65.000000000000	0.00000000000000
26.909999847412	0.23875732719898	0.28878912329674	65.000000000000	0.00000000000000
26.920000076294	0.24006602168083	0.28943762183189	65.000000000000	0.00000000000000
26.930000305176	0.24137376248837	0.29008060693741	65.000000000000	0.00000000000000
26.940000534058	0.24268059432507	0.29071807861328	65.000000000000	0.00000000000000
26.950000762939	0.24398639798164	0.29135009646416	65.000000000000	0.00000000000000
26.959999084473	0.24529114365578	0.29197660088539	65.000000000000	0.00000000000000
26.969999313354	0.24659490585327	0.29259771108627	65.000000000000	0.00000000000000
26.979999542236	0.24789761006832	0.29321339726448	65.000000000000	0.00000000000000
26.989999771118	0.24919925630093	0.29382365942001	65.000000000000	0.00000000000000
27.000000000000	0.25049975514412	0.29442855715752	65.000000000000	0.00000000000000
27.010000228882	0.25179925560951	0.29502812027931	65.000000000000	0.00000000000000
27.020000457764	0.25309753417969	0.29562237858772	65.000000000000	0.00000000000000
27.030000686646	0.25439465045929	0.29621130228043	65.000000000000	0.00000000000000
27.040000915527	0.25569063425064	0.29679498076439	65.000000000000	0.00000000000000
27.049999237061	0.25698545575142	0.29737338423729	65.000000000000	0.00000000000000
27.059999465942	0.25827902555466	0.29794654250145	65.000000000000	0.00000000000000
27.069999694824	0.25957140326500	0.29851454496384	65.000000000000	0.00000000000000
27.079999923706	0.26086249947548	0.29907730221748	65.000000000000	0.00000000000000
27.090000152588	0.26215234398842	0.29963496327400	65.000000000000	0.00000000000000
27.100000381470	0.26344090700150	0.30018743872643	65.000000000000	0.00000000000000
27.110000610352	0.26472821831703	0.30073481798172	65.000000000000	0.00000000000000
27.120000839233	0.26601412892342	0.30127710103989	65.000000000000	0.00000000000000
27.129999160767	0.26729875802994	0.30181431770325	65.000000000000	0.00000000000000
27.139999389648	0.26858204603195	0.30234649777412	65.000000000000	0.00000000000000
27.149999618530	0.26986399292946	0.30287361145020	65.000000000000	0.00000000000000
27.159999847412	0.27114456892014	0.30339577794075	65.000000000000	0.00000000000000
27.170000076294	0.27242371439934	0.30391293764114	65.000000000000	0.00000000000000
27.180000305176	0.27370133996010	0.30442517995834	65.000000000000	0.00000000000000
27.190000534058	0.27497768402100	0.30493247509003	65.000000000000	0.00000000000000
27.200000762939	0.27625256776810	0.30543485283852	65.000000000000	0.00000000000000
27.209999084473	0.27752596139908	0.30593237280846	65.000000000000	0.00000000000000
27.219999313354	0.27879789471626	0.30642497539520	65.000000000000	0.00000000000000
27.229999542236	0.28006833791733	0.30691280961037	65.000000000000	0.00000000000000
27.239999771118	0.28133723139763	0.30739584565163	65.000000000000	0.00000000000000
27.250000000000	0.28260469436646	0.30787399411201	65.000000000000	0.00000000000000
27.260000228882	0.28387051820755	0.30834743380547	65.000000000000	0.00000000000000
27.270000457764	0.28513485193253	0.30881613492966	65.000000000000	0.00000000000000
27.280000686646	0.28639760613441	0.30928009748459	65.000000000000	0.00000000000000
27.290000915527	0.28765884041786	0.30973938107491	65.000000000000	0.00000000000000
27.299999237061	0.28891849517822	0.31019395589828	65.000000000000	0.00000000000000
27.309999465942	0.29017639160156	0.31064391136169	65.000000000000	0.00000000000000
27.319999694824	0.29143285751343	0.31108921766281	65.000000000000	0.00000000000000
27.329999923706	0.29268756508827	0.31152993440628	65.000000000000	0.00000000000000
27.340000152588	0.29394069314003	0.31196603178978	65.000000000000	0.00000000000000
