#Parameters = {d=0.24836683417086; l2=4.9673366834171; lambda=9.9346733668342; r=0.033469914572864}
#"Frequency / GHz"	"S1,1 (lambda=9.93467) [Re]"	"S1,1 (lambda=9.93467) [Im]"	"Ref.Imp. [Re]"	"Ref.Imp. [Im]"
#-----------------------------------------------------------------------------------------------------------
25.000000000000	0.062636144459248	-0.41983324289322	65.000000000000	0.00000000000000
25.010000228882	0.061411295086145	-0.41810452938080	65.000000000000	0.00000000000000
25.020000457764	0.060193009674549	-0.41636916995049	65.000000000000	0.00000000000000
25.030000686646	0.058981519192457	-0.41462707519531	65.000000000000	0.00000000000000
25.040000915527	0.057776879519224	-0.41287842392921	65.000000000000	0.00000000000000
25.049999237061	0.056579135358334	-0.41112318634987	65.000000000000	0.00000000000000
25.059999465942	0.055388145148754	-0.40936139225960	65.000000000000	0.00000000000000
25.069999694824	0.054204236716032	-0.40759307146072	65.000000000000	0.00000000000000
25.079999923706	0.053027357906103	-0.40581828355789	65.000000000000	0.00000000000000
25.090000152588	0.051857475191355	-0.40403711795807	65.000000000000	0.00000000000000
25.100000381470	0.050694815814495	-0.40224957466125	65.000000000000	0.00000000000000
25.110000610352	0.049539323896170	-0.40045565366745	65.000000000000	0.00000000000000
25.120000839233	0.048391051590443	-0.39865547418594	65.000000000000	0.00000000000000
25.129999160767	0.047250043600798	-0.39684900641441	65.000000000000	0.00000000000000
25.139999389648	0.046116348356009	-0.39503633975983	65.000000000000	0.00000000000000
25.149999618530	0.044990096241236	-0.39321753382683	65.000000000000	0.00000000000000
25.159999847412	0.043871331959963	-0.39139258861542	65.000000000000	0.00000000000000
25.170000076294	0.042759910225868	-0.38956159353256	65.000000000000	0.00000000000000
25.180000305176	0.041656255722046	-0.38772451877594	65.000000000000	0.00000000000000
25.190000534058	0.040559846907854	-0.38588151335716	65.000000000000	0.00000000000000
25.200000762939	0.039471287280321	-0.38403257727623	65.000000000000	0.00000000000000
25.209999084473	0.038390614092350	-0.38217771053314	65.000000000000	0.00000000000000
25.219999313354	0.037317324429750	-0.38031703233719	65.000000000000	0.00000000000000
25.229999542236	0.036251824349165	-0.37845060229301	65.000000000000	0.00000000000000
25.239999771118	0.035194512456656	-0.37657839059830	65.000000000000	0.00000000000000
25.250000000000	0.034144889563322	-0.37470048666000	65.000000000000	0.00000000000000
25.260000228882	0.033102996647358	-0.37281695008278	65.000000000000	0.00000000000000
25.270000457764	0.032069239765406	-0.37092781066895	65.000000000000	0.00000000000000
25.280000686646	0.031043298542500	-0.36903318762779	65.000000000000	0.00000000000000
25.290000915527	0.030025739222765	-0.36713302135468	65.000000000000	0.00000000000000
25.299999237061	0.029015900567174	-0.36522749066353	65.000000000000	0.00000000000000
25.309999465942	0.028014522045851	-0.36331650614738	65.000000000000	0.00000000000000
25.319999694824	0.027021294459701	-0.36140021681786	65.000000000000	0.00000000000000
25.329999923706	0.026036079972982	-0.35947865247726	65.000000000000	0.00000000000000
25.340000152588	0.025059264153242	-0.35755190253258	65.000000000000	0.00000000000000
25.350000381470	0.024090711027384	-0.35561990737915	65.000000000000	0.00000000000000
25.360000610352	0.023130802437663	-0.35368284583092	65.000000000000	0.00000000000000
25.370000839233	0.022178890183568	-0.35174074769020	65.000000000000	0.00000000000000
25.379999160767	0.021235525608063	-0.34979361295700	65.000000000000	0.00000000000000
25.389999389648	0.020300574600697	-0.34784159064293	65.000000000000	0.00000000000000
25.399999618530	0.019374236464500	-0.34588465094566	65.000000000000	0.00000000000000
25.409999847412	0.018456544727087	-0.34392282366753	65.000000000000	0.00000000000000
25.420000076294	0.017547374591231	-0.34195625782013	65.000000000000	0.00000000000000
25.430000305176	0.016646759584546	-0.33998498320580	65.000000000000	0.00000000000000
25.440000534058	0.015754731371999	-0.33800905942917	65.000000000000	0.00000000000000
25.450000762939	0.014871491119266	-0.33602848649025	65.000000000000	0.00000000000000
25.459999084473	0.013997068628669	-0.33404341340065	65.000000000000	0.00000000000000
25.469999313354	0.013131177984178	-0.33205384016037	65.000000000000	0.00000000000000
25.479999542236	0.012274327687919	-0.33005985617638	65.000000000000	0.00000000000000
25.489999771118	0.011426080018282	-0.32806146144867	65.000000000000	0.00000000000000
25.500000000000	0.010586780495942	-0.32605880498886	65.000000000000	0.00000000000000
25.510000228882	0.0097564589232206	-0.32405185699463	65.000000000000	0.00000000000000
25.520000457764	0.0089349923655391	-0.32204079627991	65.000000000000	0.00000000000000
25.530000686646	0.0081224124878645	-0.32002556324005	65.000000000000	0.00000000000000
25.540000915527	0.0073190554976463	-0.31800624728203	65.000000000000	0.00000000000000
25.549999237061	0.0065244948491454	-0.31598293781281	65.000000000000	0.00000000000000
25.559999465942	0.0057390648871660	-0.31395569443703	65.000000000000	0.00000000000000
25.569999694824	0.0049627935513854	-0.31192457675934	65.000000000000	0.00000000000000
25.579999923706	0.0041955597698689	-0.30988958477974	65.000000000000	0.00000000000000
25.590000152588	0.0034373959060758	-0.30785092711449	65.000000000000	0.00000000000000
25.600000381470	0.0026884756516665	-0.30580845475197	65.000000000000	0.00000000000000
25.610000610352	0.0019486827077344	-0.30376243591309	65.000000000000	0.00000000000000
25.620000839233	0.0012181887868792	-0.30171281099319	65.000000000000	0.00000000000000
25.629999160767	0.00049687747377902	-0.29965969920158	65.000000000000	0.00000000000000
25.639999389648	-0.00021522279712372	-0.29760316014290	65.000000000000	0.00000000000000
25.649999618530	-0.00091808405704796	-0.29554322361946	65.000000000000	0.00000000000000
25.659999847412	-0.0016113985329866	-0.29347991943359	65.000000000000	0.00000000000000
25.670000076294	-0.0022955620661378	-0.29141342639923	65.000000000000	0.00000000000000
25.680000305176	-0.0029702682513744	-0.28934374451637	65.000000000000	0.00000000000000
25.690000534058	-0.0036356307100505	-0.28727087378502	65.000000000000	0.00000000000000
25.700000762939	-0.0042916242964566	-0.28519502282143	65.000000000000	0.00000000000000
25.709999084473	-0.0049382210709155	-0.28311610221863	65.000000000000	0.00000000000000
25.719999313354	-0.0055753979831934	-0.28103429079056	65.000000000000	0.00000000000000
25.729999542236	-0.0062029953114688	-0.27894958853722	65.000000000000	0.00000000000000
25.739999771118	-0.0068211243487895	-0.27686211466789	65.000000000000	0.00000000000000
25.750000000000	-0.0074298912659287	-0.27477186918259	65.000000000000	0.00000000000000
25.760000228882	-0.0080291396006942	-0.27267897129059	65.000000000000	0.00000000000000
25.770000457764	-0.0086187170818448	-0.27058345079422	65.000000000000	0.00000000000000
25.780000686646	-0.0091988602653146	-0.26848539710045	65.000000000000	0.00000000000000
25.790000915527	-0.0097694853320718	-0.26638486981392	65.000000000000	0.00000000000000
25.799999237061	-0.010330491699278	-0.26428189873695	65.000000000000	0.00000000000000
25.809999465942	-0.010881930589676	-0.26217660307884	65.000000000000	0.00000000000000
25.819999694824	-0.011423712596297	-0.26006901264191	65.000000000000	0.00000000000000
25.829999923706	-0.011955881491303	-0.25795924663544	65.000000000000	0.00000000000000
25.840000152588	-0.012478474527597	-0.25584730505943	65.000000000000	0.00000000000000
25.850000381470	-0.012991406954825	-0.25373327732086	65.000000000000	0.00000000000000
25.860000610352	-0.013494600541890	-0.25161722302437	65.000000000000	0.00000000000000
25.870000839233	-0.013988271355629	-0.24949923157692	65.000000000000	0.00000000000000
25.879999160767	-0.014472219161689	-0.24737936258316	65.000000000000	0.00000000000000
25.889999389648	-0.014946481212974	-0.24525766074657	65.000000000000	0.00000000000000
25.899999618530	-0.015411095693707	-0.24313418567181	65.000000000000	0.00000000000000
25.909999847412	-0.015865923836827	-0.24100905656815	65.000000000000	0.00000000000000
25.920000076294	-0.016311116516590	-0.23888227343559	65.000000000000	0.00000000000000
25.930000305176	-0.016746599227190	-0.23675395548344	65.000000000000	0.00000000000000
25.940000534058	-0.017172290012240	-0.23462411761284	65.000000000000	0.00000000000000
25.950000762939	-0.017588393762708	-0.23249287903309	65.000000000000	0.00000000000000
25.959999084473	-0.017994664609432	-0.23036028444767	65.000000000000	0.00000000000000
25.969999313354	-0.018391249701381	-0.22822636365891	65.000000000000	0.00000000000000
25.979999542236	-0.018778072670102	-0.22609125077724	65.000000000000	0.00000000000000
25.989999771118	-0.019155163317919	-0.22395496070385	65.000000000000	0.00000000000000
26.000000000000	-0.019522557035089	-0.22181755304337	65.000000000000	0.00000000000000
26.010000228882	-0.019880175590515	-0.21967914700508	65.000000000000	0.00000000000000
26.020000457764	-0.020228050649166	-0.21753975749016	65.000000000000	0.00000000000000
26.030000686646	-0.020566163584590	-0.21539947390556	65.000000000000	0.00000000000000
26.040000915527	-0.020894540473819	-0.21325835585594	65.000000000000	0.00000000000000
26.049999237061	-0.021213158965111	-0.21111646294594	65.000000000000	0.00000000000000
26.059999465942	-0.021522048860788	-0.20897386968136	65.000000000000	0.00000000000000
26.069999694824	-0.021821185946465	-0.20683063566685	65.000000000000	0.00000000000000
26.079999923706	-0.022110596299171	-0.20468682050705	65.000000000000	0.00000000000000
26.090000152588	-0.022390257567167	-0.20254251360893	65.000000000000	0.00000000000000
26.100000381470	-0.022660188376904	-0.20039772987366	65.000000000000	0.00000000000000
26.110000610352	-0.022920371964574	-0.19825260341167	65.000000000000	0.00000000000000
26.120000839233	-0.023170825093985	-0.19610713422298	65.000000000000	0.00000000000000
26.129999160767	-0.023411570116878	-0.19396144151688	65.000000000000	0.00000000000000
26.139999389648	-0.023642629384995	-0.19181554019451	65.000000000000	0.00000000000000
26.149999618530	-0.023863928392529	-0.18966953456402	65.000000000000	0.00000000000000
26.159999847412	-0.024075530469418	-0.18752345442772	65.000000000000	0.00000000000000
26.170000076294	-0.024277407675982	-0.18537740409374	65.000000000000	0.00000000000000
26.180000305176	-0.024469623342156	-0.18323139846325	65.000000000000	0.00000000000000
26.190000534058	-0.024652184918523	-0.18108552694321	65.000000000000	0.00000000000000
26.200000762939	-0.024825023487210	-0.17893986403942	65.000000000000	0.00000000000000
26.209999084473	-0.024988189339638	-0.17679443955421	65.000000000000	0.00000000000000
26.219999313354	-0.025141736492515	-0.17464937269688	65.000000000000	0.00000000000000
26.229999542236	-0.025285631418228	-0.17250467836857	65.000000000000	0.00000000000000
26.239999771118	-0.025419877842069	-0.17036043107510	65.000000000000	0.00000000000000
26.250000000000	-0.025544483214617	-0.16821667551994	65.000000000000	0.00000000000000
26.260000228882	-0.025659529492259	-0.16607351601124	65.000000000000	0.00000000000000
26.270000457764	-0.025764938443899	-0.16393096745014	65.000000000000	0.00000000000000
26.280000686646	-0.025860784575343	-0.16178914904594	65.000000000000	0.00000000000000
26.290000915527	-0.025947028771043	-0.15964807569981	65.000000000000	0.00000000000000
26.299999237061	-0.026023739948869	-0.15750782191753	65.000000000000	0.00000000000000
26.309999465942	-0.026090910658240	-0.15536844730377	65.000000000000	0.00000000000000
26.319999694824	-0.026148494333029	-0.15323002636433	65.000000000000	0.00000000000000
26.329999923706	-0.026196619495749	-0.15109260380268	65.000000000000	0.00000000000000
26.340000152588	-0.026235206052661	-0.14895625412464	65.000000000000	0.00000000000000
26.350000381470	-0.026264335960150	-0.14682099223137	65.000000000000	0.00000000000000
26.360000610352	-0.026284024119377	-0.14468695223331	65.000000000000	0.00000000000000
26.370000839233	-0.026294205337763	-0.14255414903164	65.000000000000	0.00000000000000
26.379999160767	-0.026294995099306	-0.14042264223099	65.000000000000	0.00000000000000
26.389999389648	-0.026286361739039	-0.13829252123833	65.000000000000	0.00000000000000
26.399999618530	-0.026268329471350	-0.13616380095482	65.000000000000	0.00000000000000
26.409999847412	-0.026240926235914	-0.13403657078743	65.000000000000	0.00000000000000
26.420000076294	-0.026204140856862	-0.13191089034081	65.000000000000	0.00000000000000
26.430000305176	-0.026158049702644	-0.12978680431843	65.000000000000	0.00000000000000
26.440000534058	-0.026102660223842	-0.12766435742378	65.000000000000	0.00000000000000
26.450000762939	-0.026037944480777	-0.12554363906384	65.000000000000	0.00000000000000
26.459999084473	-0.025963960215449	-0.12342469394207	65.000000000000	0.00000000000000
26.469999313354	-0.025880752131343	-0.12130756676197	65.000000000000	0.00000000000000
26.479999542236	-0.025788249447942	-0.11919234693050	65.000000000000	0.00000000000000
26.489999771118	-0.025686623528600	-0.11707904934883	65.000000000000	0.00000000000000
26.500000000000	-0.025575755164027	-0.11496775597334	65.000000000000	0.00000000000000
26.510000228882	-0.025455744937062	-0.11285852640867	65.000000000000	0.00000000000000
26.520000457764	-0.025326620787382	-0.11075139790773	65.000000000000	0.00000000000000
26.530000686646	-0.025188347324729	-0.10864644497633	65.000000000000	0.00000000000000
26.540000915527	-0.025041036307812	-0.10654370486736	65.000000000000	0.00000000000000
26.549999237061	-0.024884633719921	-0.10444325208664	65.000000000000	0.00000000000000
26.559999465942	-0.024719173088670	-0.10234512388706	65.000000000000	0.00000000000000
26.569999694824	-0.024544766172767	-0.10024937987328	65.000000000000	0.00000000000000
26.579999923706	-0.024361319839954	-0.098156079649925	65.000000000000	0.00000000000000
26.590000152588	-0.024168917909265	-0.096065267920494	65.000000000000	0.00000000000000
26.600000381470	-0.023967616260052	-0.093977004289627	65.000000000000	0.00000000000000
26.610000610352	-0.023757407441735	-0.091891333460808	65.000000000000	0.00000000000000
26.620000839233	-0.023538356646895	-0.089808322489262	65.000000000000	0.00000000000000
26.629999160767	-0.023310404270887	-0.087728016078472	65.000000000000	0.00000000000000
26.639999389648	-0.023073658347130	-0.085650451481342	65.000000000000	0.00000000000000
26.649999618530	-0.022828130051494	-0.083575695753098	65.000000000000	0.00000000000000
26.659999847412	-0.022573838010430	-0.081503808498383	65.000000000000	0.00000000000000
26.670000076294	-0.022310815751553	-0.079434826970100	65.000000000000	0.00000000000000
26.680000305176	-0.022039107978344	-0.077368803322315	65.000000000000	0.00000000000000
26.690000534058	-0.021758724004030	-0.075305797159672	65.000000000000	0.00000000000000
26.700000762939	-0.021469723433256	-0.073245838284492	65.000000000000	0.00000000000000
26.709999084473	-0.021172083914280	-0.071188993752003	65.000000000000	0.00000000000000
26.719999313354	-0.020865881815553	-0.069135315716267	65.000000000000	0.00000000000000
26.729999542236	-0.020551143214107	-0.067084826529026	65.000000000000	0.00000000000000
26.739999771118	-0.020227903500199	-0.065037600696087	65.000000000000	0.00000000000000
26.750000000000	-0.019896183162928	-0.062993675470352	65.000000000000	0.00000000000000
26.760000228882	-0.019556000828743	-0.060953106731176	65.000000000000	0.00000000000000
26.770000457764	-0.019207414239645	-0.058915931731462	65.000000000000	0.00000000000000
26.780000686646	-0.018850462511182	-0.056882202625275	65.000000000000	0.00000000000000
26.790000915527	-0.018485153093934	-0.054851964116096	65.000000000000	0.00000000000000
26.799999237061	-0.018111545592546	-0.052825268357992	65.000000000000	0.00000000000000
26.809999465942	-0.017729658633471	-0.050802152603865	65.000000000000	0.00000000000000
26.819999694824	-0.017339512705803	-0.048782669007778	65.000000000000	0.00000000000000
26.829999923706	-0.016941187903285	-0.046766851097345	65.000000000000	0.00000000000000
26.840000152588	-0.016534667462111	-0.044754758477211	65.000000000000	0.00000000000000
26.850000381470	-0.016120020300150	-0.042746424674988	65.000000000000	0.00000000000000
26.860000610352	-0.015697274357080	-0.040741905570030	65.000000000000	0.00000000000000
26.870000839233	-0.015266470611095	-0.038741230964661	65.000000000000	0.00000000000000
26.879999160767	-0.014827628619969	-0.036744449287653	65.000000000000	0.00000000000000
26.889999389648	-0.014380787499249	-0.034751608967781	65.000000000000	0.00000000000000
26.899999618530	-0.013926006853580	-0.032762739807367	65.000000000000	0.00000000000000
26.909999847412	-0.013463305309415	-0.030777897685766	65.000000000000	0.00000000000000
26.920000076294	-0.012992712669075	-0.028797117993236	65.000000000000	0.00000000000000
26.930000305176	-0.012514291331172	-0.026820439845324	65.000000000000	0.00000000000000
26.940000534058	-0.012028055265546	-0.024847904220223	65.000000000000	0.00000000000000
26.950000762939	-0.011534060351551	-0.022879557684064	65.000000000000	0.00000000000000
26.959999084473	-0.011032319627702	-0.020915433764458	65.000000000000	0.00000000000000
26.969999313354	-0.010522903874516	-0.018955575302243	65.000000000000	0.00000000000000
26.979999542236	-0.010005823336542	-0.017000021412969	65.000000000000	0.00000000000000
26.989999771118	-0.0094811376184225	-0.015048810280859	65.000000000000	0.00000000000000
27.000000000000	-0.0089488755911589	-0.013101980090141	65.000000000000	0.00000000000000
27.010000228882	-0.0084090735763311	-0.011159571819007	65.000000000000	0.00000000000000
27.020000457764	-0.0078617818653584	-0.0092216162011027	65.000000000000	0.00000000000000
27.030000686646	-0.0073070316575468	-0.0072881565429270	65.000000000000	0.00000000000000
27.040000915527	-0.0067448643967509	-0.0053592296317220	65.000000000000	0.00000000000000
27.049999237061	-0.0061753191985190	-0.0034348696935922	65.000000000000	0.00000000000000
27.059999465942	-0.0055984393693507	-0.0015151121187955	65.000000000000	0.00000000000000
27.069999694824	-0.0050142626278102	0.00040000423905440	65.000000000000	0.00000000000000
27.079999923706	-0.0044228304177523	0.0023104464635253	65.000000000000	0.00000000000000
27.090000152588	-0.0038241832517087	0.0042161797173321	65.000000000000	0.00000000000000
27.100000381470	-0.0032183649018407	0.0061171664856374	65.000000000000	0.00000000000000
27.110000610352	-0.0026054123882204	0.0080133760347962	65.000000000000	0.00000000000000
27.120000839233	-0.0019853669218719	0.0099047739058733	65.000000000000	0.00000000000000
27.129999160767	-0.0013582727406174	0.011791324242949	65.000000000000	0.00000000000000
27.139999389648	-0.00072416890179738	0.013672998175025	65.000000000000	0.00000000000000
27.149999618530	-8.3095030277036e-05	0.015549761243165	65.000000000000	0.00000000000000
27.159999847412	0.00056489871349186	0.017421578988433	65.000000000000	0.00000000000000
27.170000076294	0.0012197796022519	0.019288424402475	65.000000000000	0.00000000000000
27.180000305176	0.0018814919749275	0.021150264889002	65.000000000000	0.00000000000000
27.190000534058	0.0025500138290226	0.023007065057755	65.000000000000	0.00000000000000
27.200000762939	0.0032252916134894	0.024858802556992	65.000000000000	0.00000000000000
27.209999084473	0.0039072819054127	0.026705438271165	65.000000000000	0.00000000000000
27.219999313354	0.0045959413982928	0.028546947985888	65.000000000000	0.00000000000000
27.229999542236	0.0052912323735654	0.030383300036192	65.000000000000	0.00000000000000
27.239999771118	0.0059931101277471	0.032214470207691	65.000000000000	0.00000000000000
27.250000000000	0.0067015248350799	0.034040424972773	65.000000000000	0.00000000000000
27.260000228882	0.0074164532124996	0.035861138254404	65.000000000000	0.00000000000000
27.270000457764	0.0081378296017647	0.037676576524973	65.000000000000	0.00000000000000
