#Parameters = {d=0.23831658291457; l2=4.7663316582914; lambda=9.5326633165829; r=0.032115542713568}
#"Frequency / GHz"	"S1,1 (lambda=9.53266) [Re]"	"S1,1 (lambda=9.53266) [Im]"	"Ref.Imp. [Re]"	"Ref.Imp. [Im]"
#-----------------------------------------------------------------------------------------------------------
25.000000000000	0.20925895869732	-0.55664312839508	65.000000000000	0.00000000000000
25.010000228882	0.20770630240440	-0.55570054054260	65.000000000000	0.00000000000000
25.020000457764	0.20615479350090	-0.55475103855133	65.000000000000	0.00000000000000
25.030000686646	0.20460438728333	-0.55379468202591	65.000000000000	0.00000000000000
25.040000915527	0.20305517315865	-0.55283141136169	65.000000000000	0.00000000000000
25.049999237061	0.20150731503963	-0.55186128616333	65.000000000000	0.00000000000000
25.059999465942	0.19996069371700	-0.55088418722153	65.000000000000	0.00000000000000
25.069999694824	0.19841535389423	-0.54990011453629	65.000000000000	0.00000000000000
25.079999923706	0.19687132537365	-0.54890912771225	65.000000000000	0.00000000000000
25.090000152588	0.19532868266106	-0.54791122674942	65.000000000000	0.00000000000000
25.100000381470	0.19378758966923	-0.54690623283386	65.000000000000	0.00000000000000
25.110000610352	0.19224792718887	-0.54589432477951	65.000000000000	0.00000000000000
25.120000839233	0.19070987403393	-0.54487532377243	65.000000000000	0.00000000000000
25.129999160767	0.18917320668697	-0.54384934902191	65.000000000000	0.00000000000000
25.139999389648	0.18763837218285	-0.54281628131866	65.000000000000	0.00000000000000
25.149999618530	0.18610501289368	-0.54177618026733	65.000000000000	0.00000000000000
25.159999847412	0.18457356095314	-0.54072904586792	65.000000000000	0.00000000000000
25.170000076294	0.18304364383221	-0.53967469930649	65.000000000000	0.00000000000000
25.180000305176	0.18151558935642	-0.53861337900162	65.000000000000	0.00000000000000
25.190000534058	0.17998941242695	-0.53754490613937	65.000000000000	0.00000000000000
25.200000762939	0.17846505343914	-0.53646934032440	65.000000000000	0.00000000000000
25.209999084473	0.17694266140461	-0.53538656234741	65.000000000000	0.00000000000000
25.219999313354	0.17542228102684	-0.53429675102234	65.000000000000	0.00000000000000
25.229999542236	0.17390386760235	-0.53319978713989	65.000000000000	0.00000000000000
25.239999771118	0.17238791286945	-0.53209555149078	65.000000000000	0.00000000000000
25.250000000000	0.17087370157242	-0.53098416328430	65.000000000000	0.00000000000000
25.260000228882	0.16936154663563	-0.52986568212509	65.000000000000	0.00000000000000
25.270000457764	0.16785176098347	-0.52873998880386	65.000000000000	0.00000000000000
25.280000686646	0.16634435951710	-0.52760702371597	65.000000000000	0.00000000000000
25.290000915527	0.16483940184116	-0.52646678686142	65.000000000000	0.00000000000000
25.299999237061	0.16333641111851	-0.52531951665878	65.000000000000	0.00000000000000
25.309999465942	0.16183620691299	-0.52416491508484	65.000000000000	0.00000000000000
25.319999694824	0.16033804416656	-0.52300322055817	65.000000000000	0.00000000000000
25.329999923706	0.15884277224541	-0.52183425426483	65.000000000000	0.00000000000000
25.340000152588	0.15734986960888	-0.52065801620483	65.000000000000	0.00000000000000
25.350000381470	0.15585969388485	-0.51947456598282	65.000000000000	0.00000000000000
25.360000610352	0.15437197685242	-0.51828390359879	65.000000000000	0.00000000000000
25.370000839233	0.15288731455803	-0.51708590984344	65.000000000000	0.00000000000000
25.379999160767	0.15140521526337	-0.51588076353073	65.000000000000	0.00000000000000
25.389999389648	0.14992599189281	-0.51466834545135	65.000000000000	0.00000000000000
25.399999618530	0.14844945073128	-0.51344865560532	65.000000000000	0.00000000000000
25.409999847412	0.14697585999966	-0.51222181320190	65.000000000000	0.00000000000000
25.420000076294	0.14550574123859	-0.51098752021790	65.000000000000	0.00000000000000
25.430000305176	0.14403796195984	-0.50974625349045	65.000000000000	0.00000000000000
25.440000534058	0.14257352054119	-0.50849759578705	65.000000000000	0.00000000000000
25.450000762939	0.14111246168613	-0.50724160671234	65.000000000000	0.00000000000000
25.459999084473	0.13965456187725	-0.50597840547562	65.000000000000	0.00000000000000
25.469999313354	0.13819967210293	-0.50470805168152	65.000000000000	0.00000000000000
25.479999542236	0.13674804568291	-0.50343048572540	65.000000000000	0.00000000000000
25.489999771118	0.13529974222183	-0.50214564800262	65.000000000000	0.00000000000000
25.500000000000	0.13385502994061	-0.50085353851318	65.000000000000	0.00000000000000
25.510000228882	0.13241373002529	-0.49955415725708	65.000000000000	0.00000000000000
25.520000457764	0.13097566366196	-0.49824765324593	65.000000000000	0.00000000000000
25.530000686646	0.12954156100750	-0.49693390727043	65.000000000000	0.00000000000000
25.540000915527	0.12811098992825	-0.49561285972595	65.000000000000	0.00000000000000
25.549999237061	0.12668380141258	-0.49428474903107	65.000000000000	0.00000000000000
25.559999465942	0.12526071071625	-0.49294930696487	65.000000000000	0.00000000000000
25.569999694824	0.12384106218815	-0.49160677194595	65.000000000000	0.00000000000000
25.579999923706	0.12242514640093	-0.49025708436966	65.000000000000	0.00000000000000
25.590000152588	0.12101324647665	-0.48890021443367	65.000000000000	0.00000000000000
25.600000381470	0.11960539966822	-0.48753613233566	65.000000000000	0.00000000000000
25.610000610352	0.11820141226053	-0.48616495728493	65.000000000000	0.00000000000000
25.620000839233	0.11680157482624	-0.48478654026985	65.000000000000	0.00000000000000
25.629999160767	0.11540569365025	-0.48340108990669	65.000000000000	0.00000000000000
25.639999389648	0.11401405185461	-0.48200848698616	65.000000000000	0.00000000000000
25.649999618530	0.11262646317482	-0.48060882091522	65.000000000000	0.00000000000000
25.659999847412	0.11124342679977	-0.47920197248459	65.000000000000	0.00000000000000
25.670000076294	0.10986453294754	-0.47778812050819	65.000000000000	0.00000000000000
25.680000305176	0.10849006474018	-0.47636720538139	65.000000000000	0.00000000000000
25.690000534058	0.10711982846260	-0.47493919730186	65.000000000000	0.00000000000000
25.700000762939	0.10575409978628	-0.47350418567657	65.000000000000	0.00000000000000
25.709999084473	0.10439292341471	-0.47206223011017	65.000000000000	0.00000000000000
25.719999313354	0.10303656756878	-0.47061312198639	65.000000000000	0.00000000000000
25.729999542236	0.10168442130089	-0.46915718913078	65.000000000000	0.00000000000000
25.739999771118	0.10033694654703	-0.46769422292709	65.000000000000	0.00000000000000
25.750000000000	0.098994441330433	-0.46622428297997	65.000000000000	0.00000000000000
25.760000228882	0.097656719386578	-0.46474745869637	65.000000000000	0.00000000000000
25.770000457764	0.096323825418949	-0.46326369047165	65.000000000000	0.00000000000000
25.780000686646	0.094995789229870	-0.46177303791046	65.000000000000	0.00000000000000
25.790000915527	0.093672551214695	-0.46027550101280	65.000000000000	0.00000000000000
25.799999237061	0.092354513704777	-0.45877116918564	65.000000000000	0.00000000000000
25.809999465942	0.091041363775730	-0.45725995302200	65.000000000000	0.00000000000000
25.819999694824	0.089733488857746	-0.45574194192886	65.000000000000	0.00000000000000
25.829999923706	0.088430702686310	-0.45421722531319	65.000000000000	0.00000000000000
25.840000152588	0.087133057415485	-0.45268565416336	65.000000000000	0.00000000000000
25.850000381470	0.085840709507465	-0.45114743709564	65.000000000000	0.00000000000000
25.860000610352	0.084553703665733	-0.44960245490074	65.000000000000	0.00000000000000
25.870000839233	0.083272062242031	-0.44805079698563	65.000000000000	0.00000000000000
25.879999160767	0.081995852291584	-0.44649246335030	65.000000000000	0.00000000000000
25.889999389648	0.080725006759167	-0.44492754340172	65.000000000000	0.00000000000000
25.899999618530	0.079459778964520	-0.44335594773293	65.000000000000	0.00000000000000
25.909999847412	0.078200004994869	-0.44177779555321	65.000000000000	0.00000000000000
25.920000076294	0.076945930719376	-0.44019311666489	65.000000000000	0.00000000000000
25.930000305176	0.075697496533394	-0.43860188126564	65.000000000000	0.00000000000000
25.940000534058	0.074454858899117	-0.43700417876244	65.000000000000	0.00000000000000
25.950000762939	0.073217839002609	-0.43539997935295	65.000000000000	0.00000000000000
25.959999084473	0.071986697614193	-0.43378937244415	65.000000000000	0.00000000000000
25.969999313354	0.070761471986771	-0.43217232823372	65.000000000000	0.00000000000000
25.979999542236	0.069542095065117	-0.43054890632629	65.000000000000	0.00000000000000
25.989999771118	0.068328835070133	-0.42891910672188	65.000000000000	0.00000000000000
26.000000000000	0.067121312022209	-0.42728307843208	65.000000000000	0.00000000000000
26.010000228882	0.065920069813728	-0.42564070224762	65.000000000000	0.00000000000000
26.020000457764	0.064724959433079	-0.42399206757545	65.000000000000	0.00000000000000
26.030000686646	0.063535816967487	-0.42233729362488	65.000000000000	0.00000000000000
26.040000915527	0.062353085726500	-0.42067626118660	65.000000000000	0.00000000000000
26.049999237061	0.061176400631666	-0.41900908946991	65.000000000000	0.00000000000000
26.059999465942	0.060006208717823	-0.41733577847481	65.000000000000	0.00000000000000
26.069999694824	0.058842249214649	-0.41565644741058	65.000000000000	0.00000000000000
26.079999923706	0.057684760540724	-0.41397103667259	65.000000000000	0.00000000000000
26.090000152588	0.056533690541983	-0.41227963566780	65.000000000000	0.00000000000000
26.100000381470	0.055389165878296	-0.41058224439621	65.000000000000	0.00000000000000
26.110000610352	0.054251030087471	-0.40887889266014	65.000000000000	0.00000000000000
26.120000839233	0.053119536489248	-0.40716969966888	65.000000000000	0.00000000000000
26.129999160767	0.051994703710079	-0.40545460581779	65.000000000000	0.00000000000000
26.139999389648	0.050876580178738	-0.40373370051384	65.000000000000	0.00000000000000
26.149999618530	0.049765005707741	-0.40200698375702	65.000000000000	0.00000000000000
26.159999847412	0.048660319298506	-0.40027460455894	65.000000000000	0.00000000000000
26.170000076294	0.047562357038260	-0.39853641390800	65.000000000000	0.00000000000000
26.180000305176	0.046471346169710	-0.39679259061813	65.000000000000	0.00000000000000
26.190000534058	0.045387145131826	-0.39504316449165	65.000000000000	0.00000000000000
26.200000762939	0.044309873133898	-0.39328813552856	65.000000000000	0.00000000000000
26.209999084473	0.043239578604698	-0.39152756333351	65.000000000000	0.00000000000000
26.219999313354	0.042176295071840	-0.38976150751114	65.000000000000	0.00000000000000
26.229999542236	0.041120052337646	-0.38798996806145	65.000000000000	0.00000000000000
26.239999771118	0.040070988237858	-0.38621300458908	65.000000000000	0.00000000000000
26.250000000000	0.039028953760862	-0.38443070650101	65.000000000000	0.00000000000000
26.260000228882	0.037994161248207	-0.38264304399490	65.000000000000	0.00000000000000
26.270000457764	0.036966655403376	-0.38085007667542	65.000000000000	0.00000000000000
26.280000686646	0.035946283489466	-0.37905192375183	65.000000000000	0.00000000000000
26.290000915527	0.034933261573315	-0.37724852561951	65.000000000000	0.00000000000000
26.299999237061	0.033927623182535	-0.37543994188309	65.000000000000	0.00000000000000
26.309999465942	0.032929226756096	-0.37362632155418	65.000000000000	0.00000000000000
26.319999694824	0.031938288360834	-0.37180760502815	65.000000000000	0.00000000000000
26.329999923706	0.030954923480749	-0.36998382210732	65.000000000000	0.00000000000000
26.340000152588	0.029978903010488	-0.36815512180328	65.000000000000	0.00000000000000
26.350000381470	0.029010526835918	-0.36632150411606	65.000000000000	0.00000000000000
26.360000610352	0.028049647808075	-0.36448290944099	65.000000000000	0.00000000000000
26.370000839233	0.027096390724182	-0.36263957619667	65.000000000000	0.00000000000000
26.379999160767	0.026150694116950	-0.36079144477844	65.000000000000	0.00000000000000
26.389999389648	0.025212684646249	-0.35893857479095	65.000000000000	0.00000000000000
26.399999618530	0.024282392114401	-0.35708096623421	65.000000000000	0.00000000000000
26.409999847412	0.023359844461083	-0.35521873831749	65.000000000000	0.00000000000000
26.420000076294	0.022445077076554	-0.35335195064545	65.000000000000	0.00000000000000
26.430000305176	0.021538117900491	-0.35148057341576	65.000000000000	0.00000000000000
26.440000534058	0.020638996735215	-0.34960475564003	65.000000000000	0.00000000000000
26.450000762939	0.019747661426663	-0.34772446751595	65.000000000000	0.00000000000000
26.459999084473	0.018864311277866	-0.34583976864815	65.000000000000	0.00000000000000
26.469999313354	0.017988888546824	-0.34395071864128	65.000000000000	0.00000000000000
26.479999542236	0.017121424898505	-0.34205740690231	65.000000000000	0.00000000000000
26.489999771118	0.016261948272586	-0.34015983343124	65.000000000000	0.00000000000000
26.500000000000	0.015410488471389	-0.33825805783272	65.000000000000	0.00000000000000
26.510000228882	0.014567073434591	-0.33635216951370	65.000000000000	0.00000000000000
26.520000457764	0.013731812126935	-0.33444216847420	65.000000000000	0.00000000000000
26.530000686646	0.012904570437968	-0.33252811431885	65.000000000000	0.00000000000000
26.540000915527	0.012085461057723	-0.33061009645462	65.000000000000	0.00000000000000
26.549999237061	0.011274584569037	-0.32868814468384	65.000000000000	0.00000000000000
26.559999465942	0.010471889749169	-0.32676231861115	65.000000000000	0.00000000000000
26.569999694824	0.0096774045377970	-0.32483264803886	65.000000000000	0.00000000000000
26.579999923706	0.0088911559432745	-0.32289919257164	65.000000000000	0.00000000000000
26.590000152588	0.0081132473424077	-0.32096204161644	65.000000000000	0.00000000000000
26.600000381470	0.0073436247184873	-0.31902119517326	65.000000000000	0.00000000000000
26.610000610352	0.0065822401084006	-0.31707674264908	65.000000000000	0.00000000000000
26.620000839233	0.0058291945606470	-0.31512871384621	65.000000000000	0.00000000000000
26.629999160767	0.0050845877267420	-0.31317719817162	65.000000000000	0.00000000000000
26.639999389648	0.0043483693152666	-0.31122222542763	65.000000000000	0.00000000000000
26.649999618530	0.0036206371150911	-0.30926382541656	65.000000000000	0.00000000000000
26.659999847412	0.0029013406019658	-0.30730211734772	65.000000000000	0.00000000000000
26.670000076294	0.0021904308814555	-0.30533707141876	65.000000000000	0.00000000000000
26.680000305176	0.0014880050439388	-0.30336883664131	65.000000000000	0.00000000000000
26.690000534058	0.00079408643068746	-0.30139741301537	65.000000000000	0.00000000000000
26.700000762939	0.00010876909072977	-0.29942283034325	65.000000000000	0.00000000000000
26.709999084473	-0.00056799664162099	-0.29744520783424	65.000000000000	0.00000000000000
26.719999313354	-0.0012362590059638	-0.29546454548836	65.000000000000	0.00000000000000
26.729999542236	-0.0018959247972816	-0.29348096251488	65.000000000000	0.00000000000000
26.739999771118	-0.0025469723623246	-0.29149442911148	65.000000000000	0.00000000000000
26.750000000000	-0.0031893800478429	-0.28950509428978	65.000000000000	0.00000000000000
26.760000228882	-0.0038231960497797	-0.28751295804977	65.000000000000	0.00000000000000
26.770000457764	-0.0044483295641840	-0.28551802039146	65.000000000000	0.00000000000000
26.780000686646	-0.0050646937452257	-0.28352046012878	65.000000000000	0.00000000000000
26.790000915527	-0.0056724706664681	-0.28152027726173	65.000000000000	0.00000000000000
26.799999237061	-0.0062715043313801	-0.27951750159264	65.000000000000	0.00000000000000
26.809999465942	-0.0068619083613157	-0.27751222252846	65.000000000000	0.00000000000000
26.819999694824	-0.0074434638954699	-0.27550449967384	65.000000000000	0.00000000000000
26.829999923706	-0.0080162826925516	-0.27349433302879	65.000000000000	0.00000000000000
26.840000152588	-0.0085803465917706	-0.27148187160492	65.000000000000	0.00000000000000
26.850000381470	-0.0091356355696917	-0.26946711540222	65.000000000000	0.00000000000000
26.860000610352	-0.0096821943297982	-0.26745012402534	65.000000000000	0.00000000000000
26.870000839233	-0.010219876654446	-0.26543098688126	65.000000000000	0.00000000000000
26.879999160767	-0.010748727247119	-0.26340973377228	65.000000000000	0.00000000000000
26.889999389648	-0.011268792673945	-0.26138639450073	65.000000000000	0.00000000000000
26.899999618530	-0.011779988184571	-0.25936105847359	65.000000000000	0.00000000000000
26.909999847412	-0.012282360345125	-0.25733381509781	65.000000000000	0.00000000000000
26.920000076294	-0.012775890529156	-0.25530463457108	65.000000000000	0.00000000000000
26.930000305176	-0.013260559178889	-0.25327366590500	65.000000000000	0.00000000000000
26.940000534058	-0.013736348599195	-0.25124087929726	65.000000000000	0.00000000000000
26.950000762939	-0.014203242026269	-0.24920640885830	65.000000000000	0.00000000000000
26.959999084473	-0.014661223627627	-0.24717029929161	65.000000000000	0.00000000000000
26.969999313354	-0.015110332518816	-0.24513256549835	65.000000000000	0.00000000000000
26.979999542236	-0.015550494194031	-0.24309329688549	65.000000000000	0.00000000000000
26.989999771118	-0.015981808304787	-0.24105256795883	65.000000000000	0.00000000000000
27.000000000000	-0.016404137015343	-0.23901036381721	65.000000000000	0.00000000000000
27.010000228882	-0.016817584633827	-0.23696680366993	65.000000000000	0.00000000000000
27.020000457764	-0.017222130671144	-0.23492196202278	65.000000000000	0.00000000000000
27.030000686646	-0.017617698758841	-0.23287582397461	65.000000000000	0.00000000000000
27.040000915527	-0.018004329875112	-0.23082849383354	65.000000000000	0.00000000000000
27.049999237061	-0.018382066860795	-0.22878006100655	65.000000000000	0.00000000000000
27.059999465942	-0.018750829622149	-0.22673049569130	65.000000000000	0.00000000000000
27.069999694824	-0.019110659137368	-0.22467993199825	65.000000000000	0.00000000000000
27.079999923706	-0.019461484625936	-0.22262838482857	65.000000000000	0.00000000000000
27.090000152588	-0.019803445786238	-0.22057591378689	65.000000000000	0.00000000000000
27.100000381470	-0.020136423408985	-0.21852259337902	65.000000000000	0.00000000000000
27.110000610352	-0.020460449159145	-0.21646849811077	65.000000000000	0.00000000000000
27.120000839233	-0.020775560289621	-0.21441362798214	65.000000000000	0.00000000000000
27.129999160767	-0.021081630140543	-0.21235808730125	65.000000000000	0.00000000000000
27.139999389648	-0.021378850564361	-0.21030192077160	65.000000000000	0.00000000000000
27.149999618530	-0.021667096763849	-0.20824515819550	65.000000000000	0.00000000000000
27.159999847412	-0.021946357563138	-0.20618791878223	65.000000000000	0.00000000000000
27.170000076294	-0.022216703742743	-0.20413017272949	65.000000000000	0.00000000000000
27.180000305176	-0.022478124126792	-0.20207206904888	65.000000000000	0.00000000000000
27.190000534058	-0.022730592638254	-0.20001359283924	65.000000000000	0.00000000000000
27.200000762939	-0.022974094375968	-0.19795483350754	65.000000000000	0.00000000000000
27.209999084473	-0.023208750411868	-0.19589583575726	65.000000000000	0.00000000000000
27.219999313354	-0.023434443399310	-0.19383667409420	65.000000000000	0.00000000000000
27.229999542236	-0.023651199415326	-0.19177737832069	65.000000000000	0.00000000000000
27.239999771118	-0.023859046399593	-0.18971800804138	65.000000000000	0.00000000000000
27.250000000000	-0.024057960137725	-0.18765862286091	65.000000000000	0.00000000000000
27.260000228882	-0.024248007684946	-0.18559931218624	65.000000000000	0.00000000000000
27.270000457764	-0.024429164826870	-0.18354007601738	65.000000000000	0.00000000000000
27.280000686646	-0.024601409211755	-0.18148100376129	65.000000000000	0.00000000000000
27.290000915527	-0.024764800444245	-0.17942212522030	65.000000000000	0.00000000000000
27.299999237061	-0.024919319897890	-0.17736354470253	65.000000000000	0.00000000000000
