#Parameters = {d=0.22324120603015; l2=4.464824120603; lambda=8.929648241206; r=0.030083984924623}
#"Frequency / GHz"	"S1,1 (lambda=8.92965) [Re]"	"S1,1 (lambda=8.92965) [Im]"	"Ref.Imp. [Re]"	"Ref.Imp. [Im]"
#-----------------------------------------------------------------------------------------------------------
25.000000000000	0.45086109638214	-0.62947332859039	65.000000000000	0.00000000000000
25.010000228882	0.44952240586281	-0.62942904233932	65.000000000000	0.00000000000000
25.020000457764	0.44818183779716	-0.62938094139099	65.000000000000	0.00000000000000
25.030000686646	0.44683909416199	-0.62932902574539	65.000000000000	0.00000000000000
25.040000915527	0.44549426436424	-0.62927329540253	65.000000000000	0.00000000000000
25.049999237061	0.44414752721786	-0.62921363115311	65.000000000000	0.00000000000000
25.059999465942	0.44279876351357	-0.62915027141571	65.000000000000	0.00000000000000
25.069999694824	0.44144800305367	-0.62908285856247	65.000000000000	0.00000000000000
25.079999923706	0.44009533524513	-0.62901163101196	65.000000000000	0.00000000000000
25.090000152588	0.43874055147171	-0.62893652915955	65.000000000000	0.00000000000000
25.100000381470	0.43738389015198	-0.62885755300522	65.000000000000	0.00000000000000
25.110000610352	0.43602532148361	-0.62877452373505	65.000000000000	0.00000000000000
25.120000839233	0.43466472625732	-0.62868767976761	65.000000000000	0.00000000000000
25.129999160767	0.43330228328705	-0.62859684228897	65.000000000000	0.00000000000000
25.139999389648	0.43193778395653	-0.62850207090378	65.000000000000	0.00000000000000
25.149999618530	0.43057143688202	-0.62840324640274	65.000000000000	0.00000000000000
25.159999847412	0.42920330166817	-0.62830054759979	65.000000000000	0.00000000000000
25.170000076294	0.42783316969872	-0.62819373607635	65.000000000000	0.00000000000000
25.180000305176	0.42646127939224	-0.62808293104172	65.000000000000	0.00000000000000
25.190000534058	0.42508736252785	-0.62796813249588	65.000000000000	0.00000000000000
25.200000762939	0.42371159791946	-0.62784928083420	65.000000000000	0.00000000000000
25.209999084473	0.42233401536942	-0.62772631645203	65.000000000000	0.00000000000000
25.219999313354	0.42095458507538	-0.62759929895401	65.000000000000	0.00000000000000
25.229999542236	0.41957339644432	-0.62746828794479	65.000000000000	0.00000000000000
25.239999771118	0.41819030046463	-0.62733298540115	65.000000000000	0.00000000000000
25.250000000000	0.41680553555489	-0.62719368934631	65.000000000000	0.00000000000000
25.260000228882	0.41541892290115	-0.62705028057098	65.000000000000	0.00000000000000
25.270000457764	0.41403049230576	-0.62690269947052	65.000000000000	0.00000000000000
25.280000686646	0.41264018416405	-0.62675088644028	65.000000000000	0.00000000000000
25.290000915527	0.41124826669693	-0.62659496068954	65.000000000000	0.00000000000000
25.299999237061	0.40985456109047	-0.62643486261368	65.000000000000	0.00000000000000
25.309999465942	0.40845912694931	-0.62627053260803	65.000000000000	0.00000000000000
25.319999694824	0.40706187486649	-0.62610203027725	65.000000000000	0.00000000000000
25.329999923706	0.40566301345825	-0.62592917680740	65.000000000000	0.00000000000000
25.340000152588	0.40426248311996	-0.62575221061707	65.000000000000	0.00000000000000
25.350000381470	0.40286001563072	-0.62557101249695	65.000000000000	0.00000000000000
25.360000610352	0.40145617723465	-0.62538534402847	65.000000000000	0.00000000000000
25.370000839233	0.40005034208298	-0.62519556283951	65.000000000000	0.00000000000000
25.379999160767	0.39864313602448	-0.62500131130219	65.000000000000	0.00000000000000
25.389999389648	0.39723432064056	-0.62480276823044	65.000000000000	0.00000000000000
25.399999618530	0.39582383632660	-0.62459987401962	65.000000000000	0.00000000000000
25.409999847412	0.39441138505936	-0.62439274787903	65.000000000000	0.00000000000000
25.420000076294	0.39299765229225	-0.62418109178543	65.000000000000	0.00000000000000
25.430000305176	0.39158201217651	-0.62396526336670	65.000000000000	0.00000000000000
25.440000534058	0.39016482234001	-0.62374502420425	65.000000000000	0.00000000000000
25.450000762939	0.38874632120132	-0.62352019548416	65.000000000000	0.00000000000000
25.459999084473	0.38732597231865	-0.62329101562500	65.000000000000	0.00000000000000
25.469999313354	0.38590443134308	-0.62305724620819	65.000000000000	0.00000000000000
25.479999542236	0.38448098301888	-0.62281912565231	65.000000000000	0.00000000000000
25.489999771118	0.38305607438087	-0.62257665395737	65.000000000000	0.00000000000000
25.500000000000	0.38162967562675	-0.62232953310013	65.000000000000	0.00000000000000
25.510000228882	0.38020154833794	-0.62207812070847	65.000000000000	0.00000000000000
25.520000457764	0.37877252697945	-0.62182176113129	65.000000000000	0.00000000000000
25.530000686646	0.37734174728394	-0.62156105041504	65.000000000000	0.00000000000000
25.540000915527	0.37590923905373	-0.62129586935043	65.000000000000	0.00000000000000
25.549999237061	0.37447533011436	-0.62102609872818	65.000000000000	0.00000000000000
25.559999465942	0.37304028868675	-0.62075155973434	65.000000000000	0.00000000000000
25.569999694824	0.37160331010818	-0.62047278881073	65.000000000000	0.00000000000000
25.579999923706	0.37016528844833	-0.62018907070160	65.000000000000	0.00000000000000
25.590000152588	0.36872586607933	-0.61990070343018	65.000000000000	0.00000000000000
25.600000381470	0.36728486418724	-0.61960780620575	65.000000000000	0.00000000000000
25.610000610352	0.36584255099297	-0.61931025981903	65.000000000000	0.00000000000000
25.620000839233	0.36439889669418	-0.61900794506073	65.000000000000	0.00000000000000
25.629999160767	0.36295369267464	-0.61870098114014	65.000000000000	0.00000000000000
25.639999389648	0.36150750517845	-0.61838912963867	65.000000000000	0.00000000000000
25.649999618530	0.36005979776382	-0.61807268857956	65.000000000000	0.00000000000000
25.659999847412	0.35861083865166	-0.61775135993958	65.000000000000	0.00000000000000
25.670000076294	0.35716071724892	-0.61742532253265	65.000000000000	0.00000000000000
25.680000305176	0.35570907592773	-0.61709451675415	65.000000000000	0.00000000000000
25.690000534058	0.35425630211830	-0.61675894260406	65.000000000000	0.00000000000000
25.700000762939	0.35280227661133	-0.61641836166382	65.000000000000	0.00000000000000
25.709999084473	0.35134688019753	-0.61607313156128	65.000000000000	0.00000000000000
25.719999313354	0.34989032149315	-0.61572289466858	65.000000000000	0.00000000000000
25.729999542236	0.34843268990517	-0.61536777019501	65.000000000000	0.00000000000000
25.739999771118	0.34697368741035	-0.61500787734985	65.000000000000	0.00000000000000
25.750000000000	0.34551361203194	-0.61464303731918	65.000000000000	0.00000000000000
25.760000228882	0.34405246376991	-0.61427319049835	65.000000000000	0.00000000000000
25.770000457764	0.34259030222893	-0.61389827728271	65.000000000000	0.00000000000000
25.780000686646	0.34112653136253	-0.61351865530014	65.000000000000	0.00000000000000
25.790000915527	0.33966195583344	-0.61313390731812	65.000000000000	0.00000000000000
25.799999237061	0.33819618821144	-0.61274415254593	65.000000000000	0.00000000000000
25.809999465942	0.33672937750816	-0.61234951019287	65.000000000000	0.00000000000000
25.819999694824	0.33526158332825	-0.61194962263107	65.000000000000	0.00000000000000
25.829999923706	0.33379259705544	-0.61154484748840	65.000000000000	0.00000000000000
25.840000152588	0.33232283592224	-0.61113488674164	65.000000000000	0.00000000000000
25.850000381470	0.33085194230080	-0.61071991920471	65.000000000000	0.00000000000000
25.860000610352	0.32938003540039	-0.61029982566833	65.000000000000	0.00000000000000
25.870000839233	0.32790729403496	-0.60987454652786	65.000000000000	0.00000000000000
25.879999160767	0.32643344998360	-0.60944420099258	65.000000000000	0.00000000000000
25.889999389648	0.32495880126953	-0.60900866985321	65.000000000000	0.00000000000000
25.899999618530	0.32348304986954	-0.60856795310974	65.000000000000	0.00000000000000
25.909999847412	0.32200658321381	-0.60812205076218	65.000000000000	0.00000000000000
25.920000076294	0.32052919268608	-0.60767084360123	65.000000000000	0.00000000000000
25.930000305176	0.31905084848404	-0.60721445083618	65.000000000000	0.00000000000000
25.940000534058	0.31757175922394	-0.60675281286240	65.000000000000	0.00000000000000
25.950000762939	0.31609186530113	-0.60628598928452	65.000000000000	0.00000000000000
25.959999084473	0.31461116671562	-0.60581380128860	65.000000000000	0.00000000000000
25.969999313354	0.31312969326973	-0.60533636808395	65.000000000000	0.00000000000000
25.979999542236	0.31164750456810	-0.60485357046127	65.000000000000	0.00000000000000
25.989999771118	0.31016454100609	-0.60436540842056	65.000000000000	0.00000000000000
26.000000000000	0.30868083238602	-0.60387188196182	65.000000000000	0.00000000000000
26.010000228882	0.30719649791718	-0.60337305068970	65.000000000000	0.00000000000000
26.020000457764	0.30571144819260	-0.60286879539490	65.000000000000	0.00000000000000
26.030000686646	0.30422577261925	-0.60235911607742	65.000000000000	0.00000000000000
26.040000915527	0.30273932218552	-0.60184401273727	65.000000000000	0.00000000000000
26.049999237061	0.30125260353088	-0.60132348537445	65.000000000000	0.00000000000000
26.059999465942	0.29976508021355	-0.60079753398895	65.000000000000	0.00000000000000
26.069999694824	0.29827693104744	-0.60026603937149	65.000000000000	0.00000000000000
26.079999923706	0.29678836464882	-0.59972912073135	65.000000000000	0.00000000000000
26.090000152588	0.29529929161072	-0.59918665885925	65.000000000000	0.00000000000000
26.100000381470	0.29380956292152	-0.59863859415054	65.000000000000	0.00000000000000
26.110000610352	0.29231971502304	-0.59808504581451	65.000000000000	0.00000000000000
26.120000839233	0.29082897305489	-0.59752601385117	65.000000000000	0.00000000000000
26.129999160767	0.28933820128441	-0.59696125984192	65.000000000000	0.00000000000000
26.139999389648	0.28784665465355	-0.59639102220535	65.000000000000	0.00000000000000
26.149999618530	0.28635507822037	-0.59581518173218	65.000000000000	0.00000000000000
26.159999847412	0.28486293554306	-0.59523361921310	65.000000000000	0.00000000000000
26.170000076294	0.28337067365646	-0.59464645385742	65.000000000000	0.00000000000000
26.180000305176	0.28187790513039	-0.59405362606049	65.000000000000	0.00000000000000
26.190000534058	0.28038492798805	-0.59345513582230	65.000000000000	0.00000000000000
26.200000762939	0.27889183163643	-0.59285092353821	65.000000000000	0.00000000000000
26.209999084473	0.27739837765694	-0.59224104881287	65.000000000000	0.00000000000000
26.219999313354	0.27590477466583	-0.59162539243698	65.000000000000	0.00000000000000
26.229999542236	0.27441081404686	-0.59100407361984	65.000000000000	0.00000000000000
26.239999771118	0.27291697263718	-0.59037691354752	65.000000000000	0.00000000000000
26.250000000000	0.27142292261124	-0.58974403142929	65.000000000000	0.00000000000000
26.260000228882	0.26992875337601	-0.58910530805588	65.000000000000	0.00000000000000
26.270000457764	0.26843455433846	-0.58846080303192	65.000000000000	0.00000000000000
26.280000686646	0.26694029569626	-0.58781051635742	65.000000000000	0.00000000000000
26.290000915527	0.26544606685638	-0.58715432882309	65.000000000000	0.00000000000000
26.299999237061	0.26395180821419	-0.58649241924286	65.000000000000	0.00000000000000
26.309999465942	0.26245760917664	-0.58582454919815	65.000000000000	0.00000000000000
26.319999694824	0.26096346974373	-0.58515077829361	65.000000000000	0.00000000000000
26.329999923706	0.25946944952011	-0.58447116613388	65.000000000000	0.00000000000000
26.340000152588	0.25797566771507	-0.58378565311432	65.000000000000	0.00000000000000
26.350000381470	0.25648191571236	-0.58309417963028	65.000000000000	0.00000000000000
26.360000610352	0.25498849153519	-0.58239680528641	65.000000000000	0.00000000000000
26.370000839233	0.25349509716034	-0.58169341087341	65.000000000000	0.00000000000000
26.379999160767	0.25200197100639	-0.58098411560059	65.000000000000	0.00000000000000
26.389999389648	0.25050911307335	-0.58026885986328	65.000000000000	0.00000000000000
26.399999618530	0.24901670217514	-0.57954758405685	65.000000000000	0.00000000000000
26.409999847412	0.24752457439899	-0.57882028818130	65.000000000000	0.00000000000000
26.420000076294	0.24603283405304	-0.57808697223663	65.000000000000	0.00000000000000
26.430000305176	0.24454130232334	-0.57734769582748	65.000000000000	0.00000000000000
26.440000534058	0.24305030703545	-0.57660228013992	65.000000000000	0.00000000000000
26.450000762939	0.24155990779400	-0.57585084438324	65.000000000000	0.00000000000000
26.459999084473	0.24006982147694	-0.57509332895279	65.000000000000	0.00000000000000
26.469999313354	0.23858053982258	-0.57432979345322	65.000000000000	0.00000000000000
26.479999542236	0.23709158599377	-0.57356005907059	65.000000000000	0.00000000000000
26.489999771118	0.23560322821140	-0.57278430461884	65.000000000000	0.00000000000000
26.500000000000	0.23411558568478	-0.57200241088867	65.000000000000	0.00000000000000
26.510000228882	0.23262843489647	-0.57121437788010	65.000000000000	0.00000000000000
26.520000457764	0.23114202916622	-0.57042020559311	65.000000000000	0.00000000000000
26.530000686646	0.22965645790100	-0.56961995363235	65.000000000000	0.00000000000000
26.540000915527	0.22817143797874	-0.56881338357925	65.000000000000	0.00000000000000
26.549999237061	0.22668729722500	-0.56800079345703	65.000000000000	0.00000000000000
26.559999465942	0.22520405054092	-0.56718194484711	65.000000000000	0.00000000000000
26.569999694824	0.22372160851955	-0.56635689735413	65.000000000000	0.00000000000000
26.579999923706	0.22224000096321	-0.56552565097809	65.000000000000	0.00000000000000
26.590000152588	0.22075939178467	-0.56468820571899	65.000000000000	0.00000000000000
26.600000381470	0.21927966177464	-0.56384456157684	65.000000000000	0.00000000000000
26.610000610352	0.21780084073544	-0.56299465894699	65.000000000000	0.00000000000000
26.620000839233	0.21632313728333	-0.56213849782944	65.000000000000	0.00000000000000
26.629999160767	0.21484652161598	-0.56127607822418	65.000000000000	0.00000000000000
26.639999389648	0.21337106823921	-0.56040740013123	65.000000000000	0.00000000000000
26.649999618530	0.21189653873444	-0.55953252315521	65.000000000000	0.00000000000000
26.659999847412	0.21042335033417	-0.55865126848221	65.000000000000	0.00000000000000
26.670000076294	0.20895114541054	-0.55776381492615	65.000000000000	0.00000000000000
26.680000305176	0.20748035609722	-0.55687004327774	65.000000000000	0.00000000000000
26.690000534058	0.20601071417332	-0.55596995353699	65.000000000000	0.00000000000000
26.700000762939	0.20454245805740	-0.55506360530853	65.000000000000	0.00000000000000
26.709999084473	0.20307555794716	-0.55415087938309	65.000000000000	0.00000000000000
26.719999313354	0.20161007344723	-0.55323189496994	65.000000000000	0.00000000000000
26.729999542236	0.20014590024948	-0.55230653285980	65.000000000000	0.00000000000000
26.739999771118	0.19868317246437	-0.55137485265732	65.000000000000	0.00000000000000
26.750000000000	0.19722199440002	-0.55043685436249	65.000000000000	0.00000000000000
26.760000228882	0.19576220214367	-0.54949253797531	65.000000000000	0.00000000000000
26.770000457764	0.19430398941040	-0.54854184389114	65.000000000000	0.00000000000000
26.780000686646	0.19284749031067	-0.54758477210999	65.000000000000	0.00000000000000
26.790000915527	0.19139254093170	-0.54662138223648	65.000000000000	0.00000000000000
26.799999237061	0.18993937969208	-0.54565161466599	65.000000000000	0.00000000000000
26.809999465942	0.18848778307438	-0.54467540979385	65.000000000000	0.00000000000000
26.819999694824	0.18703806400299	-0.54369288682938	65.000000000000	0.00000000000000
26.829999923706	0.18559001386166	-0.54270398616791	65.000000000000	0.00000000000000
26.840000152588	0.18414376676083	-0.54170876741409	65.000000000000	0.00000000000000
26.850000381470	0.18269947171211	-0.54070711135864	65.000000000000	0.00000000000000
26.860000610352	0.18125706911087	-0.53969901800156	65.000000000000	0.00000000000000
26.870000839233	0.17981655895710	-0.53868460655212	65.000000000000	0.00000000000000
26.879999160767	0.17837804555893	-0.53766381740570	65.000000000000	0.00000000000000
26.889999389648	0.17694148421288	-0.53663659095764	65.000000000000	0.00000000000000
26.899999618530	0.17550705373287	-0.53560304641724	65.000000000000	0.00000000000000
26.909999847412	0.17407467961311	-0.53456300497055	65.000000000000	0.00000000000000
26.920000076294	0.17264454066753	-0.53351664543152	65.000000000000	0.00000000000000
26.930000305176	0.17121636867523	-0.53246390819550	65.000000000000	0.00000000000000
26.940000534058	0.16979062557220	-0.53140467405319	65.000000000000	0.00000000000000
26.950000762939	0.16836692392826	-0.53033912181854	65.000000000000	0.00000000000000
26.959999084473	0.16694559156895	-0.52926713228226	65.000000000000	0.00000000000000
26.969999313354	0.16552664339542	-0.52818876504898	65.000000000000	0.00000000000000
26.979999542236	0.16410987079144	-0.52710402011871	65.000000000000	0.00000000000000
26.989999771118	0.16269581019878	-0.52601283788681	65.000000000000	0.00000000000000
27.000000000000	0.16128407418728	-0.52491527795792	65.000000000000	0.00000000000000
27.010000228882	0.15987478196621	-0.52381139993668	65.000000000000	0.00000000000000
27.020000457764	0.15846791863441	-0.52270102500916	65.000000000000	0.00000000000000
27.030000686646	0.15706378221512	-0.52158433198929	65.000000000000	0.00000000000000
27.040000915527	0.15566214919090	-0.52046120166779	65.000000000000	0.00000000000000
27.049999237061	0.15426316857338	-0.51933175325394	65.000000000000	0.00000000000000
27.059999465942	0.15286691486835	-0.51819592714310	65.000000000000	0.00000000000000
27.069999694824	0.15147338807583	-0.51705372333527	65.000000000000	0.00000000000000
27.079999923706	0.15008264780045	-0.51590502262115	65.000000000000	0.00000000000000
27.090000152588	0.14869460463524	-0.51475018262863	65.000000000000	0.00000000000000
27.100000381470	0.14730952680111	-0.51358890533447	65.000000000000	0.00000000000000
27.110000610352	0.14592719078064	-0.51242119073868	65.000000000000	0.00000000000000
27.120000839233	0.14454787969589	-0.51124709844589	65.000000000000	0.00000000000000
27.129999160767	0.14317168295383	-0.51006680727005	65.000000000000	0.00000000000000
27.139999389648	0.14179833233356	-0.50888001918793	65.000000000000	0.00000000000000
27.149999618530	0.14042802155018	-0.50768709182739	65.000000000000	0.00000000000000
27.159999847412	0.13906088471413	-0.50648772716522	65.000000000000	0.00000000000000
27.170000076294	0.13769684731960	-0.50528198480606	65.000000000000	0.00000000000000
27.180000305176	0.13633581995964	-0.50407010316849	65.000000000000	0.00000000000000
27.190000534058	0.13497820496559	-0.50285178422928	65.000000000000	0.00000000000000
27.200000762939	0.13362379372120	-0.50162720680237	65.000000000000	0.00000000000000
27.209999084473	0.13227261602879	-0.50039631128311	65.000000000000	0.00000000000000
27.219999313354	0.13092483580112	-0.49915921688080	65.000000000000	0.00000000000000
27.229999542236	0.12958049774170	-0.49791583418846	65.000000000000	0.00000000000000
27.239999771118	0.12823951244354	-0.49666622281075	65.000000000000	0.00000000000000
27.250000000000	0.12690190970898	-0.49541026353836	65.000000000000	0.00000000000000
27.260000228882	0.12556783854961	-0.49414816498756	65.000000000000	0.00000000000000
27.270000457764	0.12423734366894	-0.49287977814674	65.000000000000	0.00000000000000
27.280000686646	0.12291046231985	-0.49160519242287	65.000000000000	0.00000000000000
27.290000915527	0.12158710509539	-0.49032437801361	65.000000000000	0.00000000000000
27.299999237061	0.12026744335890	-0.48903739452362	65.000000000000	0.00000000000000
27.309999465942	0.11895148456097	-0.48774424195290	65.000000000000	0.00000000000000
27.319999694824	0.11763928830624	-0.48644492030144	65.000000000000	0.00000000000000
27.329999923706	0.11633086949587	-0.48513936996460	65.000000000000	0.00000000000000
