#Parameters = {d=0.25891959798995; l2=5.178391959799; lambda=10.356783919598; r=0.034892005025126}
#"Frequency / GHz"	"S1,1 (lambda=10.3568) [Re]"	"S1,1 (lambda=10.3568) [Im]"	"Ref.Imp. [Re]"	"Ref.Imp. [Im]"
#-----------------------------------------------------------------------------------------------------------
25.000000000000	-0.020636115223169	-0.21109993755817	65.000000000000	0.00000000000000
25.010000228882	-0.020964866504073	-0.20887117087841	65.000000000000	0.00000000000000
25.020000457764	-0.021282995119691	-0.20664158463478	65.000000000000	0.00000000000000
25.030000686646	-0.021590575575829	-0.20441126823425	65.000000000000	0.00000000000000
25.040000915527	-0.021887525916100	-0.20218028128147	65.000000000000	0.00000000000000
25.049999237061	-0.022173825651407	-0.19994869828224	65.000000000000	0.00000000000000
25.059999465942	-0.022449729964137	-0.19771657884121	65.000000000000	0.00000000000000
25.069999694824	-0.022714924067259	-0.19548405706882	65.000000000000	0.00000000000000
25.079999923706	-0.022969659417868	-0.19325114786625	65.000000000000	0.00000000000000
25.090000152588	-0.023213628679514	-0.19101795554161	65.000000000000	0.00000000000000
25.100000381470	-0.023447165265679	-0.18878452479839	65.000000000000	0.00000000000000
25.110000610352	-0.023670148104429	-0.18655095994473	65.000000000000	0.00000000000000
25.120000839233	-0.023882456123829	-0.18431732058525	65.000000000000	0.00000000000000
25.129999160767	-0.024084320291877	-0.18208369612694	65.000000000000	0.00000000000000
25.139999389648	-0.024275617673993	-0.17985013127327	65.000000000000	0.00000000000000
25.149999618530	-0.024456487968564	-0.17761673033237	65.000000000000	0.00000000000000
25.159999847412	-0.024626716971397	-0.17538355290890	65.000000000000	0.00000000000000
25.170000076294	-0.024786524474621	-0.17315067350864	65.000000000000	0.00000000000000
25.180000305176	-0.024935705587268	-0.17091816663742	65.000000000000	0.00000000000000
25.190000534058	-0.025074461475015	-0.16868607699871	65.000000000000	0.00000000000000
25.200000762939	-0.025202833116055	-0.16645450890064	65.000000000000	0.00000000000000
25.209999084473	-0.025320539250970	-0.16422356665134	65.000000000000	0.00000000000000
25.219999313354	-0.025428006425500	-0.16199323534966	65.000000000000	0.00000000000000
25.229999542236	-0.025524871423841	-0.15976366400719	65.000000000000	0.00000000000000
25.239999771118	-0.025611473247409	-0.15753485262394	65.000000000000	0.00000000000000
25.250000000000	-0.025687459856272	-0.15530696511269	65.000000000000	0.00000000000000
25.260000228882	-0.025753293186426	-0.15307998657227	65.000000000000	0.00000000000000
25.270000457764	-0.025808623060584	-0.15085402131081	65.000000000000	0.00000000000000
25.280000686646	-0.025853609666228	-0.14862915873528	65.000000000000	0.00000000000000
25.290000915527	-0.025888193398714	-0.14640542864799	65.000000000000	0.00000000000000
25.299999237061	-0.025912588462234	-0.14418292045593	65.000000000000	0.00000000000000
25.309999465942	-0.025926657021046	-0.14196170866489	65.000000000000	0.00000000000000
25.319999694824	-0.025930397212505	-0.13974186778069	65.000000000000	0.00000000000000
25.329999923706	-0.025923866778612	-0.13752345740795	65.000000000000	0.00000000000000
25.340000152588	-0.025907125324011	-0.13530655205250	65.000000000000	0.00000000000000
25.350000381470	-0.025880143046379	-0.13309119641781	65.000000000000	0.00000000000000
25.360000610352	-0.025843033567071	-0.13087746500969	65.000000000000	0.00000000000000
25.370000839233	-0.025795638561249	-0.12866546213627	65.000000000000	0.00000000000000
25.379999160767	-0.025738170370460	-0.12645521759987	65.000000000000	0.00000000000000
25.389999389648	-0.025670586153865	-0.12424680590630	65.000000000000	0.00000000000000
25.399999618530	-0.025592893362045	-0.12204029411077	65.000000000000	0.00000000000000
25.409999847412	-0.025505093857646	-0.11983576416969	65.000000000000	0.00000000000000
25.420000076294	-0.025407241657376	-0.11763324588537	65.000000000000	0.00000000000000
25.430000305176	-0.025299375876784	-0.11543284356594	65.000000000000	0.00000000000000
25.440000534058	-0.025181524455547	-0.11323460936546	65.000000000000	0.00000000000000
25.450000762939	-0.025053652003407	-0.11103859543800	65.000000000000	0.00000000000000
25.459999084473	-0.024915920570493	-0.10884486138821	65.000000000000	0.00000000000000
25.469999313354	-0.024768164381385	-0.10665351152420	65.000000000000	0.00000000000000
25.479999542236	-0.024610569700599	-0.10446456819773	65.000000000000	0.00000000000000
25.489999771118	-0.024443099275231	-0.10227812081575	65.000000000000	0.00000000000000
25.500000000000	-0.024265844374895	-0.10009420663118	65.000000000000	0.00000000000000
25.510000228882	-0.024078782647848	-0.097912885248661	65.000000000000	0.00000000000000
25.520000457764	-0.023881874978542	-0.095734260976315	65.000000000000	0.00000000000000
25.530000686646	-0.023675294592977	-0.093558363616467	65.000000000000	0.00000000000000
25.540000915527	-0.023459000512958	-0.091385252773762	65.000000000000	0.00000000000000
25.549999237061	-0.023233015090227	-0.089214995503426	65.000000000000	0.00000000000000
25.559999465942	-0.022997386753559	-0.087047666311264	65.000000000000	0.00000000000000
25.569999694824	-0.022752156481147	-0.084883302450180	65.000000000000	0.00000000000000
25.579999923706	-0.022497344762087	-0.082721963524818	65.000000000000	0.00000000000000
25.590000152588	-0.022232973948121	-0.080563738942146	65.000000000000	0.00000000000000
25.600000381470	-0.021959133446217	-0.078408643603325	65.000000000000	0.00000000000000
25.610000610352	-0.021675756201148	-0.076256774365902	65.000000000000	0.00000000000000
25.620000839233	-0.021383024752140	-0.074108146131039	65.000000000000	0.00000000000000
25.629999160767	-0.021080804988742	-0.071962870657444	65.000000000000	0.00000000000000
25.639999389648	-0.020769262686372	-0.069820962846279	65.000000000000	0.00000000000000
25.649999618530	-0.020448373630643	-0.067682497203350	65.000000000000	0.00000000000000
25.659999847412	-0.020118216052651	-0.065547510981560	65.000000000000	0.00000000000000
25.670000076294	-0.019778767600656	-0.063416093587875	65.000000000000	0.00000000000000
25.680000305176	-0.019430102780461	-0.061288271099329	65.000000000000	0.00000000000000
25.690000534058	-0.019072238355875	-0.059164114296436	65.000000000000	0.00000000000000
25.700000762939	-0.018705265596509	-0.057043664157391	65.000000000000	0.00000000000000
25.709999084473	-0.018329158425331	-0.054926984012127	65.000000000000	0.00000000000000
25.719999313354	-0.017943995073438	-0.052814114838839	65.000000000000	0.00000000000000
25.729999542236	-0.017549792304635	-0.050705131143332	65.000000000000	0.00000000000000
25.739999771118	-0.017146617174149	-0.048600062727928	65.000000000000	0.00000000000000
25.750000000000	-0.016734497621655	-0.046498969197273	65.000000000000	0.00000000000000
25.760000228882	-0.016313457861543	-0.044401910156012	65.000000000000	0.00000000000000
25.770000457764	-0.015883548185229	-0.042308930307627	65.000000000000	0.00000000000000
25.780000686646	-0.015444813296199	-0.040220078080893	65.000000000000	0.00000000000000
25.790000915527	-0.014997295103967	-0.038135405629873	65.000000000000	0.00000000000000
25.799999237061	-0.014541023410857	-0.036054965108633	65.000000000000	0.00000000000000
25.809999465942	-0.014076055958867	-0.033978797495365	65.000000000000	0.00000000000000
25.819999694824	-0.013602435588837	-0.031906958669424	65.000000000000	0.00000000000000
25.829999923706	-0.013120194897056	-0.029839493334293	65.000000000000	0.00000000000000
25.840000152588	-0.012629375793040	-0.027776453644037	65.000000000000	0.00000000000000
25.850000381470	-0.012130027636886	-0.025717880576849	65.000000000000	0.00000000000000
25.860000610352	-0.011622185818851	-0.023663822561502	65.000000000000	0.00000000000000
25.870000839233	-0.011105907149613	-0.021614329889417	65.000000000000	0.00000000000000
25.879999160767	-0.010581229813397	-0.019569439813495	65.000000000000	0.00000000000000
25.889999389648	-0.010048195719719	-0.017529204487801	65.000000000000	0.00000000000000
25.899999618530	-0.0095068532973528	-0.015493667684495	65.000000000000	0.00000000000000
25.909999847412	-0.0089572388678789	-0.013462872244418	65.000000000000	0.00000000000000
25.920000076294	-0.0083994017913938	-0.011436861008406	65.000000000000	0.00000000000000
25.930000305176	-0.0078333914279938	-0.0094156814739108	65.000000000000	0.00000000000000
25.940000534058	-0.0072592506185174	-0.0073993685655296	65.000000000000	0.00000000000000
25.950000762939	-0.0066770249977708	-0.0053879716433585	65.000000000000	0.00000000000000
25.959999084473	-0.0060867592692375	-0.0033815298229456	65.000000000000	0.00000000000000
25.969999313354	-0.0054885004647076	-0.0013800843153149	65.000000000000	0.00000000000000
25.979999542236	-0.0048822956159711	0.00061632401775569	65.000000000000	0.00000000000000
25.989999771118	-0.0042681903578341	0.0026076545473188	65.000000000000	0.00000000000000
26.000000000000	-0.0036462328862399	0.0045938678085804	65.000000000000	0.00000000000000
26.010000228882	-0.0030164667405188	0.0065749259665608	65.000000000000	0.00000000000000
26.020000457764	-0.0023789431434125	0.0085507873445749	65.000000000000	0.00000000000000
26.030000686646	-0.0017337064491585	0.010521415621042	65.000000000000	0.00000000000000
26.040000915527	-0.0010808100923896	0.012486771680415	65.000000000000	0.00000000000000
26.049999237061	-0.00042029024916701	0.014446819201112	65.000000000000	0.00000000000000
26.059999465942	0.00024779423256405	0.016401521861553	65.000000000000	0.00000000000000
26.069999694824	0.00092340219998732	0.018350841477513	65.000000000000	0.00000000000000
26.079999923706	0.0016064760275185	0.020294744521379	65.000000000000	0.00000000000000
26.090000152588	0.0022969804704189	0.022233191877604	65.000000000000	0.00000000000000
26.100000381470	0.0029948616866022	0.024166153743863	65.000000000000	0.00000000000000
26.110000610352	0.0037000668235123	0.026093591004610	65.000000000000	0.00000000000000
26.120000839233	0.0044125486165285	0.028015475720167	65.000000000000	0.00000000000000
26.129999160767	0.0051322551444173	0.029931768774986	65.000000000000	0.00000000000000
26.139999389648	0.0058591612614691	0.031842436641455	65.000000000000	0.00000000000000
26.149999618530	0.0065931812860072	0.033747453242540	65.000000000000	0.00000000000000
26.159999847412	0.0073342719115317	0.035646781325340	65.000000000000	0.00000000000000
26.170000076294	0.0080824308097363	0.037540387362242	65.000000000000	0.00000000000000
26.180000305176	0.0088375518098474	0.039428245276213	65.000000000000	0.00000000000000
26.190000534058	0.0095996027812362	0.041310328990221	65.000000000000	0.00000000000000
26.200000762939	0.010368544608355	0.043186593800783	65.000000000000	0.00000000000000
26.209999084473	0.011144322343171	0.045057024806738	65.000000000000	0.00000000000000
26.219999313354	0.011926897801459	0.046921581029892	65.000000000000	0.00000000000000
26.229999542236	0.012716167606413	0.048780251294374	65.000000000000	0.00000000000000
26.239999771118	0.013512151315808	0.050632987171412	65.000000000000	0.00000000000000
26.250000000000	0.014314745552838	0.052479781210423	65.000000000000	0.00000000000000
26.260000228882	0.015123974531889	0.054320573806763	65.000000000000	0.00000000000000
26.270000457764	0.015939703211188	0.056155372411013	65.000000000000	0.00000000000000
26.280000686646	0.016761898994446	0.057984150946140	65.000000000000	0.00000000000000
26.290000915527	0.017590558156371	0.059806849807501	65.000000000000	0.00000000000000
26.299999237061	0.018425567075610	0.061623476445675	65.000000000000	0.00000000000000
26.309999465942	0.019266968593001	0.063433982431889	65.000000000000	0.00000000000000
26.319999694824	0.020114578306675	0.065238364040852	65.000000000000	0.00000000000000
26.329999923706	0.020968466997147	0.067036584019661	65.000000000000	0.00000000000000
26.340000152588	0.021828543394804	0.068828627467155	65.000000000000	0.00000000000000
26.350000381470	0.022694708779454	0.070614472031593	65.000000000000	0.00000000000000
26.360000610352	0.023566983640194	0.072394080460072	65.000000000000	0.00000000000000
26.370000839233	0.024445286020637	0.074167445302010	65.000000000000	0.00000000000000
26.379999160767	0.025329561904073	0.075934551656246	65.000000000000	0.00000000000000
26.389999389648	0.026219785213470	0.077695347368717	65.000000000000	0.00000000000000
26.399999618530	0.027115851640701	0.079449839890003	65.000000000000	0.00000000000000
26.409999847412	0.028017774224281	0.081198006868362	65.000000000000	0.00000000000000
26.420000076294	0.028925454244018	0.082939811050892	65.000000000000	0.00000000000000
26.430000305176	0.029838878661394	0.084675252437592	65.000000000000	0.00000000000000
26.440000534058	0.030757956206799	0.086404308676720	65.000000000000	0.00000000000000
26.450000762939	0.031682692468166	0.088126957416534	65.000000000000	0.00000000000000
26.459999084473	0.032612971961498	0.089843176305294	65.000000000000	0.00000000000000
26.469999313354	0.033548772335052	0.091552950441837	65.000000000000	0.00000000000000
26.479999542236	0.034490097314119	0.093256264925003	65.000000000000	0.00000000000000
26.489999771118	0.035436790436506	0.094953112304211	65.000000000000	0.00000000000000
26.500000000000	0.036388870328665	0.096643447875977	65.000000000000	0.00000000000000
26.510000228882	0.037346281111240	0.098327293992043	65.000000000000	0.00000000000000
26.520000457764	0.038308963179588	0.10000459849834	65.000000000000	0.00000000000000
26.530000686646	0.039276868104935	0.10167537629604	65.000000000000	0.00000000000000
26.540000915527	0.040249917656183	0.10333959758282	65.000000000000	0.00000000000000
26.549999237061	0.041228130459785	0.10499724000692	65.000000000000	0.00000000000000
26.559999465942	0.042211391031742	0.10664831101894	65.000000000000	0.00000000000000
26.569999694824	0.043199673295021	0.10829278826714	65.000000000000	0.00000000000000
26.579999923706	0.044192936271429	0.10993065685034	65.000000000000	0.00000000000000
26.590000152588	0.045191105455160	0.11156190186739	65.000000000000	0.00000000000000
26.600000381470	0.046194169670343	0.11318652331829	65.000000000000	0.00000000000000
26.610000610352	0.047202028334141	0.11480449140072	65.000000000000	0.00000000000000
26.620000839233	0.048214677721262	0.11641580611467	65.000000000000	0.00000000000000
26.629999160767	0.049232028424740	0.11802047491074	65.000000000000	0.00000000000000
26.639999389648	0.050254102796316	0.11961843818426	65.000000000000	0.00000000000000
26.649999618530	0.051280755549669	0.12120972573757	65.000000000000	0.00000000000000
26.659999847412	0.052311997860670	0.12279433012009	65.000000000000	0.00000000000000
26.670000076294	0.053347751498222	0.12437222898006	65.000000000000	0.00000000000000
26.680000305176	0.054388001561165	0.12594339251518	65.000000000000	0.00000000000000
26.690000534058	0.055432658642530	0.12750785052776	65.000000000000	0.00000000000000
26.700000762939	0.056481722742319	0.12906557321548	65.000000000000	0.00000000000000
26.709999084473	0.057535074651241	0.13061656057835	65.000000000000	0.00000000000000
26.719999313354	0.058592714369297	0.13216079771519	65.000000000000	0.00000000000000
26.729999542236	0.059654604643583	0.13369828462601	65.000000000000	0.00000000000000
26.739999771118	0.060720689594746	0.13522902131081	65.000000000000	0.00000000000000
26.750000000000	0.061790872365236	0.13675299286842	65.000000000000	0.00000000000000
26.760000228882	0.062865175306797	0.13827018439770	65.000000000000	0.00000000000000
26.770000457764	0.063943512737751	0.13978061079979	65.000000000000	0.00000000000000
26.780000686646	0.065025776624680	0.14128427207470	65.000000000000	0.00000000000000
26.790000915527	0.066112048923969	0.14278110861778	65.000000000000	0.00000000000000
26.799999237061	0.067202210426331	0.14427119493484	65.000000000000	0.00000000000000
26.809999465942	0.068296201527119	0.14575445652008	65.000000000000	0.00000000000000
26.819999694824	0.069394044578075	0.14723092317581	65.000000000000	0.00000000000000
26.829999923706	0.070495553314686	0.14870060980320	65.000000000000	0.00000000000000
26.840000152588	0.071600839495659	0.15016348659992	65.000000000000	0.00000000000000
26.850000381470	0.072709701955318	0.15161956846714	65.000000000000	0.00000000000000
26.860000610352	0.073822237551212	0.15306882560253	65.000000000000	0.00000000000000
26.870000839233	0.074938349425793	0.15451127290726	65.000000000000	0.00000000000000
26.879999160767	0.076057948172092	0.15594691038132	65.000000000000	0.00000000000000
26.889999389648	0.077181041240692	0.15737575292587	65.000000000000	0.00000000000000
26.899999618530	0.078307509422302	0.15879775583744	65.000000000000	0.00000000000000
26.909999847412	0.079437397420406	0.16021296381950	65.000000000000	0.00000000000000
26.920000076294	0.080570630729198	0.16162134706974	65.000000000000	0.00000000000000
26.930000305176	0.081707134842873	0.16302292048931	65.000000000000	0.00000000000000
26.940000534058	0.082846827805042	0.16441769897938	65.000000000000	0.00000000000000
26.950000762939	0.083989791572094	0.16580562293530	65.000000000000	0.00000000000000
26.959999084473	0.085135884582996	0.16718676686287	65.000000000000	0.00000000000000
26.969999313354	0.086285077035427	0.16856110095978	65.000000000000	0.00000000000000
26.979999542236	0.087437316775322	0.16992862522602	65.000000000000	0.00000000000000
26.989999771118	0.088592603802681	0.17128933966160	65.000000000000	0.00000000000000
27.000000000000	0.089750804007053	0.17264324426651	65.000000000000	0.00000000000000
27.010000228882	0.090911999344826	0.17399036884308	65.000000000000	0.00000000000000
27.020000457764	0.092076063156128	0.17533066868782	65.000000000000	0.00000000000000
27.030000686646	0.093242891132832	0.17666420340538	65.000000000000	0.00000000000000
27.040000915527	0.094412632286549	0.17799092829227	65.000000000000	0.00000000000000
27.049999237061	0.095585055649281	0.17931085824966	65.000000000000	0.00000000000000
27.059999465942	0.096760168671608	0.18062400817871	65.000000000000	0.00000000000000
27.069999694824	0.097937934100628	0.18193039298058	65.000000000000	0.00000000000000
27.079999923706	0.099118351936340	0.18322999775410	65.000000000000	0.00000000000000
27.090000152588	0.10030138492584	0.18452283740044	65.000000000000	0.00000000000000
27.100000381470	0.10148686170578	0.18580891191959	65.000000000000	0.00000000000000
27.110000610352	0.10267491638660	0.18708822131157	65.000000000000	0.00000000000000
27.120000839233	0.10386539250612	0.18836076557636	65.000000000000	0.00000000000000
27.129999160767	0.10505823791027	0.18962658941746	65.000000000000	0.00000000000000
27.139999389648	0.10625348240137	0.19088566303253	65.000000000000	0.00000000000000
27.149999618530	0.10745106637478	0.19213801622391	65.000000000000	0.00000000000000
27.159999847412	0.10865090042353	0.19338361918926	65.000000000000	0.00000000000000
27.170000076294	0.10985295474529	0.19462250173092	65.000000000000	0.00000000000000
27.180000305176	0.11105722934008	0.19585467875004	65.000000000000	0.00000000000000
27.190000534058	0.11226372420788	0.19708015024662	65.000000000000	0.00000000000000
27.200000762939	0.11347227543592	0.19829893112183	65.000000000000	0.00000000000000
27.209999084473	0.11468284577131	0.19951103627682	65.000000000000	0.00000000000000
27.219999313354	0.11589556932449	0.20071645081043	65.000000000000	0.00000000000000
27.229999542236	0.11711020022631	0.20191518962383	65.000000000000	0.00000000000000
27.239999771118	0.11832682788372	0.20310725271702	65.000000000000	0.00000000000000
27.250000000000	0.11954535543919	0.20429266989231	65.000000000000	0.00000000000000
27.260000228882	0.12076577544212	0.20547144114971	65.000000000000	0.00000000000000
27.270000457764	0.12198799103498	0.20664359629154	65.000000000000	0.00000000000000
27.280000686646	0.12321206927299	0.20780912041664	65.000000000000	0.00000000000000
27.290000915527	0.12443781644106	0.20896801352501	65.000000000000	0.00000000000000
