#Parameters = {d=0.19510050251256; l2=3.9020100502513; lambda=7.8040201005025; r=0.026291743718593}
#"Frequency / GHz"	"S1,1 (lambda=7.80402) [Re]"	"S1,1 (lambda=7.80402) [Im]"	"Ref.Imp. [Re]"	"Ref.Imp. [Im]"
#-----------------------------------------------------------------------------------------------------------
25.000000000000	0.75065624713898	-0.54126089811325	65.000000000000	0.00000000000000
25.010000228882	0.75010895729065	-0.54163295030594	65.000000000000	0.00000000000000
25.020000457764	0.74956041574478	-0.54200488328934	65.000000000000	0.00000000000000
25.030000686646	0.74901056289673	-0.54237669706345	65.000000000000	0.00000000000000
25.040000915527	0.74845933914185	-0.54274857044220	65.000000000000	0.00000000000000
25.049999237061	0.74790692329407	-0.54312026500702	65.000000000000	0.00000000000000
25.059999465942	0.74735319614410	-0.54349189996719	65.000000000000	0.00000000000000
25.069999694824	0.74679827690125	-0.54386353492737	65.000000000000	0.00000000000000
25.079999923706	0.74624180793762	-0.54423505067825	65.000000000000	0.00000000000000
25.090000152588	0.74568426609039	-0.54460644721985	65.000000000000	0.00000000000000
25.100000381470	0.74512529373169	-0.54497778415680	65.000000000000	0.00000000000000
25.110000610352	0.74456501007080	-0.54534906148911	65.000000000000	0.00000000000000
25.120000839233	0.74400341510773	-0.54572010040283	65.000000000000	0.00000000000000
25.129999160767	0.74344056844711	-0.54609125852585	65.000000000000	0.00000000000000
25.139999389648	0.74287629127502	-0.54646217823029	65.000000000000	0.00000000000000
25.149999618530	0.74231076240540	-0.54683303833008	65.000000000000	0.00000000000000
25.159999847412	0.74174374341965	-0.54720383882523	65.000000000000	0.00000000000000
25.170000076294	0.74117553234100	-0.54757452011108	65.000000000000	0.00000000000000
25.180000305176	0.74060589075089	-0.54794502258301	65.000000000000	0.00000000000000
25.190000534058	0.74003499746323	-0.54831546545029	65.000000000000	0.00000000000000
25.200000762939	0.73946255445480	-0.54868578910828	65.000000000000	0.00000000000000
25.209999084473	0.73888885974884	-0.54905593395233	65.000000000000	0.00000000000000
25.219999313354	0.73831379413605	-0.54942601919174	65.000000000000	0.00000000000000
25.229999542236	0.73773741722107	-0.54979592561722	65.000000000000	0.00000000000000
25.239999771118	0.73715955018997	-0.55016577243805	65.000000000000	0.00000000000000
25.250000000000	0.73658037185669	-0.55053538084030	65.000000000000	0.00000000000000
25.260000228882	0.73599976301193	-0.55090487003326	65.000000000000	0.00000000000000
25.270000457764	0.73541772365570	-0.55127424001694	65.000000000000	0.00000000000000
25.280000686646	0.73483419418335	-0.55164349079132	65.000000000000	0.00000000000000
25.290000915527	0.73424953222275	-0.55201256275177	65.000000000000	0.00000000000000
25.299999237061	0.73366326093674	-0.55238151550293	65.000000000000	0.00000000000000
25.309999465942	0.73307573795319	-0.55275017023087	65.000000000000	0.00000000000000
25.319999694824	0.73248660564423	-0.55311876535416	65.000000000000	0.00000000000000
25.329999923706	0.73189616203308	-0.55348718166351	65.000000000000	0.00000000000000
25.340000152588	0.73130434751511	-0.55385541915894	65.000000000000	0.00000000000000
25.350000381470	0.73071104288101	-0.55422347784042	65.000000000000	0.00000000000000
25.360000610352	0.73011624813080	-0.55459135770798	65.000000000000	0.00000000000000
25.370000839233	0.72952002286911	-0.55495905876160	65.000000000000	0.00000000000000
25.379999160767	0.72892236709595	-0.55532658100128	65.000000000000	0.00000000000000
25.389999389648	0.72832328081131	-0.55569380521774	65.000000000000	0.00000000000000
25.399999618530	0.72772276401520	-0.55606091022491	65.000000000000	0.00000000000000
25.409999847412	0.72712087631226	-0.55642777681351	65.000000000000	0.00000000000000
25.420000076294	0.72651737928391	-0.55679446458817	65.000000000000	0.00000000000000
25.430000305176	0.72591245174408	-0.55716097354889	65.000000000000	0.00000000000000
25.440000534058	0.72530603408813	-0.55752724409103	65.000000000000	0.00000000000000
25.450000762939	0.72469812631607	-0.55789327621460	65.000000000000	0.00000000000000
25.459999084473	0.72408890724182	-0.55825901031494	65.000000000000	0.00000000000000
25.469999313354	0.72347807884216	-0.55862456560135	65.000000000000	0.00000000000000
25.479999542236	0.72286576032639	-0.55898994207382	65.000000000000	0.00000000000000
25.489999771118	0.72225195169449	-0.55935508012772	65.000000000000	0.00000000000000
25.500000000000	0.72163677215576	-0.55971974134445	65.000000000000	0.00000000000000
25.510000228882	0.72101998329163	-0.56008440256119	65.000000000000	0.00000000000000
25.520000457764	0.72040158510208	-0.56044876575470	65.000000000000	0.00000000000000
25.530000686646	0.71978181600571	-0.56081289052963	65.000000000000	0.00000000000000
25.540000915527	0.71916037797928	-0.56117677688599	65.000000000000	0.00000000000000
25.549999237061	0.71853768825531	-0.56154024600983	65.000000000000	0.00000000000000
25.559999465942	0.71791321039200	-0.56190353631973	65.000000000000	0.00000000000000
25.569999694824	0.71728748083115	-0.56226634979248	65.000000000000	0.00000000000000
25.579999923706	0.71666008234024	-0.56262910366058	65.000000000000	0.00000000000000
25.590000152588	0.71603125333786	-0.56299138069153	65.000000000000	0.00000000000000
25.600000381470	0.71540075540543	-0.56335341930389	65.000000000000	0.00000000000000
25.610000610352	0.71476870775223	-0.56371533870697	65.000000000000	0.00000000000000
25.620000839233	0.71413522958755	-0.56407678127289	65.000000000000	0.00000000000000
25.629999160767	0.71350008249283	-0.56443804502487	65.000000000000	0.00000000000000
25.639999389648	0.71286380290985	-0.56479841470718	65.000000000000	0.00000000000000
25.649999618530	0.71222561597824	-0.56515902280807	65.000000000000	0.00000000000000
25.659999847412	0.71158576011658	-0.56551939249039	65.000000000000	0.00000000000000
25.670000076294	0.71094447374344	-0.56587928533554	65.000000000000	0.00000000000000
25.680000305176	0.71030157804489	-0.56623888015747	65.000000000000	0.00000000000000
25.690000534058	0.70965725183487	-0.56659793853760	65.000000000000	0.00000000000000
25.700000762939	0.70901143550873	-0.56695652008057	65.000000000000	0.00000000000000
25.709999084473	0.70836383104324	-0.56731516122818	65.000000000000	0.00000000000000
25.719999313354	0.70771467685699	-0.56767320632935	65.000000000000	0.00000000000000
25.729999542236	0.70706415176392	-0.56803077459335	65.000000000000	0.00000000000000
25.739999771118	0.70641177892685	-0.56838840246201	65.000000000000	0.00000000000000
25.750000000000	0.70575809478760	-0.56874501705170	65.000000000000	0.00000000000000
25.760000228882	0.70510226488113	-0.56910216808319	65.000000000000	0.00000000000000
25.770000457764	0.70444530248642	-0.56945836544037	65.000000000000	0.00000000000000
25.780000686646	0.70378684997559	-0.56981390714645	65.000000000000	0.00000000000000
25.790000915527	0.70312649011612	-0.57016938924789	65.000000000000	0.00000000000000
25.799999237061	0.70246469974518	-0.57052439451218	65.000000000000	0.00000000000000
25.809999465942	0.70180124044418	-0.57087898254395	65.000000000000	0.00000000000000
25.819999694824	0.70113617181778	-0.57123315334320	65.000000000000	0.00000000000000
25.829999923706	0.70046955347061	-0.57158696651459	65.000000000000	0.00000000000000
25.840000152588	0.69980132579803	-0.57194030284882	65.000000000000	0.00000000000000
25.850000381470	0.69913148880005	-0.57229322195053	65.000000000000	0.00000000000000
25.860000610352	0.69845998287201	-0.57264566421509	65.000000000000	0.00000000000000
25.870000839233	0.69778686761856	-0.57299768924713	65.000000000000	0.00000000000000
25.879999160767	0.69711214303970	-0.57334923744202	65.000000000000	0.00000000000000
25.889999389648	0.69643580913544	-0.57370036840439	65.000000000000	0.00000000000000
25.899999618530	0.69575780630112	-0.57405096292496	65.000000000000	0.00000000000000
25.909999847412	0.69507825374603	-0.57440119981766	65.000000000000	0.00000000000000
25.920000076294	0.69439691305161	-0.57475090026855	65.000000000000	0.00000000000000
25.930000305176	0.69371408224106	-0.57510018348694	65.000000000000	0.00000000000000
25.940000534058	0.69302958250046	-0.57544893026352	65.000000000000	0.00000000000000
25.950000762939	0.69234335422516	-0.57579714059830	65.000000000000	0.00000000000000
25.959999084473	0.69165557622910	-0.57614493370056	65.000000000000	0.00000000000000
25.969999313354	0.69096595048904	-0.57649219036102	65.000000000000	0.00000000000000
25.979999542236	0.69027483463287	-0.57683902978897	65.000000000000	0.00000000000000
25.989999771118	0.68958210945129	-0.57718527317047	65.000000000000	0.00000000000000
26.000000000000	0.68888771533966	-0.57753098011017	65.000000000000	0.00000000000000
26.010000228882	0.68819165229797	-0.57787615060806	65.000000000000	0.00000000000000
26.020000457764	0.68749386072159	-0.57822084426880	65.000000000000	0.00000000000000
26.030000686646	0.68679440021515	-0.57856500148773	65.000000000000	0.00000000000000
26.040000915527	0.68609327077866	-0.57890856266022	65.000000000000	0.00000000000000
26.049999237061	0.68539047241211	-0.57925164699554	65.000000000000	0.00000000000000
26.059999465942	0.68468612432480	-0.57959419488907	65.000000000000	0.00000000000000
26.069999694824	0.68398004770279	-0.57993608713150	65.000000000000	0.00000000000000
26.079999923706	0.68327224254608	-0.58027738332748	65.000000000000	0.00000000000000
26.090000152588	0.68256282806396	-0.58061826229095	65.000000000000	0.00000000000000
26.100000381470	0.68185150623322	-0.58095848560333	65.000000000000	0.00000000000000
26.110000610352	0.68113869428635	-0.58129805326462	65.000000000000	0.00000000000000
26.120000839233	0.68042415380478	-0.58163714408875	65.000000000000	0.00000000000000
26.129999160767	0.67970800399780	-0.58197557926178	65.000000000000	0.00000000000000
26.139999389648	0.67899006605148	-0.58231347799301	65.000000000000	0.00000000000000
26.149999618530	0.67827045917511	-0.58265066146851	65.000000000000	0.00000000000000
26.159999847412	0.67754918336868	-0.58298736810684	65.000000000000	0.00000000000000
26.170000076294	0.67682617902756	-0.58332335948944	65.000000000000	0.00000000000000
26.180000305176	0.67610144615173	-0.58365875482559	65.000000000000	0.00000000000000
26.190000534058	0.67537504434586	-0.58399349451065	65.000000000000	0.00000000000000
26.200000762939	0.67464691400528	-0.58432757854462	65.000000000000	0.00000000000000
26.209999084473	0.67391711473465	-0.58466106653214	65.000000000000	0.00000000000000
26.219999313354	0.67318558692932	-0.58499389886856	65.000000000000	0.00000000000000
26.229999542236	0.67245239019394	-0.58532613515854	65.000000000000	0.00000000000000
26.239999771118	0.67171740531921	-0.58565759658813	65.000000000000	0.00000000000000
26.250000000000	0.67098081111908	-0.58598840236664	65.000000000000	0.00000000000000
26.260000228882	0.67024236917496	-0.58631855249405	65.000000000000	0.00000000000000
26.270000457764	0.66950219869614	-0.58664804697037	65.000000000000	0.00000000000000
26.280000686646	0.66876024007797	-0.58697688579559	65.000000000000	0.00000000000000
26.290000915527	0.66801679134369	-0.58730494976044	65.000000000000	0.00000000000000
26.299999237061	0.66727155447006	-0.58763241767883	65.000000000000	0.00000000000000
26.309999465942	0.66652429103851	-0.58795911073685	65.000000000000	0.00000000000000
26.319999694824	0.66577565670013	-0.58828508853912	65.000000000000	0.00000000000000
26.329999923706	0.66502517461777	-0.58861035108566	65.000000000000	0.00000000000000
26.340000152588	0.66427290439606	-0.58893489837646	65.000000000000	0.00000000000000
26.350000381470	0.66351902484894	-0.58925873041153	65.000000000000	0.00000000000000
26.360000610352	0.66276323795319	-0.58958178758621	65.000000000000	0.00000000000000
26.370000839233	0.66200578212738	-0.58990418910980	65.000000000000	0.00000000000000
26.379999160767	0.66124659776688	-0.59022575616837	65.000000000000	0.00000000000000
26.389999389648	0.66048562526703	-0.59054660797119	65.000000000000	0.00000000000000
26.399999618530	0.65972286462784	-0.59086668491364	65.000000000000	0.00000000000000
26.409999847412	0.65895849466324	-0.59118604660034	65.000000000000	0.00000000000000
26.420000076294	0.65819227695465	-0.59150451421738	65.000000000000	0.00000000000000
26.430000305176	0.65742421150208	-0.59182232618332	65.000000000000	0.00000000000000
26.440000534058	0.65665459632874	-0.59213924407959	65.000000000000	0.00000000000000
26.450000762939	0.65588307380676	-0.59245544672012	65.000000000000	0.00000000000000
26.459999084473	0.65510976314545	-0.59277081489563	65.000000000000	0.00000000000000
26.469999313354	0.65433472394943	-0.59308546781540	65.000000000000	0.00000000000000
26.479999542236	0.65355801582336	-0.59339916706085	65.000000000000	0.00000000000000
26.489999771118	0.65277945995331	-0.59371215105057	65.000000000000	0.00000000000000
26.500000000000	0.65199929475784	-0.59402424097061	65.000000000000	0.00000000000000
26.510000228882	0.65121704339981	-0.59433555603027	65.000000000000	0.00000000000000
26.520000457764	0.65043324232101	-0.59464603662491	65.000000000000	0.00000000000000
26.530000686646	0.64964765310287	-0.59495562314987	65.000000000000	0.00000000000000
26.540000915527	0.64886015653610	-0.59526443481445	65.000000000000	0.00000000000000
26.549999237061	0.64807111024857	-0.59557229280472	65.000000000000	0.00000000000000
26.559999465942	0.64727997779846	-0.59587937593460	65.000000000000	0.00000000000000
26.569999694824	0.64648729562759	-0.59618550539017	65.000000000000	0.00000000000000
26.579999923706	0.64569276571274	-0.59649085998535	65.000000000000	0.00000000000000
26.590000152588	0.64489650726318	-0.59679526090622	65.000000000000	0.00000000000000
26.600000381470	0.64409840106964	-0.59709876775742	65.000000000000	0.00000000000000
26.610000610352	0.64329856634140	-0.59740138053894	65.000000000000	0.00000000000000
26.620000839233	0.64249670505524	-0.59770309925079	65.000000000000	0.00000000000000
26.629999160767	0.64169329404831	-0.59800392389297	65.000000000000	0.00000000000000
26.639999389648	0.64088797569275	-0.59830385446548	65.000000000000	0.00000000000000
26.649999618530	0.64008104801178	-0.59860283136368	65.000000000000	0.00000000000000
26.659999847412	0.63927215337753	-0.59890091419220	65.000000000000	0.00000000000000
26.670000076294	0.63846147060394	-0.59919798374176	65.000000000000	0.00000000000000
26.680000305176	0.63764899969101	-0.59949415922165	65.000000000000	0.00000000000000
26.690000534058	0.63683468103409	-0.59978932142258	65.000000000000	0.00000000000000
26.700000762939	0.63601863384247	-0.60008364915848	65.000000000000	0.00000000000000
26.709999084473	0.63520079851151	-0.60037696361542	65.000000000000	0.00000000000000
26.719999313354	0.63438111543655	-0.60066932439804	65.000000000000	0.00000000000000
26.729999542236	0.63355964422226	-0.60096061229706	65.000000000000	0.00000000000000
26.739999771118	0.63273632526398	-0.60125100612640	65.000000000000	0.00000000000000
26.750000000000	0.63191121816635	-0.60154038667679	65.000000000000	0.00000000000000
26.760000228882	0.63108408451080	-0.60182881355286	65.000000000000	0.00000000000000
26.770000457764	0.63025552034378	-0.60211610794067	65.000000000000	0.00000000000000
26.780000686646	0.62942487001419	-0.60240250825882	65.000000000000	0.00000000000000
26.790000915527	0.62859255075455	-0.60268789529800	65.000000000000	0.00000000000000
26.799999237061	0.62775826454163	-0.60297220945358	65.000000000000	0.00000000000000
26.809999465942	0.62692224979401	-0.60325551033020	65.000000000000	0.00000000000000
26.819999694824	0.62608438730240	-0.60353779792786	65.000000000000	0.00000000000000
26.829999923706	0.62524467706680	-0.60381895303726	65.000000000000	0.00000000000000
26.840000152588	0.62440305948257	-0.60409915447235	65.000000000000	0.00000000000000
26.850000381470	0.62355983257294	-0.60437822341919	65.000000000000	0.00000000000000
26.860000610352	0.62271451950073	-0.60465627908707	65.000000000000	0.00000000000000
26.870000839233	0.62186753749847	-0.60493320226669	65.000000000000	0.00000000000000
26.879999160767	0.62101876735687	-0.60520911216736	65.000000000000	0.00000000000000
26.889999389648	0.62016803026199	-0.60548388957977	65.000000000000	0.00000000000000
26.899999618530	0.61931562423706	-0.60575753450394	65.000000000000	0.00000000000000
26.909999847412	0.61846113204956	-0.60603010654449	65.000000000000	0.00000000000000
26.920000076294	0.61760491132736	-0.60630160570145	65.000000000000	0.00000000000000
26.930000305176	0.61674690246582	-0.60657197237015	65.000000000000	0.00000000000000
26.940000534058	0.61588698625565	-0.60684120655060	65.000000000000	0.00000000000000
26.950000762939	0.61502534151077	-0.60710936784744	65.000000000000	0.00000000000000
26.959999084473	0.61416167020798	-0.60737627744675	65.000000000000	0.00000000000000
26.969999313354	0.61329627037048	-0.60764205455780	65.000000000000	0.00000000000000
26.979999542236	0.61242896318436	-0.60790669918060	65.000000000000	0.00000000000000
26.989999771118	0.61155986785889	-0.60817027091980	65.000000000000	0.00000000000000
27.000000000000	0.61068880558014	-0.60843253135681	65.000000000000	0.00000000000000
27.010000228882	0.60981601476669	-0.60869371891022	65.000000000000	0.00000000000000
27.020000457764	0.60894143581390	-0.60895365476608	65.000000000000	0.00000000000000
27.030000686646	0.60806471109390	-0.60921245813370	65.000000000000	0.00000000000000
27.040000915527	0.60718625783920	-0.60946995019913	65.000000000000	0.00000000000000
27.049999237061	0.60630613565445	-0.60972636938095	65.000000000000	0.00000000000000
27.059999465942	0.60542398691177	-0.60998153686523	65.000000000000	0.00000000000000
27.069999694824	0.60453993082047	-0.61023545265198	65.000000000000	0.00000000000000
27.079999923706	0.60365414619446	-0.61048823595047	65.000000000000	0.00000000000000
27.090000152588	0.60276639461517	-0.61073958873749	65.000000000000	0.00000000000000
27.100000381470	0.60187673568726	-0.61098980903625	65.000000000000	0.00000000000000
27.110000610352	0.60098534822464	-0.61123871803284	65.000000000000	0.00000000000000
27.120000839233	0.60009199380875	-0.61148643493652	65.000000000000	0.00000000000000
27.129999160767	0.59919679164886	-0.61173284053802	65.000000000000	0.00000000000000
27.139999389648	0.59829980134964	-0.61197799444199	65.000000000000	0.00000000000000
27.149999618530	0.59740078449249	-0.61222189664841	65.000000000000	0.00000000000000
27.159999847412	0.59650003910065	-0.61246448755264	65.000000000000	0.00000000000000
27.170000076294	0.59559726715088	-0.61270570755005	65.000000000000	0.00000000000000
27.180000305176	0.59469288587570	-0.61294573545456	65.000000000000	0.00000000000000
27.190000534058	0.59378629922867	-0.61318439245224	65.000000000000	0.00000000000000
27.200000762939	0.59287798404694	-0.61342167854309	65.000000000000	0.00000000000000
27.209999084473	0.59196782112122	-0.61365765333176	65.000000000000	0.00000000000000
27.219999313354	0.59105581045151	-0.61389225721359	65.000000000000	0.00000000000000
27.229999542236	0.59014183282852	-0.61412554979324	65.000000000000	0.00000000000000
27.239999771118	0.58922594785690	-0.61435747146606	65.000000000000	0.00000000000000
27.250000000000	0.58830821514130	-0.61458808183670	65.000000000000	0.00000000000000
27.260000228882	0.58738857507706	-0.61481726169586	65.000000000000	0.00000000000000
27.270000457764	0.58646708726883	-0.61504507064819	65.000000000000	0.00000000000000
27.280000686646	0.58554381132126	-0.61527144908905	65.000000000000	0.00000000000000
27.290000915527	0.58461856842041	-0.61549651622772	65.000000000000	0.00000000000000
27.299999237061	0.58369135856628	-0.61572009325027	65.000000000000	0.00000000000000
27.309999465942	0.58276230096817	-0.61594229936600	65.000000000000	0.00000000000000
27.319999694824	0.58183139562607	-0.61616307497025	65.000000000000	0.00000000000000
27.329999923706	0.58089846372604	-0.61638242006302	65.000000000000	0.00000000000000
