#Parameters = {d=0.17550251256281; l2=3.5100502512563; lambda=7.0201005025126; r=0.023650718592965}
#"Frequency / GHz"	"S1,1 (lambda=7.0201) [Re]"	"S1,1 (lambda=7.0201) [Im]"	"Ref.Imp. [Re]"	"Ref.Imp. [Im]"
#---------------------------------------------------------------------------------------------------------
25.000000000000	0.85502523183823	-0.44752129912376	65.000000000000	0.00000000000000
25.010000228882	0.85475230216980	-0.44784206151962	65.000000000000	0.00000000000000
25.020000457764	0.85447877645493	-0.44816303253174	65.000000000000	0.00000000000000
25.030000686646	0.85420453548431	-0.44848412275314	65.000000000000	0.00000000000000
25.040000915527	0.85392987728119	-0.44880542159081	65.000000000000	0.00000000000000
25.049999237061	0.85365462303162	-0.44912680983543	65.000000000000	0.00000000000000
25.059999465942	0.85337883234024	-0.44944840669632	65.000000000000	0.00000000000000
25.069999694824	0.85310244560242	-0.44977018237114	65.000000000000	0.00000000000000
25.079999923706	0.85282534360886	-0.45009204745293	65.000000000000	0.00000000000000
25.090000152588	0.85254776477814	-0.45041409134865	65.000000000000	0.00000000000000
25.100000381470	0.85226958990097	-0.45073634386063	65.000000000000	0.00000000000000
25.110000610352	0.85199075937271	-0.45105871558189	65.000000000000	0.00000000000000
25.120000839233	0.85171151161194	-0.45138123631477	65.000000000000	0.00000000000000
25.129999160767	0.85143160820007	-0.45170390605927	65.000000000000	0.00000000000000
25.139999389648	0.85115110874176	-0.45202672481537	65.000000000000	0.00000000000000
25.149999618530	0.85086989402771	-0.45234975218773	65.000000000000	0.00000000000000
25.159999847412	0.85058820247650	-0.45267289876938	65.000000000000	0.00000000000000
25.170000076294	0.85030591487885	-0.45299619436264	65.000000000000	0.00000000000000
25.180000305176	0.85002303123474	-0.45331963896751	65.000000000000	0.00000000000000
25.190000534058	0.84973955154419	-0.45364329218864	65.000000000000	0.00000000000000
25.200000762939	0.84945553541183	-0.45396700501442	65.000000000000	0.00000000000000
25.209999084473	0.84917086362839	-0.45429095625877	65.000000000000	0.00000000000000
25.219999313354	0.84888553619385	-0.45461499691010	65.000000000000	0.00000000000000
25.229999542236	0.84859973192215	-0.45493924617767	65.000000000000	0.00000000000000
25.239999771118	0.84831315279007	-0.45526361465454	65.000000000000	0.00000000000000
25.250000000000	0.84802609682083	-0.45558813214302	65.000000000000	0.00000000000000
25.260000228882	0.84773856401443	-0.45591279864311	65.000000000000	0.00000000000000
25.270000457764	0.84745019674301	-0.45623764395714	65.000000000000	0.00000000000000
25.280000686646	0.84716135263443	-0.45656263828278	65.000000000000	0.00000000000000
25.290000915527	0.84687185287476	-0.45688775181770	65.000000000000	0.00000000000000
25.299999237061	0.84658169746399	-0.45721301436424	65.000000000000	0.00000000000000
25.309999465942	0.84629088640213	-0.45753845572472	65.000000000000	0.00000000000000
25.319999694824	0.84599965810776	-0.45786401629448	65.000000000000	0.00000000000000
25.329999923706	0.84570771455765	-0.45818972587585	65.000000000000	0.00000000000000
25.340000152588	0.84541511535645	-0.45851561427116	65.000000000000	0.00000000000000
25.350000381470	0.84512203931808	-0.45884165167809	65.000000000000	0.00000000000000
25.360000610352	0.84482818841934	-0.45916777849197	65.000000000000	0.00000000000000
25.370000839233	0.84453374147415	-0.45949411392212	65.000000000000	0.00000000000000
25.379999160767	0.84423869848251	-0.45982059836388	65.000000000000	0.00000000000000
25.389999389648	0.84394305944443	-0.46014717221260	65.000000000000	0.00000000000000
25.399999618530	0.84364676475525	-0.46047392487526	65.000000000000	0.00000000000000
25.409999847412	0.84334987401962	-0.46080082654953	65.000000000000	0.00000000000000
25.420000076294	0.84305238723755	-0.46112781763077	65.000000000000	0.00000000000000
25.430000305176	0.84275418519974	-0.46145504713058	65.000000000000	0.00000000000000
25.440000534058	0.84245538711548	-0.46178236603737	65.000000000000	0.00000000000000
25.450000762939	0.84215593338013	-0.46210983395576	65.000000000000	0.00000000000000
25.459999084473	0.84185588359833	-0.46243748068810	65.000000000000	0.00000000000000
25.469999313354	0.84155517816544	-0.46276518702507	65.000000000000	0.00000000000000
25.479999542236	0.84125381708145	-0.46309307217598	65.000000000000	0.00000000000000
25.489999771118	0.84095185995102	-0.46342110633850	65.000000000000	0.00000000000000
25.500000000000	0.84064924716949	-0.46374928951263	65.000000000000	0.00000000000000
25.510000228882	0.84034603834152	-0.46407762169838	65.000000000000	0.00000000000000
25.520000457764	0.84004217386246	-0.46440607309341	65.000000000000	0.00000000000000
25.530000686646	0.83973759412766	-0.46473461389542	65.000000000000	0.00000000000000
25.540000915527	0.83943241834641	-0.46506339311600	65.000000000000	0.00000000000000
25.549999237061	0.83912664651871	-0.46539220213890	65.000000000000	0.00000000000000
25.559999465942	0.83882021903992	-0.46572127938271	65.000000000000	0.00000000000000
25.569999694824	0.83851307630539	-0.46605041623116	65.000000000000	0.00000000000000
25.579999923706	0.83820539712906	-0.46637964248657	65.000000000000	0.00000000000000
25.590000152588	0.83789706230164	-0.46670895814896	65.000000000000	0.00000000000000
25.600000381470	0.83758783340454	-0.46703872084618	65.000000000000	0.00000000000000
25.610000610352	0.83727830648422	-0.46736812591553	65.000000000000	0.00000000000000
25.620000839233	0.83696758747101	-0.46769842505455	65.000000000000	0.00000000000000
25.629999160767	0.83665657043457	-0.46802836656570	65.000000000000	0.00000000000000
25.639999389648	0.83634495735168	-0.46835836768150	65.000000000000	0.00000000000000
25.649999618530	0.83603286743164	-0.46868804097176	65.000000000000	0.00000000000000
25.659999847412	0.83571958541870	-0.46901896595955	65.000000000000	0.00000000000000
25.670000076294	0.83540600538254	-0.46934917569160	65.000000000000	0.00000000000000
25.680000305176	0.83509159088135	-0.46967977285385	65.000000000000	0.00000000000000
25.690000534058	0.83477640151978	-0.47001090645790	65.000000000000	0.00000000000000
25.700000762939	0.83446085453033	-0.47034165263176	65.000000000000	0.00000000000000
25.709999084473	0.83414459228516	-0.47067245841026	65.000000000000	0.00000000000000
25.719999313354	0.83382743597031	-0.47100368142128	65.000000000000	0.00000000000000
25.729999542236	0.83350974321365	-0.47133502364159	65.000000000000	0.00000000000000
25.739999771118	0.83319139480591	-0.47166636586189	65.000000000000	0.00000000000000
25.750000000000	0.83287221193314	-0.47199812531471	65.000000000000	0.00000000000000
25.760000228882	0.83255255222321	-0.47232955694199	65.000000000000	0.00000000000000
25.770000457764	0.83223211765289	-0.47266143560410	65.000000000000	0.00000000000000
25.780000686646	0.83191126585007	-0.47299295663834	65.000000000000	0.00000000000000
25.790000915527	0.83158934116364	-0.47332519292831	65.000000000000	0.00000000000000
25.799999237061	0.83126676082611	-0.47365731000900	65.000000000000	0.00000000000000
25.809999465942	0.83094364404678	-0.47398960590363	65.000000000000	0.00000000000000
25.819999694824	0.83061987161636	-0.47432199120522	65.000000000000	0.00000000000000
25.829999923706	0.83029526472092	-0.47465449571609	65.000000000000	0.00000000000000
25.840000152588	0.82997018098831	-0.47498714923859	65.000000000000	0.00000000000000
25.850000381470	0.82964420318604	-0.47531989216805	65.000000000000	0.00000000000000
25.860000610352	0.82931756973267	-0.47565281391144	65.000000000000	0.00000000000000
25.870000839233	0.82899034023285	-0.47598579525948	65.000000000000	0.00000000000000
25.879999160767	0.82866233587265	-0.47631895542145	65.000000000000	0.00000000000000
25.889999389648	0.82833367586136	-0.47665217518806	65.000000000000	0.00000000000000
25.899999618530	0.82800430059433	-0.47698554396629	65.000000000000	0.00000000000000
25.909999847412	0.82767415046692	-0.47731900215149	65.000000000000	0.00000000000000
25.920000076294	0.82734328508377	-0.47765263915062	65.000000000000	0.00000000000000
25.930000305176	0.82701188325882	-0.47798633575439	65.000000000000	0.00000000000000
25.940000534058	0.82667958736420	-0.47832012176514	65.000000000000	0.00000000000000
25.950000762939	0.82634669542313	-0.47865414619446	65.000000000000	0.00000000000000
25.959999084473	0.82601314783096	-0.47898811101913	65.000000000000	0.00000000000000
25.969999313354	0.82567888498306	-0.47932231426239	65.000000000000	0.00000000000000
25.979999542236	0.82534378767014	-0.47965660691261	65.000000000000	0.00000000000000
25.989999771118	0.82500797510147	-0.47999104857445	65.000000000000	0.00000000000000
26.000000000000	0.82467156648636	-0.48032552003860	65.000000000000	0.00000000000000
26.010000228882	0.82433438301086	-0.48066017031670	65.000000000000	0.00000000000000
26.020000457764	0.82399648427963	-0.48099491000175	65.000000000000	0.00000000000000
26.030000686646	0.82365781068802	-0.48132967948914	65.000000000000	0.00000000000000
26.040000915527	0.82331848144531	-0.48166465759277	65.000000000000	0.00000000000000
26.049999237061	0.82297837734222	-0.48199966549873	65.000000000000	0.00000000000000
26.059999465942	0.82263749837875	-0.48233488202095	65.000000000000	0.00000000000000
26.069999694824	0.82229602336884	-0.48267012834549	65.000000000000	0.00000000000000
26.079999923706	0.82195383310318	-0.48300549387932	65.000000000000	0.00000000000000
26.090000152588	0.82161074876785	-0.48334103822708	65.000000000000	0.00000000000000
26.100000381470	0.82126700878143	-0.48367661237717	65.000000000000	0.00000000000000
26.110000610352	0.82092261314392	-0.48401233553886	65.000000000000	0.00000000000000
26.120000839233	0.82057744264603	-0.48434808850288	65.000000000000	0.00000000000000
26.129999160767	0.82023137807846	-0.48468402028084	65.000000000000	0.00000000000000
26.139999389648	0.81988477706909	-0.48502001166344	65.000000000000	0.00000000000000
26.149999618530	0.81953728199005	-0.48535609245300	65.000000000000	0.00000000000000
26.159999847412	0.81918919086456	-0.48569229245186	65.000000000000	0.00000000000000
26.170000076294	0.81884032487869	-0.48602861166000	65.000000000000	0.00000000000000
26.180000305176	0.81849056482315	-0.48636502027512	65.000000000000	0.00000000000000
26.190000534058	0.81814020872116	-0.48670154809952	65.000000000000	0.00000000000000
26.200000762939	0.81778913736343	-0.48703810572624	65.000000000000	0.00000000000000
26.209999084473	0.81743717193604	-0.48737478256226	65.000000000000	0.00000000000000
26.219999313354	0.81708449125290	-0.48771154880524	65.000000000000	0.00000000000000
26.229999542236	0.81673109531403	-0.48804849386215	65.000000000000	0.00000000000000
26.239999771118	0.81637698411942	-0.48838543891907	65.000000000000	0.00000000000000
26.250000000000	0.81602197885513	-0.48872247338295	65.000000000000	0.00000000000000
26.260000228882	0.81566631793976	-0.48905968666077	65.000000000000	0.00000000000000
26.270000457764	0.81530994176865	-0.48939692974091	65.000000000000	0.00000000000000
26.280000686646	0.81495267152786	-0.48973423242569	65.000000000000	0.00000000000000
26.290000915527	0.81459462642670	-0.49007165431976	65.000000000000	0.00000000000000
26.299999237061	0.81423598527908	-0.49040922522545	65.000000000000	0.00000000000000
26.309999465942	0.81387639045715	-0.49074685573578	65.000000000000	0.00000000000000
26.319999694824	0.81351619958878	-0.49108454585075	65.000000000000	0.00000000000000
26.329999923706	0.81315505504608	-0.49142229557037	65.000000000000	0.00000000000000
26.340000152588	0.81279325485229	-0.49176016449928	65.000000000000	0.00000000000000
26.350000381470	0.81243062019348	-0.49209809303284	65.000000000000	0.00000000000000
26.360000610352	0.81206727027893	-0.49243614077568	65.000000000000	0.00000000000000
26.370000839233	0.81170314550400	-0.49277421832085	65.000000000000	0.00000000000000
26.379999160767	0.81133812665939	-0.49311253428459	65.000000000000	0.00000000000000
26.389999389648	0.81097251176834	-0.49345076084137	65.000000000000	0.00000000000000
26.399999618530	0.81060600280762	-0.49378916621208	65.000000000000	0.00000000000000
26.409999847412	0.81023871898651	-0.49412763118744	65.000000000000	0.00000000000000
26.420000076294	0.80987054109573	-0.49446612596512	65.000000000000	0.00000000000000
26.430000305176	0.80950170755386	-0.49480471014977	65.000000000000	0.00000000000000
26.440000534058	0.80913203954697	-0.49514335393906	65.000000000000	0.00000000000000
26.450000762939	0.80876147747040	-0.49548217654228	65.000000000000	0.00000000000000
26.459999084473	0.80839025974274	-0.49582090973854	65.000000000000	0.00000000000000
26.469999313354	0.80801814794540	-0.49615988135338	65.000000000000	0.00000000000000
26.479999542236	0.80764538049698	-0.49649882316589	65.000000000000	0.00000000000000
26.489999771118	0.80727171897888	-0.49683785438538	65.000000000000	0.00000000000000
26.500000000000	0.80689722299576	-0.49717691540718	65.000000000000	0.00000000000000
26.510000228882	0.80652201175690	-0.49751612544060	65.000000000000	0.00000000000000
26.520000457764	0.80614590644836	-0.49785542488098	65.000000000000	0.00000000000000
26.530000686646	0.80576890707016	-0.49819472432137	65.000000000000	0.00000000000000
26.540000915527	0.80539125204086	-0.49853417277336	65.000000000000	0.00000000000000
26.549999237061	0.80501282215118	-0.49887362122536	65.000000000000	0.00000000000000
26.559999465942	0.80463343858719	-0.49921312928200	65.000000000000	0.00000000000000
26.569999694824	0.80425333976746	-0.49955272674561	65.000000000000	0.00000000000000
26.579999923706	0.80387240648270	-0.49989241361618	65.000000000000	0.00000000000000
26.590000152588	0.80349069833755	-0.50023204088211	65.000000000000	0.00000000000000
26.600000381470	0.80310809612274	-0.50057178735733	65.000000000000	0.00000000000000
26.610000610352	0.80272471904755	-0.50091165304184	65.000000000000	0.00000000000000
26.620000839233	0.80234038829803	-0.50125151872635	65.000000000000	0.00000000000000
26.629999160767	0.80195528268814	-0.50159144401550	65.000000000000	0.00000000000000
26.639999389648	0.80156940221786	-0.50193148851395	65.000000000000	0.00000000000000
26.649999618530	0.80118274688721	-0.50227159261703	65.000000000000	0.00000000000000
26.659999847412	0.80079519748688	-0.50261169672012	65.000000000000	0.00000000000000
26.670000076294	0.80040669441223	-0.50295186042786	65.000000000000	0.00000000000000
26.680000305176	0.80001753568649	-0.50329214334488	65.000000000000	0.00000000000000
26.690000534058	0.79962742328644	-0.50363236665726	65.000000000000	0.00000000000000
26.700000762939	0.79923647642136	-0.50397270917892	65.000000000000	0.00000000000000
26.709999084473	0.79884481430054	-0.50431305170059	65.000000000000	0.00000000000000
26.719999313354	0.79845219850540	-0.50465345382690	65.000000000000	0.00000000000000
26.729999542236	0.79805868864059	-0.50499391555786	65.000000000000	0.00000000000000
26.739999771118	0.79766446352005	-0.50533437728882	65.000000000000	0.00000000000000
26.750000000000	0.79726928472519	-0.50567501783371	65.000000000000	0.00000000000000
26.760000228882	0.79687333106995	-0.50601559877396	65.000000000000	0.00000000000000
26.770000457764	0.79647648334503	-0.50635623931885	65.000000000000	0.00000000000000
26.780000686646	0.79607874155045	-0.50669687986374	65.000000000000	0.00000000000000
26.790000915527	0.79568010568619	-0.50703769922256	65.000000000000	0.00000000000000
26.799999237061	0.79528069496155	-0.50737845897675	65.000000000000	0.00000000000000
26.809999465942	0.79488056898117	-0.50771927833557	65.000000000000	0.00000000000000
26.819999694824	0.79447942972183	-0.50806009769440	65.000000000000	0.00000000000000
26.829999923706	0.79407739639282	-0.50840091705322	65.000000000000	0.00000000000000
26.840000152588	0.79367452859879	-0.50874185562134	65.000000000000	0.00000000000000
26.850000381470	0.79327076673508	-0.50908279418945	65.000000000000	0.00000000000000
26.860000610352	0.79286611080170	-0.50942379236221	65.000000000000	0.00000000000000
26.870000839233	0.79246073961258	-0.50976473093033	65.000000000000	0.00000000000000
26.879999160767	0.79205435514450	-0.51010584831238	65.000000000000	0.00000000000000
26.889999389648	0.79164701700211	-0.51044684648514	65.000000000000	0.00000000000000
26.899999618530	0.79123902320862	-0.51078796386719	65.000000000000	0.00000000000000
26.909999847412	0.79082995653152	-0.51112908124924	65.000000000000	0.00000000000000
26.920000076294	0.79041999578476	-0.51147025823593	65.000000000000	0.00000000000000
26.930000305176	0.79000937938690	-0.51181143522263	65.000000000000	0.00000000000000
26.940000534058	0.78959769010544	-0.51215267181396	65.000000000000	0.00000000000000
26.950000762939	0.78918516635895	-0.51249372959137	65.000000000000	0.00000000000000
26.959999084473	0.78877162933350	-0.51283502578735	65.000000000000	0.00000000000000
26.969999313354	0.78835731744766	-0.51317626237869	65.000000000000	0.00000000000000
26.979999542236	0.78794205188751	-0.51351755857468	65.000000000000	0.00000000000000
26.989999771118	0.78752607107162	-0.51385879516602	65.000000000000	0.00000000000000
27.000000000000	0.78710901737213	-0.51420009136200	65.000000000000	0.00000000000000
27.010000228882	0.78669118881226	-0.51454138755798	65.000000000000	0.00000000000000
27.020000457764	0.78627234697342	-0.51488274335861	65.000000000000	0.00000000000000
27.030000686646	0.78585255146027	-0.51522403955460	65.000000000000	0.00000000000000
27.040000915527	0.78543204069138	-0.51556539535522	65.000000000000	0.00000000000000
27.049999237061	0.78501051664352	-0.51590675115585	65.000000000000	0.00000000000000
27.059999465942	0.78458797931671	-0.51624810695648	65.000000000000	0.00000000000000
27.069999694824	0.78416466712952	-0.51658940315247	65.000000000000	0.00000000000000
27.079999923706	0.78374040126801	-0.51693075895309	65.000000000000	0.00000000000000
27.090000152588	0.78331518173218	-0.51727217435837	65.000000000000	0.00000000000000
27.100000381470	0.78288906812668	-0.51761353015900	65.000000000000	0.00000000000000
27.110000610352	0.78246200084686	-0.51795488595963	65.000000000000	0.00000000000000
27.120000839233	0.78203409910202	-0.51829618215561	65.000000000000	0.00000000000000
27.129999160767	0.78160524368286	-0.51863753795624	65.000000000000	0.00000000000000
27.139999389648	0.78117537498474	-0.51897895336151	65.000000000000	0.00000000000000
27.149999618530	0.78074467182159	-0.51932024955750	65.000000000000	0.00000000000000
27.159999847412	0.78031313419342	-0.51966160535812	65.000000000000	0.00000000000000
27.170000076294	0.77988058328629	-0.52000290155411	65.000000000000	0.00000000000000
27.180000305176	0.77944695949554	-0.52034425735474	65.000000000000	0.00000000000000
27.190000534058	0.77901256084442	-0.52068555355072	65.000000000000	0.00000000000000
27.200000762939	0.77857708930969	-0.52102679014206	65.000000000000	0.00000000000000
27.209999084473	0.77814084291458	-0.52136808633804	65.000000000000	0.00000000000000
27.219999313354	0.77770352363586	-0.52170932292938	65.000000000000	0.00000000000000
27.229999542236	0.77726519107819	-0.52205055952072	65.000000000000	0.00000000000000
27.239999771118	0.77682602405548	-0.52239173650742	65.000000000000	0.00000000000000
27.250000000000	0.77638596296310	-0.52273297309875	65.000000000000	0.00000000000000
27.260000228882	0.77594482898712	-0.52307415008545	65.000000000000	0.00000000000000
27.270000457764	0.77550280094147	-0.52341526746750	65.000000000000	0.00000000000000
27.280000686646	0.77505987882614	-0.52375644445419	65.000000000000	0.00000000000000
27.290000915527	0.77461600303650	-0.52409750223160	65.000000000000	0.00000000000000
27.299999237061	0.77417105436325	-0.52443856000900	65.000000000000	0.00000000000000
27.309999465942	0.77372521162033	-0.52477961778641	65.000000000000	0.00000000000000
27.319999694824	0.77327835559845	-0.52512061595917	65.000000000000	0.00000000000000
27.329999923706	0.77283060550690	-0.52546149492264	65.000000000000	0.00000000000000
