#Parameters = {d=0.23881909547739; l2=4.7763819095477; lambda=9.5527638190955; r=0.032183261306533}
#"Frequency / GHz"	"S1,1 (lambda=9.55276) [Re]"	"S1,1 (lambda=9.55276) [Im]"	"Ref.Imp. [Re]"	"Ref.Imp. [Im]"
#-----------------------------------------------------------------------------------------------------------
25.000000000000	0.20114395022392	-0.55159878730774	65.000000000000	0.00000000000000
25.010000228882	0.19959509372711	-0.55061775445938	65.000000000000	0.00000000000000
25.020000457764	0.19804769754410	-0.54962974786758	65.000000000000	0.00000000000000
25.030000686646	0.19650167226791	-0.54863494634628	65.000000000000	0.00000000000000
25.040000915527	0.19495688378811	-0.54763305187225	65.000000000000	0.00000000000000
25.049999237061	0.19341379404068	-0.54662412405014	65.000000000000	0.00000000000000
25.059999465942	0.19187192618847	-0.54560834169388	65.000000000000	0.00000000000000
25.069999694824	0.19033180177212	-0.54458534717560	65.000000000000	0.00000000000000
25.079999923706	0.18879322707653	-0.54355531930923	65.000000000000	0.00000000000000
25.090000152588	0.18725639581680	-0.54251831769943	65.000000000000	0.00000000000000
25.100000381470	0.18572117388248	-0.54147416353226	65.000000000000	0.00000000000000
25.110000610352	0.18418762087822	-0.54042297601700	65.000000000000	0.00000000000000
25.120000839233	0.18265579640865	-0.53936475515366	65.000000000000	0.00000000000000
25.129999160767	0.18112593889236	-0.53829926252365	65.000000000000	0.00000000000000
25.139999389648	0.17959789931774	-0.53722673654556	65.000000000000	0.00000000000000
25.149999618530	0.17807154357433	-0.53614711761475	65.000000000000	0.00000000000000
25.159999847412	0.17654731869698	-0.53506028652191	65.000000000000	0.00000000000000
25.170000076294	0.17502503097057	-0.53396636247635	65.000000000000	0.00000000000000
25.180000305176	0.17350493371487	-0.53286516666412	65.000000000000	0.00000000000000
25.190000534058	0.17198684811592	-0.53175681829453	65.000000000000	0.00000000000000
25.200000762939	0.17047078907490	-0.53064137697220	65.000000000000	0.00000000000000
25.209999084473	0.16895709931850	-0.52951866388321	65.000000000000	0.00000000000000
25.219999313354	0.16744552552700	-0.52838879823685	65.000000000000	0.00000000000000
25.229999542236	0.16593633592129	-0.52725166082382	65.000000000000	0.00000000000000
25.239999771118	0.16442939639091	-0.52610737085342	65.000000000000	0.00000000000000
25.250000000000	0.16292496025562	-0.52495574951172	65.000000000000	0.00000000000000
25.260000228882	0.16142278909683	-0.52379697561264	65.000000000000	0.00000000000000
25.270000457764	0.15992324054241	-0.52263092994690	65.000000000000	0.00000000000000
25.280000686646	0.15842609107494	-0.52145773172379	65.000000000000	0.00000000000000
25.290000915527	0.15693159401417	-0.52027714252472	65.000000000000	0.00000000000000
25.299999237061	0.15543983876705	-0.51908940076828	65.000000000000	0.00000000000000
25.309999465942	0.15395058691502	-0.51789438724518	65.000000000000	0.00000000000000
25.319999694824	0.15246413648129	-0.51669210195541	65.000000000000	0.00000000000000
25.329999923706	0.15098057687283	-0.51548254489899	65.000000000000	0.00000000000000
25.340000152588	0.14949963986874	-0.51426571607590	65.000000000000	0.00000000000000
25.350000381470	0.14802168309689	-0.51304173469543	65.000000000000	0.00000000000000
25.360000610352	0.14654669165611	-0.51181042194366	65.000000000000	0.00000000000000
25.370000839233	0.14507447183132	-0.51057183742523	65.000000000000	0.00000000000000
25.379999160767	0.14360560476780	-0.50932598114014	65.000000000000	0.00000000000000
25.389999389648	0.14213983714581	-0.50807285308838	65.000000000000	0.00000000000000
25.399999618530	0.14067724347115	-0.50681233406067	65.000000000000	0.00000000000000
25.409999847412	0.13921740651131	-0.50554484128952	65.000000000000	0.00000000000000
25.420000076294	0.13776151835918	-0.50426983833313	65.000000000000	0.00000000000000
25.430000305176	0.13630822300911	-0.50298768281937	65.000000000000	0.00000000000000
25.440000534058	0.13485875725746	-0.50169831514359	65.000000000000	0.00000000000000
25.450000762939	0.13341268897057	-0.50040161609650	65.000000000000	0.00000000000000
25.459999084473	0.13196982443333	-0.49909767508507	65.000000000000	0.00000000000000
25.469999313354	0.13053090870380	-0.49778643250465	65.000000000000	0.00000000000000
25.479999542236	0.12909507751465	-0.49646815657616	65.000000000000	0.00000000000000
25.489999771118	0.12766326963902	-0.49514248967171	65.000000000000	0.00000000000000
25.500000000000	0.12623488903046	-0.49380970001221	65.000000000000	0.00000000000000
25.510000228882	0.12481036782265	-0.49246954917908	65.000000000000	0.00000000000000
25.520000457764	0.12338959425688	-0.49112233519554	65.000000000000	0.00000000000000
25.530000686646	0.12197279930115	-0.48976778984070	65.000000000000	0.00000000000000
25.540000915527	0.12055981904268	-0.48840615153313	65.000000000000	0.00000000000000
25.549999237061	0.11915069818497	-0.48703736066818	65.000000000000	0.00000000000000
25.559999465942	0.11774570494890	-0.48566132783890	65.000000000000	0.00000000000000
25.569999694824	0.11634466052055	-0.48427814245224	65.000000000000	0.00000000000000
25.579999923706	0.11494760960340	-0.48288792371750	65.000000000000	0.00000000000000
25.590000152588	0.11355482786894	-0.48149049282074	65.000000000000	0.00000000000000
25.600000381470	0.11216637492180	-0.48008590936661	65.000000000000	0.00000000000000
25.610000610352	0.11078227311373	-0.47867423295975	65.000000000000	0.00000000000000
25.620000839233	0.10940211266279	-0.47725549340248	65.000000000000	0.00000000000000
25.629999160767	0.10802665352821	-0.47582963109016	65.000000000000	0.00000000000000
25.639999389648	0.10665567964315	-0.47439670562744	65.000000000000	0.00000000000000
25.649999618530	0.10528902709484	-0.47295674681664	65.000000000000	0.00000000000000
25.659999847412	0.10392696410418	-0.47150975465775	65.000000000000	0.00000000000000
25.670000076294	0.10256976634264	-0.47005569934845	65.000000000000	0.00000000000000
25.680000305176	0.10121680051088	-0.46859472990036	65.000000000000	0.00000000000000
25.690000534058	0.099868558347225	-0.46712669730186	65.000000000000	0.00000000000000
25.700000762939	0.098525308072567	-0.46565172076225	65.000000000000	0.00000000000000
25.709999084473	0.097186878323555	-0.46416980028152	65.000000000000	0.00000000000000
25.719999313354	0.095853321254253	-0.46268090605736	65.000000000000	0.00000000000000
25.729999542236	0.094524443149567	-0.46118518710136	65.000000000000	0.00000000000000
25.739999771118	0.093200743198395	-0.45968255400658	65.000000000000	0.00000000000000
25.750000000000	0.091882035136223	-0.45817300677299	65.000000000000	0.00000000000000
25.760000228882	0.090568162500858	-0.45665672421455	65.000000000000	0.00000000000000
25.770000457764	0.089259803295135	-0.45513349771500	65.000000000000	0.00000000000000
25.780000686646	0.087956584990025	-0.45360350608826	65.000000000000	0.00000000000000
25.790000915527	0.086658321321011	-0.45206677913666	65.000000000000	0.00000000000000
25.799999237061	0.085365504026413	-0.45052328705788	65.000000000000	0.00000000000000
25.809999465942	0.084077961742878	-0.44897305965424	65.000000000000	0.00000000000000
25.819999694824	0.082795836031437	-0.44741612672806	65.000000000000	0.00000000000000
25.829999923706	0.081519283354282	-0.44585251808167	65.000000000000	0.00000000000000
25.840000152588	0.080248020589352	-0.44428226351738	65.000000000000	0.00000000000000
25.850000381470	0.078982420265675	-0.44270533323288	65.000000000000	0.00000000000000
25.860000610352	0.077722527086735	-0.44112187623978	65.000000000000	0.00000000000000
25.870000839233	0.076468169689178	-0.43953177332878	65.000000000000	0.00000000000000
25.879999160767	0.075219489634037	-0.43793520331383	65.000000000000	0.00000000000000
25.889999389648	0.073976643383503	-0.43633207678795	65.000000000000	0.00000000000000
25.899999618530	0.072739467024803	-0.43472248315811	65.000000000000	0.00000000000000
25.909999847412	0.071508206427097	-0.43310645222664	65.000000000000	0.00000000000000
25.920000076294	0.070282801985741	-0.43148398399353	65.000000000000	0.00000000000000
25.930000305176	0.069063402712345	-0.42985510826111	65.000000000000	0.00000000000000
25.940000534058	0.067850038409233	-0.42821988463402	65.000000000000	0.00000000000000
25.950000762939	0.066642768681049	-0.42657828330994	65.000000000000	0.00000000000000
25.959999084473	0.065441429615021	-0.42493045330048	65.000000000000	0.00000000000000
25.969999313354	0.064246349036694	-0.42327630519867	65.000000000000	0.00000000000000
25.979999542236	0.063057489693165	-0.42161595821381	65.000000000000	0.00000000000000
25.989999771118	0.061874780803919	-0.41994938254356	65.000000000000	0.00000000000000
26.000000000000	0.060698371380568	-0.41827669739723	65.000000000000	0.00000000000000
26.010000228882	0.059528291225433	-0.41659781336784	65.000000000000	0.00000000000000
26.020000457764	0.058364693075418	-0.41491287946701	65.000000000000	0.00000000000000
26.030000686646	0.057207506150007	-0.41322186589241	65.000000000000	0.00000000000000
26.040000915527	0.056056678295135	-0.41152480244637	65.000000000000	0.00000000000000
26.049999237061	0.054912552237511	-0.40982183814049	65.000000000000	0.00000000000000
26.059999465942	0.053774956613779	-0.40811285376549	65.000000000000	0.00000000000000
26.069999694824	0.052643951028585	-0.40639799833298	65.000000000000	0.00000000000000
26.079999923706	0.051519550383091	-0.40467721223831	65.000000000000	0.00000000000000
26.090000152588	0.050401806831360	-0.40295064449310	65.000000000000	0.00000000000000
26.100000381470	0.049290958791971	-0.40121826529503	65.000000000000	0.00000000000000
26.110000610352	0.048186842352152	-0.39948013424873	65.000000000000	0.00000000000000
26.120000839233	0.047089505940676	-0.39773631095886	65.000000000000	0.00000000000000
26.129999160767	0.045999165624380	-0.39598670601845	65.000000000000	0.00000000000000
26.139999389648	0.044915676116943	-0.39423158764839	65.000000000000	0.00000000000000
26.149999618530	0.043839264661074	-0.39247080683708	65.000000000000	0.00000000000000
26.159999847412	0.042769782245159	-0.39070451259613	65.000000000000	0.00000000000000
26.170000076294	0.041707351803780	-0.38893267512321	65.000000000000	0.00000000000000
26.180000305176	0.040652114897966	-0.38715541362762	65.000000000000	0.00000000000000
26.190000534058	0.039603821933270	-0.38537266850471	65.000000000000	0.00000000000000
26.200000762939	0.038562972098589	-0.38358455896378	65.000000000000	0.00000000000000
26.209999084473	0.037529047578573	-0.38179114460945	65.000000000000	0.00000000000000
26.219999313354	0.036502640694380	-0.37999239563942	65.000000000000	0.00000000000000
26.229999542236	0.035483412444592	-0.37818840146065	65.000000000000	0.00000000000000
26.239999771118	0.034471407532692	-0.37637919187546	65.000000000000	0.00000000000000
26.250000000000	0.033467020839453	-0.37456485629082	65.000000000000	0.00000000000000
26.260000228882	0.032469917088747	-0.37274536490440	65.000000000000	0.00000000000000
26.270000457764	0.031480323523283	-0.37092083692551	65.000000000000	0.00000000000000
26.280000686646	0.030498171225190	-0.36909127235413	65.000000000000	0.00000000000000
26.290000915527	0.029523596167564	-0.36725673079491	65.000000000000	0.00000000000000
26.299999237061	0.028556535020471	-0.36541724205017	65.000000000000	0.00000000000000
26.309999465942	0.027597110718489	-0.36357286572456	65.000000000000	0.00000000000000
26.319999694824	0.026645360514522	-0.36172366142273	65.000000000000	0.00000000000000
26.329999923706	0.025701219215989	-0.35986965894699	65.000000000000	0.00000000000000
26.340000152588	0.024764817208052	-0.35801094770432	65.000000000000	0.00000000000000
26.350000381470	0.023836176842451	-0.35614749789238	65.000000000000	0.00000000000000
26.360000610352	0.022915251553059	-0.35427942872047	65.000000000000	0.00000000000000
26.370000839233	0.022002242505550	-0.35240679979324	65.000000000000	0.00000000000000
26.379999160767	0.021097006276250	-0.35052958130836	65.000000000000	0.00000000000000
26.389999389648	0.020199663937092	-0.34864789247513	65.000000000000	0.00000000000000
26.399999618530	0.019310237839818	-0.34676170349121	65.000000000000	0.00000000000000
26.409999847412	0.018428765237331	-0.34487119317055	65.000000000000	0.00000000000000
26.420000076294	0.017555274069309	-0.34297630190849	65.000000000000	0.00000000000000
26.430000305176	0.016689792275429	-0.34107711911201	65.000000000000	0.00000000000000
26.440000534058	0.015832349658012	-0.33917370438576	65.000000000000	0.00000000000000
26.450000762939	0.014982976019382	-0.33726608753204	65.000000000000	0.00000000000000
26.459999084473	0.014141699299216	-0.33535438776016	65.000000000000	0.00000000000000
26.469999313354	0.013308546505868	-0.33343848586082	65.000000000000	0.00000000000000
26.479999542236	0.012483549304307	-0.33151865005493	65.000000000000	0.00000000000000
26.489999771118	0.011666731908917	-0.32959482073784	65.000000000000	0.00000000000000
26.500000000000	0.010858201421797	-0.32766702771187	65.000000000000	0.00000000000000
26.510000228882	0.010057904757559	-0.32573536038399	65.000000000000	0.00000000000000
26.520000457764	0.0092657934874296	-0.32379984855652	65.000000000000	0.00000000000000
26.530000686646	0.0084820482879877	-0.32186061143875	65.000000000000	0.00000000000000
26.540000915527	0.0077065406367183	-0.31991764903069	65.000000000000	0.00000000000000
26.549999237061	0.0069394498132169	-0.31797099113464	65.000000000000	0.00000000000000
26.559999465942	0.0061807264573872	-0.31602078676224	65.000000000000	0.00000000000000
26.569999694824	0.0054303933866322	-0.31406697630882	65.000000000000	0.00000000000000
26.579999923706	0.0046884031035006	-0.31210970878601	65.000000000000	0.00000000000000
26.590000152588	0.0039550024084747	-0.31014895439148	65.000000000000	0.00000000000000
26.600000381470	0.0032299191225320	-0.30818480253220	65.000000000000	0.00000000000000
26.610000610352	0.0025134726893157	-0.30621737241745	65.000000000000	0.00000000000000
26.620000839233	0.0018053937237710	-0.30424657464027	65.000000000000	0.00000000000000
26.629999160767	0.0011059970129281	-0.30227261781693	65.000000000000	0.00000000000000
26.639999389648	0.00041501611121930	-0.30029544234276	65.000000000000	0.00000000000000
26.649999618530	-0.00026738084852695	-0.29831519722939	65.000000000000	0.00000000000000
26.659999847412	-0.00094110076315701	-0.29633188247681	65.000000000000	0.00000000000000
26.670000076294	-0.0016062632203102	-0.29434555768967	65.000000000000	0.00000000000000
26.680000305176	-0.0022627750877291	-0.29235628247261	65.000000000000	0.00000000000000
26.690000534058	-0.0029106147121638	-0.29036408662796	65.000000000000	0.00000000000000
26.700000762939	-0.0035498300567269	-0.28836911916733	65.000000000000	0.00000000000000
26.709999084473	-0.0041802618652582	-0.28637132048607	65.000000000000	0.00000000000000
26.719999313354	-0.0048020947724581	-0.28437083959579	65.000000000000	0.00000000000000
26.729999542236	-0.0054151704534888	-0.28236767649651	65.000000000000	0.00000000000000
26.739999771118	-0.0060194698162377	-0.28036189079285	65.000000000000	0.00000000000000
26.750000000000	-0.0066151050850749	-0.27835357189178	65.000000000000	0.00000000000000
26.760000228882	-0.0072019235230982	-0.27634277939796	65.000000000000	0.00000000000000
26.770000457764	-0.0077799046412110	-0.27432948350906	65.000000000000	0.00000000000000
26.780000686646	-0.0083491606637836	-0.27231383323669	65.000000000000	0.00000000000000
26.790000915527	-0.0089095421135426	-0.27029591798782	65.000000000000	0.00000000000000
26.799999237061	-0.0094611579552293	-0.26827567815781	65.000000000000	0.00000000000000
26.809999465942	-0.010003987699747	-0.26625323295593	65.000000000000	0.00000000000000
26.819999694824	-0.010537886992097	-0.26422864198685	65.000000000000	0.00000000000000
26.829999923706	-0.011062898673117	-0.26220196485519	65.000000000000	0.00000000000000
26.840000152588	-0.011579068377614	-0.26017320156097	65.000000000000	0.00000000000000
26.850000381470	-0.012086379341781	-0.25814253091812	65.000000000000	0.00000000000000
26.860000610352	-0.012584807351232	-0.25610989332199	65.000000000000	0.00000000000000
26.870000839233	-0.013074276968837	-0.25407540798187	65.000000000000	0.00000000000000
26.879999160767	-0.013554952107370	-0.25203910470009	65.000000000000	0.00000000000000
26.889999389648	-0.014026571996510	-0.25000107288361	65.000000000000	0.00000000000000
26.899999618530	-0.014489360153675	-0.24796135723591	65.000000000000	0.00000000000000
26.909999847412	-0.014943178743124	-0.24591997265816	65.000000000000	0.00000000000000
26.920000076294	-0.015388010069728	-0.24387700855732	65.000000000000	0.00000000000000
26.930000305176	-0.015824012458324	-0.24183255434036	65.000000000000	0.00000000000000
26.940000534058	-0.016250994056463	-0.23978663980961	65.000000000000	0.00000000000000
26.950000762939	-0.016668992117047	-0.23773932456970	65.000000000000	0.00000000000000
26.959999084473	-0.017078049480915	-0.23569063842297	65.000000000000	0.00000000000000
26.969999313354	-0.017478093504906	-0.23364068567753	65.000000000000	0.00000000000000
26.979999542236	-0.017869215458632	-0.23158949613571	65.000000000000	0.00000000000000
26.989999771118	-0.018251344561577	-0.22953714430332	65.000000000000	0.00000000000000
27.000000000000	-0.018624516204000	-0.22748365998268	65.000000000000	0.00000000000000
27.010000228882	-0.018988659605384	-0.22542913258076	65.000000000000	0.00000000000000
27.020000457764	-0.019343864172697	-0.22337360680103	65.000000000000	0.00000000000000
27.030000686646	-0.019690057262778	-0.22131711244583	65.000000000000	0.00000000000000
27.040000915527	-0.020027227699757	-0.21925976872444	65.000000000000	0.00000000000000
27.049999237061	-0.020355455577374	-0.21720159053802	65.000000000000	0.00000000000000
27.059999465942	-0.020674673840404	-0.21514262259007	65.000000000000	0.00000000000000
27.069999694824	-0.020984916016459	-0.21308293938637	65.000000000000	0.00000000000000
27.079999923706	-0.021286163479090	-0.21102261543274	65.000000000000	0.00000000000000
27.090000152588	-0.021578447893262	-0.20896169543266	65.000000000000	0.00000000000000
27.100000381470	-0.021861698478460	-0.20690023899078	65.000000000000	0.00000000000000
27.110000610352	-0.022135999053717	-0.20483827590942	65.000000000000	0.00000000000000
27.120000839233	-0.022401276975870	-0.20277591049671	65.000000000000	0.00000000000000
27.129999160767	-0.022657616063952	-0.20071315765381	65.000000000000	0.00000000000000
27.139999389648	-0.022904941812158	-0.19865007698536	65.000000000000	0.00000000000000
27.149999618530	-0.023143380880356	-0.19658677279949	65.000000000000	0.00000000000000
27.159999847412	-0.023372765630484	-0.19452325999737	65.000000000000	0.00000000000000
27.170000076294	-0.023593220859766	-0.19245958328247	65.000000000000	0.00000000000000
27.180000305176	-0.023804767057300	-0.19039583206177	65.000000000000	0.00000000000000
27.190000534058	-0.024007292464375	-0.18833205103874	65.000000000000	0.00000000000000
27.200000762939	-0.024200906977057	-0.18626827001572	65.000000000000	0.00000000000000
27.209999084473	-0.024385591968894	-0.18420459330082	65.000000000000	0.00000000000000
27.219999313354	-0.024561276659369	-0.18214103579521	65.000000000000	0.00000000000000
27.229999542236	-0.024728111922741	-0.18007768690586	65.000000000000	0.00000000000000
27.239999771118	-0.024885982275009	-0.17801456153393	65.000000000000	0.00000000000000
27.250000000000	-0.025034995749593	-0.17595177888870	65.000000000000	0.00000000000000
27.260000228882	-0.025175116956234	-0.17388932406902	65.000000000000	0.00000000000000
27.270000457764	-0.025306286290288	-0.17182728648186	65.000000000000	0.00000000000000
27.280000686646	-0.025428630411625	-0.16976571083069	65.000000000000	0.00000000000000
27.290000915527	-0.025542084127665	-0.16770467162132	65.000000000000	0.00000000000000
27.299999237061	-0.025646653026342	-0.16564418375492	65.000000000000	0.00000000000000
