#Parameters = {d=0.20515075376885; l2=4.1030150753769; lambda=8.2060301507538; r=0.02764611557789}
#"Frequency / GHz"	"S1,1 (lambda=8.20603) [Re]"	"S1,1 (lambda=8.20603) [Im]"	"Ref.Imp. [Re]"	"Ref.Imp. [Im]"
#-----------------------------------------------------------------------------------------------------------
25.000000000000	0.66914886236191	-0.58627891540527	65.000000000000	0.00000000000000
25.010000228882	0.66837704181671	-0.58662909269333	65.000000000000	0.00000000000000
25.020000457764	0.66760313510895	-0.58697855472565	65.000000000000	0.00000000000000
25.030000686646	0.66682720184326	-0.58732748031616	65.000000000000	0.00000000000000
25.040000915527	0.66604924201965	-0.58767569065094	65.000000000000	0.00000000000000
25.049999237061	0.66526901721954	-0.58802330493927	65.000000000000	0.00000000000000
25.059999465942	0.66448682546616	-0.58837014436722	65.000000000000	0.00000000000000
25.069999694824	0.66370242834091	-0.58871638774872	65.000000000000	0.00000000000000
25.079999923706	0.66291594505310	-0.58906191587448	65.000000000000	0.00000000000000
25.090000152588	0.66212743520737	-0.58940678834915	65.000000000000	0.00000000000000
25.100000381470	0.66133677959442	-0.58975082635880	65.000000000000	0.00000000000000
25.110000610352	0.66054403781891	-0.59009420871735	65.000000000000	0.00000000000000
25.120000839233	0.65974920988083	-0.59043687582016	65.000000000000	0.00000000000000
25.129999160767	0.65895229578018	-0.59077870845795	65.000000000000	0.00000000000000
25.139999389648	0.65815305709839	-0.59111988544464	65.000000000000	0.00000000000000
25.149999618530	0.65735191106796	-0.59146022796631	65.000000000000	0.00000000000000
25.159999847412	0.65654861927032	-0.59179973602295	65.000000000000	0.00000000000000
25.170000076294	0.65574312210083	-0.59213852882385	65.000000000000	0.00000000000000
25.180000305176	0.65493547916412	-0.59247648715973	65.000000000000	0.00000000000000
25.190000534058	0.65412569046021	-0.59281355142593	65.000000000000	0.00000000000000
25.200000762939	0.65331399440765	-0.59314984083176	65.000000000000	0.00000000000000
25.209999084473	0.65249991416931	-0.59348523616791	65.000000000000	0.00000000000000
25.219999313354	0.65168374776840	-0.59381979703903	65.000000000000	0.00000000000000
25.229999542236	0.65086543560028	-0.59415352344513	65.000000000000	0.00000000000000
25.239999771118	0.65004509687424	-0.59448629617691	65.000000000000	0.00000000000000
25.250000000000	0.64922255277634	-0.59481829404831	65.000000000000	0.00000000000000
25.260000228882	0.64839786291122	-0.59514921903610	65.000000000000	0.00000000000000
25.270000457764	0.64757102727890	-0.59547924995422	65.000000000000	0.00000000000000
25.280000686646	0.64674204587936	-0.59580844640732	65.000000000000	0.00000000000000
25.290000915527	0.64591097831726	-0.59613674879074	65.000000000000	0.00000000000000
25.299999237061	0.64507770538330	-0.59646397829056	65.000000000000	0.00000000000000
25.309999465942	0.64424228668213	-0.59679025411606	65.000000000000	0.00000000000000
25.319999694824	0.64340472221375	-0.59711557626724	65.000000000000	0.00000000000000
25.329999923706	0.64256501197815	-0.59743994474411	65.000000000000	0.00000000000000
25.340000152588	0.64172315597534	-0.59776324033737	65.000000000000	0.00000000000000
25.350000381470	0.64087903499603	-0.59808558225632	65.000000000000	0.00000000000000
25.360000610352	0.64003282785416	-0.59840691089630	65.000000000000	0.00000000000000
25.370000839233	0.63918471336365	-0.59872716665268	65.000000000000	0.00000000000000
25.379999160767	0.63833421468735	-0.59904634952545	65.000000000000	0.00000000000000
25.389999389648	0.63748145103455	-0.59936457872391	65.000000000000	0.00000000000000
25.399999618530	0.63662672042847	-0.59968173503876	65.000000000000	0.00000000000000
25.409999847412	0.63576984405518	-0.59999769926071	65.000000000000	0.00000000000000
25.420000076294	0.63491076231003	-0.60031265020370	65.000000000000	0.00000000000000
25.430000305176	0.63404947519302	-0.60062646865845	65.000000000000	0.00000000000000
25.440000534058	0.63318622112274	-0.60093921422958	65.000000000000	0.00000000000000
25.450000762939	0.63232052326202	-0.60125112533569	65.000000000000	0.00000000000000
25.459999084473	0.63145303726196	-0.60156130790710	65.000000000000	0.00000000000000
25.469999313354	0.63058292865753	-0.60187089443207	65.000000000000	0.00000000000000
25.479999542236	0.62971121072769	-0.60217887163162	65.000000000000	0.00000000000000
25.489999771118	0.62883710861206	-0.60248583555222	65.000000000000	0.00000000000000
25.500000000000	0.62796068191528	-0.60279172658920	65.000000000000	0.00000000000000
25.510000228882	0.62708228826523	-0.60309636592865	65.000000000000	0.00000000000000
25.520000457764	0.62620186805725	-0.60339969396591	65.000000000000	0.00000000000000
25.530000686646	0.62531876564026	-0.60370218753815	65.000000000000	0.00000000000000
25.540000915527	0.62443399429321	-0.60400313138962	65.000000000000	0.00000000000000
25.549999237061	0.62354695796967	-0.60430294275284	65.000000000000	0.00000000000000
25.559999465942	0.62265759706497	-0.60460168123245	65.000000000000	0.00000000000000
25.569999694824	0.62176644802094	-0.60489875078201	65.000000000000	0.00000000000000
25.579999923706	0.62087273597717	-0.60519504547119	65.000000000000	0.00000000000000
25.590000152588	0.61997705698013	-0.60548985004425	65.000000000000	0.00000000000000
25.600000381470	0.61907929182053	-0.60578334331512	65.000000000000	0.00000000000000
25.610000610352	0.61817926168442	-0.60607564449310	65.000000000000	0.00000000000000
25.620000839233	0.61727720499039	-0.60636651515961	65.000000000000	0.00000000000000
25.629999160767	0.61637312173843	-0.60665595531464	65.000000000000	0.00000000000000
25.639999389648	0.61546677350998	-0.60694420337677	65.000000000000	0.00000000000000
25.649999618530	0.61455804109573	-0.60723137855530	65.000000000000	0.00000000000000
25.659999847412	0.61364740133286	-0.60751694440842	65.000000000000	0.00000000000000
25.670000076294	0.61273437738419	-0.60780143737793	65.000000000000	0.00000000000000
25.680000305176	0.61181962490082	-0.60808408260345	65.000000000000	0.00000000000000
25.690000534058	0.61090236902237	-0.60836583375931	65.000000000000	0.00000000000000
25.700000762939	0.60998308658600	-0.60864603519440	65.000000000000	0.00000000000000
25.709999084473	0.60906171798706	-0.60892480611801	65.000000000000	0.00000000000000
25.719999313354	0.60813808441162	-0.60920214653015	65.000000000000	0.00000000000000
25.729999542236	0.60721248388290	-0.60947811603546	65.000000000000	0.00000000000000
25.739999771118	0.60628485679626	-0.60975247621536	65.000000000000	0.00000000000000
25.750000000000	0.60535472631454	-0.61002582311630	65.000000000000	0.00000000000000
25.760000228882	0.60442274808884	-0.61029738187790	65.000000000000	0.00000000000000
25.770000457764	0.60348850488663	-0.61056756973267	65.000000000000	0.00000000000000
25.780000686646	0.60255205631256	-0.61083650588989	65.000000000000	0.00000000000000
25.790000915527	0.60161358118057	-0.61110365390778	65.000000000000	0.00000000000000
25.799999237061	0.60067296028137	-0.61136949062347	65.000000000000	0.00000000000000
25.809999465942	0.59973031282425	-0.61163377761841	65.000000000000	0.00000000000000
25.819999694824	0.59878540039063	-0.61189663410187	65.000000000000	0.00000000000000
25.829999923706	0.59783840179443	-0.61215794086456	65.000000000000	0.00000000000000
25.840000152588	0.59688919782639	-0.61241775751114	65.000000000000	0.00000000000000
25.850000381470	0.59593802690506	-0.61267608404160	65.000000000000	0.00000000000000
25.860000610352	0.59498465061188	-0.61293280124664	65.000000000000	0.00000000000000
25.870000839233	0.59402912855148	-0.61318796873093	65.000000000000	0.00000000000000
25.879999160767	0.59307146072388	-0.61344158649445	65.000000000000	0.00000000000000
25.889999389648	0.59211182594299	-0.61369365453720	65.000000000000	0.00000000000000
25.899999618530	0.59114998579025	-0.61394417285919	65.000000000000	0.00000000000000
25.909999847412	0.59018594026566	-0.61419308185577	65.000000000000	0.00000000000000
25.920000076294	0.58921992778778	-0.61444038152695	65.000000000000	0.00000000000000
25.930000305176	0.58825176954269	-0.61468607187271	65.000000000000	0.00000000000000
25.940000534058	0.58728140592575	-0.61493021249771	65.000000000000	0.00000000000000
25.950000762939	0.58630901575089	-0.61517268419266	65.000000000000	0.00000000000000
25.959999084473	0.58533447980881	-0.61541342735291	65.000000000000	0.00000000000000
25.969999313354	0.58435779809952	-0.61565268039703	65.000000000000	0.00000000000000
25.979999542236	0.58337908983231	-0.61589020490646	65.000000000000	0.00000000000000
25.989999771118	0.58239811658859	-0.61612606048584	65.000000000000	0.00000000000000
26.000000000000	0.58141523599625	-0.61636030673981	65.000000000000	0.00000000000000
26.010000228882	0.58043009042740	-0.61659288406372	65.000000000000	0.00000000000000
26.020000457764	0.57944297790527	-0.61682367324829	65.000000000000	0.00000000000000
26.030000686646	0.57845360040665	-0.61705273389816	65.000000000000	0.00000000000000
26.040000915527	0.57746219635010	-0.61728018522263	65.000000000000	0.00000000000000
26.049999237061	0.57646882534027	-0.61750590801239	65.000000000000	0.00000000000000
26.059999465942	0.57547307014465	-0.61772990226746	65.000000000000	0.00000000000000
26.069999694824	0.57447534799576	-0.61795216798782	65.000000000000	0.00000000000000
26.079999923706	0.57347559928894	-0.61817264556885	65.000000000000	0.00000000000000
26.090000152588	0.57247376441956	-0.61839139461517	65.000000000000	0.00000000000000
26.100000381470	0.57146978378296	-0.61860841512680	65.000000000000	0.00000000000000
26.110000610352	0.57046365737915	-0.61882358789444	65.000000000000	0.00000000000000
26.120000839233	0.56945556402206	-0.61903697252274	65.000000000000	0.00000000000000
26.129999160767	0.56844508647919	-0.61924856901169	65.000000000000	0.00000000000000
26.139999389648	0.56743276119232	-0.61945843696594	65.000000000000	0.00000000000000
26.149999618530	0.56641846895218	-0.61966645717621	65.000000000000	0.00000000000000
26.159999847412	0.56540185213089	-0.61987262964249	65.000000000000	0.00000000000000
26.170000076294	0.56438314914703	-0.62007695436478	65.000000000000	0.00000000000000
26.180000305176	0.56336241960526	-0.62027943134308	65.000000000000	0.00000000000000
26.190000534058	0.56233960390091	-0.62048012018204	65.000000000000	0.00000000000000
26.200000762939	0.56131476163864	-0.62067890167236	65.000000000000	0.00000000000000
26.209999084473	0.56028783321381	-0.62087577581406	65.000000000000	0.00000000000000
26.219999313354	0.55925875902176	-0.62107080221176	65.000000000000	0.00000000000000
26.229999542236	0.55822765827179	-0.62126398086548	65.000000000000	0.00000000000000
26.239999771118	0.55719447135925	-0.62145525217056	65.000000000000	0.00000000000000
26.250000000000	0.55615913867950	-0.62164449691772	65.000000000000	0.00000000000000
26.260000228882	0.55512171983719	-0.62183195352554	65.000000000000	0.00000000000000
26.270000457764	0.55408233404160	-0.62201744318008	65.000000000000	0.00000000000000
26.280000686646	0.55304086208344	-0.62220096588135	65.000000000000	0.00000000000000
26.290000915527	0.55199730396271	-0.62238252162933	65.000000000000	0.00000000000000
26.299999237061	0.55095154047012	-0.62256217002869	65.000000000000	0.00000000000000
26.309999465942	0.54990386962891	-0.62273985147476	65.000000000000	0.00000000000000
26.319999694824	0.54885405302048	-0.62291556596756	65.000000000000	0.00000000000000
26.329999923706	0.54780226945877	-0.62308919429779	65.000000000000	0.00000000000000
26.340000152588	0.54674828052521	-0.62326091527939	65.000000000000	0.00000000000000
26.350000381470	0.54569214582443	-0.62343055009842	65.000000000000	0.00000000000000
26.360000610352	0.54463416337967	-0.62359821796417	65.000000000000	0.00000000000000
26.370000839233	0.54357403516769	-0.62376379966736	65.000000000000	0.00000000000000
26.379999160767	0.54251176118851	-0.62392747402191	65.000000000000	0.00000000000000
26.389999389648	0.54144752025604	-0.62408894300461	65.000000000000	0.00000000000000
26.399999618530	0.54038119316101	-0.62424844503403	65.000000000000	0.00000000000000
26.409999847412	0.53931283950806	-0.62440586090088	65.000000000000	0.00000000000000
26.420000076294	0.53824239969254	-0.62456119060516	65.000000000000	0.00000000000000
26.430000305176	0.53716999292374	-0.62471443414688	65.000000000000	0.00000000000000
26.440000534058	0.53609538078308	-0.62486547231674	65.000000000000	0.00000000000000
26.450000762939	0.53501874208450	-0.62501448392868	65.000000000000	0.00000000000000
26.459999084473	0.53394007682800	-0.62516140937805	65.000000000000	0.00000000000000
26.469999313354	0.53285944461823	-0.62530612945557	65.000000000000	0.00000000000000
26.479999542236	0.53177666664124	-0.62544876337051	65.000000000000	0.00000000000000
26.489999771118	0.53069186210632	-0.62558925151825	65.000000000000	0.00000000000000
26.500000000000	0.52960503101349	-0.62572747468948	65.000000000000	0.00000000000000
26.510000228882	0.52851611375809	-0.62586355209351	65.000000000000	0.00000000000000
26.520000457764	0.52742511034012	-0.62599754333496	65.000000000000	0.00000000000000
26.530000686646	0.52633213996887	-0.62612920999527	65.000000000000	0.00000000000000
26.540000915527	0.52523714303970	-0.62625873088837	65.000000000000	0.00000000000000
26.549999237061	0.52414011955261	-0.62638598680496	65.000000000000	0.00000000000000
26.559999465942	0.52304100990295	-0.62651115655899	65.000000000000	0.00000000000000
26.569999694824	0.52193987369537	-0.62663394212723	65.000000000000	0.00000000000000
26.579999923706	0.52083671092987	-0.62675452232361	65.000000000000	0.00000000000000
26.590000152588	0.51973146200180	-0.62687277793884	65.000000000000	0.00000000000000
26.600000381470	0.51862424612045	-0.62698882818222	65.000000000000	0.00000000000000
26.610000610352	0.51751494407654	-0.62710255384445	65.000000000000	0.00000000000000
26.620000839233	0.51640361547470	-0.62721401453018	65.000000000000	0.00000000000000
26.629999160767	0.51529031991959	-0.62732321023941	65.000000000000	0.00000000000000
26.639999389648	0.51417505741119	-0.62742996215820	65.000000000000	0.00000000000000
26.649999618530	0.51305764913559	-0.62753444910049	65.000000000000	0.00000000000000
26.659999847412	0.51193821430206	-0.62763655185699	65.000000000000	0.00000000000000
26.670000076294	0.51081687211990	-0.62773638963699	65.000000000000	0.00000000000000
26.680000305176	0.50969350337982	-0.62783378362656	65.000000000000	0.00000000000000
26.690000534058	0.50856798887253	-0.62792885303497	65.000000000000	0.00000000000000
26.700000762939	0.50744050741196	-0.62802141904831	65.000000000000	0.00000000000000
26.709999084473	0.50631093978882	-0.62811172008514	65.000000000000	0.00000000000000
26.719999313354	0.50517952442169	-0.62819951772690	65.000000000000	0.00000000000000
26.729999542236	0.50404602289200	-0.62828493118286	65.000000000000	0.00000000000000
26.739999771118	0.50291061401367	-0.62836790084839	65.000000000000	0.00000000000000
26.750000000000	0.50177299976349	-0.62844842672348	65.000000000000	0.00000000000000
26.760000228882	0.50063347816467	-0.62852650880814	65.000000000000	0.00000000000000
26.770000457764	0.49949210882187	-0.62860208749771	65.000000000000	0.00000000000000
26.780000686646	0.49834853410721	-0.62867522239685	65.000000000000	0.00000000000000
26.790000915527	0.49720311164856	-0.62874579429626	65.000000000000	0.00000000000000
26.799999237061	0.49605557322502	-0.62881386280060	65.000000000000	0.00000000000000
26.809999465942	0.49490606784821	-0.62887942790985	65.000000000000	0.00000000000000
26.819999694824	0.49375459551811	-0.62894248962402	65.000000000000	0.00000000000000
26.829999923706	0.49260118603706	-0.62900298833847	65.000000000000	0.00000000000000
26.840000152588	0.49144563078880	-0.62906092405319	65.000000000000	0.00000000000000
26.850000381470	0.49028828740120	-0.62911623716354	65.000000000000	0.00000000000000
26.860000610352	0.48912897706032	-0.62916898727417	65.000000000000	0.00000000000000
26.870000839233	0.48796766996384	-0.62921929359436	65.000000000000	0.00000000000000
26.879999160767	0.48680418729782	-0.62926679849625	65.000000000000	0.00000000000000
26.889999389648	0.48563891649246	-0.62931174039841	65.000000000000	0.00000000000000
26.899999618530	0.48447158932686	-0.62935405969620	65.000000000000	0.00000000000000
26.909999847412	0.48330238461494	-0.62939369678497	65.000000000000	0.00000000000000
26.920000076294	0.48213124275208	-0.62943071126938	65.000000000000	0.00000000000000
26.930000305176	0.48095801472664	-0.62946504354477	65.000000000000	0.00000000000000
26.940000534058	0.47978287935257	-0.62949675321579	65.000000000000	0.00000000000000
26.950000762939	0.47860586643219	-0.62952560186386	65.000000000000	0.00000000000000
26.959999084473	0.47742697596550	-0.62955188751221	65.000000000000	0.00000000000000
26.969999313354	0.47624585032463	-0.62957531213760	65.000000000000	0.00000000000000
26.979999542236	0.47506302595139	-0.62959611415863	65.000000000000	0.00000000000000
26.989999771118	0.47387832403183	-0.62961411476135	65.000000000000	0.00000000000000
27.000000000000	0.47269144654274	-0.62962931394577	65.000000000000	0.00000000000000
27.010000228882	0.47150269150734	-0.62964177131653	65.000000000000	0.00000000000000
27.020000457764	0.47031208872795	-0.62965142726898	65.000000000000	0.00000000000000
27.030000686646	0.46911960840225	-0.62965828180313	65.000000000000	0.00000000000000
27.040000915527	0.46792519092560	-0.62966239452362	65.000000000000	0.00000000000000
27.049999237061	0.46672868728638	-0.62966352701187	65.000000000000	0.00000000000000
27.059999465942	0.46553042531013	-0.62966191768646	65.000000000000	0.00000000000000
27.069999694824	0.46433016657829	-0.62965744733810	65.000000000000	0.00000000000000
27.079999923706	0.46312806010246	-0.62964999675751	65.000000000000	0.00000000000000
27.090000152588	0.46192416548729	-0.62963980436325	65.000000000000	0.00000000000000
27.100000381470	0.46071830391884	-0.62962657213211	65.000000000000	0.00000000000000
27.110000610352	0.45951047539711	-0.62961047887802	65.000000000000	0.00000000000000
27.120000839233	0.45830070972443	-0.62959140539169	65.000000000000	0.00000000000000
27.129999160767	0.45708918571472	-0.62956953048706	65.000000000000	0.00000000000000
27.139999389648	0.45587584376335	-0.62954461574554	65.000000000000	0.00000000000000
27.149999618530	0.45466056466103	-0.62951666116714	65.000000000000	0.00000000000000
27.159999847412	0.45344337821007	-0.62948578596115	65.000000000000	0.00000000000000
27.170000076294	0.45222428441048	-0.62945193052292	65.000000000000	0.00000000000000
27.180000305176	0.45100346207619	-0.62941497564316	65.000000000000	0.00000000000000
27.190000534058	0.44978067278862	-0.62937504053116	65.000000000000	0.00000000000000
27.200000762939	0.44855600595474	-0.62933200597763	65.000000000000	0.00000000000000
27.209999084473	0.44732961058617	-0.62928599119186	65.000000000000	0.00000000000000
27.219999313354	0.44610133767128	-0.62923687696457	65.000000000000	0.00000000000000
27.229999542236	0.44487124681473	-0.62918466329575	65.000000000000	0.00000000000000
27.239999771118	0.44363936781883	-0.62912935018539	65.000000000000	0.00000000000000
27.250000000000	0.44240570068359	-0.62907093763351	65.000000000000	0.00000000000000
27.260000228882	0.44117012619972	-0.62900930643082	65.000000000000	0.00000000000000
27.270000457764	0.43993273377419	-0.62894463539124	65.000000000000	0.00000000000000
27.280000686646	0.43869352340698	-0.62887680530548	65.000000000000	0.00000000000000
27.290000915527	0.43745258450508	-0.62880569696426	65.000000000000	0.00000000000000
27.299999237061	0.43620970845222	-0.62873142957687	65.000000000000	0.00000000000000
27.309999465942	0.43496519327164	-0.62865400314331	65.000000000000	0.00000000000000
27.319999694824	0.43371883034706	-0.62857329845428	65.000000000000	0.00000000000000
27.329999923706	0.43247085809708	-0.62848937511444	65.000000000000	0.00000000000000
