#Parameters = {d=0.23429648241206; l2=4.6859296482412; lambda=9.3718592964824; r=0.031573793969849}
#"Frequency / GHz"	"S1,1 (lambda=9.37186) [Re]"	"S1,1 (lambda=9.37186) [Im]"	"Ref.Imp. [Re]"	"Ref.Imp. [Im]"
#-----------------------------------------------------------------------------------------------------------
25.000000000000	0.27494615316391	-0.59029793739319	65.000000000000	0.00000000000000
25.010000228882	0.27339854836464	-0.58964228630066	65.000000000000	0.00000000000000
25.020000457764	0.27185088396072	-0.58898073434830	65.000000000000	0.00000000000000
25.030000686646	0.27030307054520	-0.58831322193146	65.000000000000	0.00000000000000
25.040000915527	0.26875483989716	-0.58763986825943	65.000000000000	0.00000000000000
25.049999237061	0.26720649003983	-0.58696055412292	65.000000000000	0.00000000000000
25.059999465942	0.26565805077553	-0.58627521991730	65.000000000000	0.00000000000000
25.069999694824	0.26410940289497	-0.58558380603790	65.000000000000	0.00000000000000
25.079999923706	0.26256057620049	-0.58488643169403	65.000000000000	0.00000000000000
25.090000152588	0.26101189851761	-0.58418303728104	65.000000000000	0.00000000000000
25.100000381470	0.25946295261383	-0.58347356319427	65.000000000000	0.00000000000000
25.110000610352	0.25791391730309	-0.58275794982910	65.000000000000	0.00000000000000
25.120000839233	0.25636509060860	-0.58203619718552	65.000000000000	0.00000000000000
25.129999160767	0.25481593608856	-0.58130836486816	65.000000000000	0.00000000000000
25.139999389648	0.25326704978943	-0.58057421445847	65.000000000000	0.00000000000000
25.149999618530	0.25171834230423	-0.57983404397964	65.000000000000	0.00000000000000
25.159999847412	0.25016966462135	-0.57908755540848	65.000000000000	0.00000000000000
25.170000076294	0.24862091243267	-0.57833486795425	65.000000000000	0.00000000000000
25.180000305176	0.24707256257534	-0.57757586240768	65.000000000000	0.00000000000000
25.190000534058	0.24552437663078	-0.57681065797806	65.000000000000	0.00000000000000
25.200000762939	0.24397630989552	-0.57603907585144	65.000000000000	0.00000000000000
25.209999084473	0.24242846667767	-0.57526117563248	65.000000000000	0.00000000000000
25.219999313354	0.24088098108768	-0.57447695732117	65.000000000000	0.00000000000000
25.229999542236	0.23933373391628	-0.57368630170822	65.000000000000	0.00000000000000
25.239999771118	0.23778691887856	-0.57288926839828	65.000000000000	0.00000000000000
25.250000000000	0.23624043166637	-0.57208585739136	65.000000000000	0.00000000000000
25.260000228882	0.23469433188438	-0.57127600908279	65.000000000000	0.00000000000000
25.270000457764	0.23314858973026	-0.57045978307724	65.000000000000	0.00000000000000
25.280000686646	0.23160380125046	-0.56963682174683	65.000000000000	0.00000000000000
25.290000915527	0.23005889356136	-0.56880754232407	65.000000000000	0.00000000000000
25.299999237061	0.22851474583149	-0.56797170639038	65.000000000000	0.00000000000000
25.309999465942	0.22697113454342	-0.56712931394577	65.000000000000	0.00000000000000
25.319999694824	0.22542807459831	-0.56628048419952	65.000000000000	0.00000000000000
25.329999923706	0.22388584911823	-0.56542491912842	65.000000000000	0.00000000000000
25.340000152588	0.22234421968460	-0.56456273794174	65.000000000000	0.00000000000000
25.350000381470	0.22080326080322	-0.56369405984879	65.000000000000	0.00000000000000
25.360000610352	0.21926325559616	-0.56281858682632	65.000000000000	0.00000000000000
25.370000839233	0.21772398054600	-0.56193655729294	65.000000000000	0.00000000000000
25.379999160767	0.21618542075157	-0.56104785203934	65.000000000000	0.00000000000000
25.389999389648	0.21464768052101	-0.56015253067017	65.000000000000	0.00000000000000
25.399999618530	0.21311101317406	-0.55925035476685	65.000000000000	0.00000000000000
25.409999847412	0.21157519519329	-0.55834156274796	65.000000000000	0.00000000000000
25.420000076294	0.21004053950310	-0.55742591619492	65.000000000000	0.00000000000000
25.430000305176	0.20850683748722	-0.55650353431702	65.000000000000	0.00000000000000
25.440000534058	0.20697407424450	-0.55557441711426	65.000000000000	0.00000000000000
25.450000762939	0.20544233918190	-0.55463856458664	65.000000000000	0.00000000000000
25.459999084473	0.20391213893890	-0.55369573831558	65.000000000000	0.00000000000000
25.469999313354	0.20238278806210	-0.55274623632431	65.000000000000	0.00000000000000
25.479999542236	0.20085476338863	-0.55178976058960	65.000000000000	0.00000000000000
25.489999771118	0.19932794570923	-0.55082660913467	65.000000000000	0.00000000000000
25.500000000000	0.19780252873898	-0.54985642433167	65.000000000000	0.00000000000000
25.510000228882	0.19627839326859	-0.54887950420380	65.000000000000	0.00000000000000
25.520000457764	0.19475571811199	-0.54789555072784	65.000000000000	0.00000000000000
25.530000686646	0.19323466718197	-0.54690474271774	65.000000000000	0.00000000000000
25.540000915527	0.19171494245529	-0.54590702056885	65.000000000000	0.00000000000000
25.549999237061	0.19019657373428	-0.54490244388580	65.000000000000	0.00000000000000
25.559999465942	0.18867991864681	-0.54389089345932	65.000000000000	0.00000000000000
25.569999694824	0.18716494739056	-0.54287230968475	65.000000000000	0.00000000000000
25.579999923706	0.18565149605274	-0.54184687137604	65.000000000000	0.00000000000000
25.590000152588	0.18414010107517	-0.54081428050995	65.000000000000	0.00000000000000
25.600000381470	0.18263000249863	-0.53977489471436	65.000000000000	0.00000000000000
25.610000610352	0.18112179636955	-0.53872847557068	65.000000000000	0.00000000000000
25.620000839233	0.17961576581001	-0.53767490386963	65.000000000000	0.00000000000000
25.629999160767	0.17811116576195	-0.53661459684372	65.000000000000	0.00000000000000
25.639999389648	0.17660908401012	-0.53554695844650	65.000000000000	0.00000000000000
25.649999618530	0.17510826885700	-0.53447258472443	65.000000000000	0.00000000000000
25.659999847412	0.17361003160477	-0.53339093923569	65.000000000000	0.00000000000000
25.670000076294	0.17211367189884	-0.53230237960815	65.000000000000	0.00000000000000
25.680000305176	0.17061944305897	-0.53120672702789	65.000000000000	0.00000000000000
25.690000534058	0.16912743449211	-0.53010404109955	65.000000000000	0.00000000000000
25.700000762939	0.16763766109943	-0.52899426221848	65.000000000000	0.00000000000000
25.709999084473	0.16615016758442	-0.52787744998932	65.000000000000	0.00000000000000
25.719999313354	0.16466526687145	-0.52675348520279	65.000000000000	0.00000000000000
25.729999542236	0.16318218410015	-0.52562254667282	65.000000000000	0.00000000000000
25.739999771118	0.16170153021812	-0.52448457479477	65.000000000000	0.00000000000000
25.750000000000	0.16022381186485	-0.52333939075470	65.000000000000	0.00000000000000
25.760000228882	0.15874834358692	-0.52218717336655	65.000000000000	0.00000000000000
25.770000457764	0.15727542340755	-0.52102792263031	65.000000000000	0.00000000000000
25.780000686646	0.15580530464649	-0.51986151933670	65.000000000000	0.00000000000000
25.790000915527	0.15433754026890	-0.51868808269501	65.000000000000	0.00000000000000
25.799999237061	0.15287257730961	-0.51750755310059	65.000000000000	0.00000000000000
25.809999465942	0.15141041576862	-0.51631987094879	65.000000000000	0.00000000000000
25.819999694824	0.14995114505291	-0.51512515544891	65.000000000000	0.00000000000000
25.829999923706	0.14849452674389	-0.51392328739166	65.000000000000	0.00000000000000
25.840000152588	0.14704099297523	-0.51271450519562	65.000000000000	0.00000000000000
25.850000381470	0.14559033513069	-0.51149851083755	65.000000000000	0.00000000000000
25.860000610352	0.14414282143116	-0.51027536392212	65.000000000000	0.00000000000000
25.870000839233	0.14269825816154	-0.50904524326324	65.000000000000	0.00000000000000
25.879999160767	0.14125683903694	-0.50780802965164	65.000000000000	0.00000000000000
25.889999389648	0.13981845974922	-0.50656378269196	65.000000000000	0.00000000000000
25.899999618530	0.13838353753090	-0.50531238317490	65.000000000000	0.00000000000000
25.909999847412	0.13695172965527	-0.50405395030975	65.000000000000	0.00000000000000
25.920000076294	0.13552321493626	-0.50278848409653	65.000000000000	0.00000000000000
25.930000305176	0.13409817218781	-0.50151598453522	65.000000000000	0.00000000000000
25.940000534058	0.13267639279366	-0.50023639202118	65.000000000000	0.00000000000000
25.950000762939	0.13125815987587	-0.49894982576370	65.000000000000	0.00000000000000
25.959999084473	0.12984338402748	-0.49765616655350	65.000000000000	0.00000000000000
25.969999313354	0.12843225896358	-0.49635550379753	65.000000000000	0.00000000000000
25.979999542236	0.12702479958534	-0.49504789710045	65.000000000000	0.00000000000000
25.989999771118	0.12562081217766	-0.49373319745064	65.000000000000	0.00000000000000
26.000000000000	0.12422072142363	-0.49241155385971	65.000000000000	0.00000000000000
26.010000228882	0.12282441556454	-0.49108290672302	65.000000000000	0.00000000000000
26.020000457764	0.12143184989691	-0.48974722623825	65.000000000000	0.00000000000000
26.030000686646	0.12004317343235	-0.48840469121933	65.000000000000	0.00000000000000
26.040000915527	0.11865843087435	-0.48705512285233	65.000000000000	0.00000000000000
26.049999237061	0.11727755516768	-0.48569869995117	65.000000000000	0.00000000000000
26.059999465942	0.11590092629194	-0.48433524370193	65.000000000000	0.00000000000000
26.069999694824	0.11452825367451	-0.48296499252319	65.000000000000	0.00000000000000
26.079999923706	0.11315967887640	-0.48158776760101	65.000000000000	0.00000000000000
26.090000152588	0.11179526895285	-0.48020365834236	65.000000000000	0.00000000000000
26.100000381470	0.11043515801430	-0.47881266474724	65.000000000000	0.00000000000000
26.110000610352	0.10907927900553	-0.47741487622261	65.000000000000	0.00000000000000
26.120000839233	0.10772780328989	-0.47601020336151	65.000000000000	0.00000000000000
26.129999160767	0.10638064891100	-0.47459870576859	65.000000000000	0.00000000000000
26.139999389648	0.10503786057234	-0.47318044304848	65.000000000000	0.00000000000000
26.149999618530	0.10369972139597	-0.47175535559654	65.000000000000	0.00000000000000
26.159999847412	0.10236603021622	-0.47032347321510	65.000000000000	0.00000000000000
26.170000076294	0.10103694349527	-0.46888491511345	65.000000000000	0.00000000000000
26.180000305176	0.099712401628494	-0.46743953227997	65.000000000000	0.00000000000000
26.190000534058	0.098392657935619	-0.46598747372627	65.000000000000	0.00000000000000
26.200000762939	0.097077645361423	-0.46452873945236	65.000000000000	0.00000000000000
26.209999084473	0.095767423510551	-0.46306332945824	65.000000000000	0.00000000000000
26.219999313354	0.094461910426617	-0.46159127354622	65.000000000000	0.00000000000000
26.229999542236	0.093161374330521	-0.46011251211166	65.000000000000	0.00000000000000
26.239999771118	0.091865845024586	-0.45862719416618	65.000000000000	0.00000000000000
26.250000000000	0.090575158596039	-0.45713528990746	65.000000000000	0.00000000000000
26.260000228882	0.089289575815201	-0.45563676953316	65.000000000000	0.00000000000000
26.270000457764	0.088009133934975	-0.45413178205490	65.000000000000	0.00000000000000
26.280000686646	0.086733646690845	-0.45262020826340	65.000000000000	0.00000000000000
26.290000915527	0.085463389754295	-0.45110222697258	65.000000000000	0.00000000000000
26.299999237061	0.084198512136936	-0.44957765936852	65.000000000000	0.00000000000000
26.309999465942	0.082938715815544	-0.44804674386978	65.000000000000	0.00000000000000
26.319999694824	0.081684373319149	-0.44650936126709	65.000000000000	0.00000000000000
26.329999923706	0.080435432493687	-0.44496560096741	65.000000000000	0.00000000000000
26.340000152588	0.079191803932190	-0.44341543316841	65.000000000000	0.00000000000000
26.350000381470	0.077953644096851	-0.44185897707939	65.000000000000	0.00000000000000
26.360000610352	0.076720997691154	-0.44029620289803	65.000000000000	0.00000000000000
26.370000839233	0.075493901968002	-0.43872711062431	65.000000000000	0.00000000000000
26.379999160767	0.074272491037846	-0.43715178966522	65.000000000000	0.00000000000000
26.389999389648	0.073056727647781	-0.43557026982307	65.000000000000	0.00000000000000
26.399999618530	0.071846619248390	-0.43398249149323	65.000000000000	0.00000000000000
26.409999847412	0.070642232894897	-0.43238857388496	65.000000000000	0.00000000000000
26.420000076294	0.069443695247173	-0.43078848719597	65.000000000000	0.00000000000000
26.430000305176	0.068250954151154	-0.42918235063553	65.000000000000	0.00000000000000
26.440000534058	0.067064240574837	-0.42757007479668	65.000000000000	0.00000000000000
26.450000762939	0.065883293747902	-0.42595180869102	65.000000000000	0.00000000000000
26.459999084473	0.064708255231380	-0.42432752251625	65.000000000000	0.00000000000000
26.469999313354	0.063539363443851	-0.42269721627235	65.000000000000	0.00000000000000
26.479999542236	0.062376566231251	-0.42106097936630	65.000000000000	0.00000000000000
26.489999771118	0.061219785362482	-0.41941884160042	65.000000000000	0.00000000000000
26.500000000000	0.060069162398577	-0.41777083277702	65.000000000000	0.00000000000000
26.510000228882	0.058924742043018	-0.41611692309380	65.000000000000	0.00000000000000
26.520000457764	0.057786658406258	-0.41445726156235	65.000000000000	0.00000000000000
26.530000686646	0.056654751300812	-0.41279178857803	65.000000000000	0.00000000000000
26.540000915527	0.055529154837132	-0.41112062335014	65.000000000000	0.00000000000000
26.549999237061	0.054410006850958	-0.40944370627403	65.000000000000	0.00000000000000
26.559999465942	0.053297247737646	-0.40776112675667	65.000000000000	0.00000000000000
26.569999694824	0.052190802991390	-0.40607291460037	65.000000000000	0.00000000000000
26.579999923706	0.051091019064188	-0.40437909960747	65.000000000000	0.00000000000000
26.590000152588	0.049997627735138	-0.40267971158028	65.000000000000	0.00000000000000
26.600000381470	0.048910956829786	-0.40097483992577	65.000000000000	0.00000000000000
26.610000610352	0.047830760478973	-0.39926445484161	65.000000000000	0.00000000000000
26.620000839233	0.046757351607084	-0.39754864573479	65.000000000000	0.00000000000000
26.629999160767	0.045690484344959	-0.39582741260529	65.000000000000	0.00000000000000
26.639999389648	0.044630486518145	-0.39410081505775	65.000000000000	0.00000000000000
26.649999618530	0.043577186763287	-0.39236888289452	65.000000000000	0.00000000000000
26.659999847412	0.042530722916126	-0.39063167572021	65.000000000000	0.00000000000000
26.670000076294	0.041491035372019	-0.38888922333717	65.000000000000	0.00000000000000
26.680000305176	0.040458340197802	-0.38714158535004	65.000000000000	0.00000000000000
26.690000534058	0.039432585239410	-0.38538873195648	65.000000000000	0.00000000000000
26.700000762939	0.038413703441620	-0.38363078236580	65.000000000000	0.00000000000000
26.709999084473	0.037401821464300	-0.38186776638031	65.000000000000	0.00000000000000
26.719999313354	0.036396980285645	-0.38009965419769	65.000000000000	0.00000000000000
26.729999542236	0.035399198532104	-0.37832662463188	65.000000000000	0.00000000000000
26.739999771118	0.034408703446388	-0.37654855847359	65.000000000000	0.00000000000000
26.750000000000	0.033425156027079	-0.37476560473442	65.000000000000	0.00000000000000
26.760000228882	0.032448858022690	-0.37297776341438	65.000000000000	0.00000000000000
26.770000457764	0.031479757279158	-0.37118515372276	65.000000000000	0.00000000000000
26.780000686646	0.030517971143126	-0.36938774585724	65.000000000000	0.00000000000000
26.790000915527	0.029563350602984	-0.36758556962013	65.000000000000	0.00000000000000
26.799999237061	0.028616108000278	-0.36577868461609	65.000000000000	0.00000000000000
26.809999465942	0.027676267549396	-0.36396721005440	65.000000000000	0.00000000000000
26.819999694824	0.026743687689304	-0.36215105652809	65.000000000000	0.00000000000000
26.829999923706	0.025818660855293	-0.36033043265343	65.000000000000	0.00000000000000
26.840000152588	0.024900952354074	-0.35850521922112	65.000000000000	0.00000000000000
26.850000381470	0.023990767076612	-0.35667556524277	65.000000000000	0.00000000000000
26.860000610352	0.023088131099939	-0.35484147071838	65.000000000000	0.00000000000000
26.870000839233	0.022192906588316	-0.35300305485725	65.000000000000	0.00000000000000
26.879999160767	0.021305376663804	-0.35116025805473	65.000000000000	0.00000000000000
26.889999389648	0.020425477996469	-0.34931322932243	65.000000000000	0.00000000000000
26.899999618530	0.019553160294890	-0.34746190905571	65.000000000000	0.00000000000000
26.909999847412	0.018688529729843	-0.34560644626617	65.000000000000	0.00000000000000
26.920000076294	0.017831536009908	-0.34374678134918	65.000000000000	0.00000000000000
26.930000305176	0.016982283443213	-0.34188309311867	65.000000000000	0.00000000000000
26.940000534058	0.016140721738338	-0.34001535177231	65.000000000000	0.00000000000000
26.950000762939	0.015307117253542	-0.33814358711243	65.000000000000	0.00000000000000
26.959999084473	0.014481094665825	-0.33626788854599	65.000000000000	0.00000000000000
26.969999313354	0.013662998564541	-0.33438831567764	65.000000000000	0.00000000000000
26.979999542236	0.012852855958045	-0.33250486850739	65.000000000000	0.00000000000000
26.989999771118	0.012050453573465	-0.33061763644218	65.000000000000	0.00000000000000
27.000000000000	0.011255972087383	-0.32872658967972	65.000000000000	0.00000000000000
27.010000228882	0.010469440370798	-0.32683193683624	65.000000000000	0.00000000000000
27.020000457764	0.0096908798441291	-0.32493358850479	65.000000000000	0.00000000000000
27.030000686646	0.0089202374219894	-0.32303163409233	65.000000000000	0.00000000000000
27.040000915527	0.0081576928496361	-0.32112616300583	65.000000000000	0.00000000000000
27.049999237061	0.0074031152762473	-0.31921720504761	65.000000000000	0.00000000000000
27.059999465942	0.0066565265879035	-0.31730476021767	65.000000000000	0.00000000000000
27.069999694824	0.0059181037358940	-0.31538888812065	65.000000000000	0.00000000000000
27.079999923706	0.0051877922378480	-0.31346970796585	65.000000000000	0.00000000000000
27.090000152588	0.0044655394740403	-0.31154724955559	65.000000000000	0.00000000000000
27.100000381470	0.0037514430005103	-0.30962151288986	65.000000000000	0.00000000000000
27.110000610352	0.0030455237720162	-0.30769255757332	65.000000000000	0.00000000000000
27.120000839233	0.0023477312643081	-0.30576050281525	65.000000000000	0.00000000000000
27.129999160767	0.0016581591917202	-0.30382534861565	65.000000000000	0.00000000000000
27.139999389648	0.00097682862542570	-0.30188715457916	65.000000000000	0.00000000000000
27.149999618530	0.00030368831357919	-0.29994598031044	65.000000000000	0.00000000000000
27.159999847412	-0.00036116922274232	-0.29800188541412	65.000000000000	0.00000000000000
27.170000076294	-0.0010177242802456	-0.29605489969254	65.000000000000	0.00000000000000
27.180000305176	-0.0016660272376612	-0.29410505294800	65.000000000000	0.00000000000000
27.190000534058	-0.0023059877566993	-0.29215240478516	65.000000000000	0.00000000000000
27.200000762939	-0.0029377259779721	-0.29019710421562	65.000000000000	0.00000000000000
27.209999084473	-0.0035610138438642	-0.28823909163475	65.000000000000	0.00000000000000
27.219999313354	-0.0041760392487049	-0.28627845644951	65.000000000000	0.00000000000000
27.229999542236	-0.0047826454974711	-0.28431525826454	65.000000000000	0.00000000000000
27.239999771118	-0.0053808833472431	-0.28234958648682	65.000000000000	0.00000000000000
27.250000000000	-0.0059706657193601	-0.28038141131401	65.000000000000	0.00000000000000
27.260000228882	-0.0065521094948053	-0.27841082215309	65.000000000000	0.00000000000000
27.270000457764	-0.0071251280605793	-0.27643787860870	65.000000000000	0.00000000000000
27.280000686646	-0.0076896394602954	-0.27446269989014	65.000000000000	0.00000000000000
27.290000915527	-0.0082456907257438	-0.27248519659042	65.000000000000	0.00000000000000
27.299999237061	-0.0087933940812945	-0.27050551772118	65.000000000000	0.00000000000000
27.309999465942	-0.0093324752524495	-0.26852369308472	65.000000000000	0.00000000000000
