#Parameters = {d=0.25841708542712; l2=5.1683417085425; lambda=10.336683417085; r=0.034824286432159}
#"Frequency / GHz"	"S1,1 (lambda=10.3367) [Re]"	"S1,1 (lambda=10.3367) [Im]"	"Ref.Imp. [Re]"	"Ref.Imp. [Im]"
#-----------------------------------------------------------------------------------------------------------
25.000000000000	-0.018954543396831	-0.22178252041340	65.000000000000	0.00000000000000
25.010000228882	-0.019333167001605	-0.21956259012222	65.000000000000	0.00000000000000
25.020000457764	-0.019701175391674	-0.21734152734280	65.000000000000	0.00000000000000
25.030000686646	-0.020058602094650	-0.21511934697628	65.000000000000	0.00000000000000
25.040000915527	-0.020405463874340	-0.21289613842964	65.000000000000	0.00000000000000
25.049999237061	-0.020741898566484	-0.21067202091217	65.000000000000	0.00000000000000
25.059999465942	-0.021067621186376	-0.20844700932503	65.000000000000	0.00000000000000
25.069999694824	-0.021382907405496	-0.20622122287750	65.000000000000	0.00000000000000
25.079999923706	-0.021687529981136	-0.20399470627308	65.000000000000	0.00000000000000
25.090000152588	-0.021981753408909	-0.20176753401756	65.000000000000	0.00000000000000
25.100000381470	-0.022265357896686	-0.19953981041908	65.000000000000	0.00000000000000
25.110000610352	-0.022538412362337	-0.19731158018112	65.000000000000	0.00000000000000
25.120000839233	-0.022800883278251	-0.19508294761181	65.000000000000	0.00000000000000
25.129999160767	-0.023052928969264	-0.19285394251347	65.000000000000	0.00000000000000
25.139999389648	-0.023294337093830	-0.19062469899654	65.000000000000	0.00000000000000
25.149999618530	-0.023525256663561	-0.18839524686337	65.000000000000	0.00000000000000
25.159999847412	-0.023745743557811	-0.18616561591625	65.000000000000	0.00000000000000
25.170000076294	-0.023955503478646	-0.18393601477146	65.000000000000	0.00000000000000
25.180000305176	-0.024154938757420	-0.18170638382435	65.000000000000	0.00000000000000
25.190000534058	-0.024343842640519	-0.17947687208652	65.000000000000	0.00000000000000
25.200000762939	-0.024522261694074	-0.17724749445915	65.000000000000	0.00000000000000
25.209999084473	-0.024690084159374	-0.17501838505268	65.000000000000	0.00000000000000
25.219999313354	-0.024847514927387	-0.17278958857059	65.000000000000	0.00000000000000
25.229999542236	-0.024994516745210	-0.17056114971638	65.000000000000	0.00000000000000
25.239999771118	-0.025131050497293	-0.16833320260048	65.000000000000	0.00000000000000
25.250000000000	-0.025257149711251	-0.16610577702522	65.000000000000	0.00000000000000
25.260000228882	-0.025372855365276	-0.16387891769409	65.000000000000	0.00000000000000
25.270000457764	-0.025478119030595	-0.16165277361870	65.000000000000	0.00000000000000
25.280000686646	-0.025572970509529	-0.15942734479904	65.000000000000	0.00000000000000
25.290000915527	-0.025657512247562	-0.15720273554325	65.000000000000	0.00000000000000
25.299999237061	-0.025731621310115	-0.15497902035713	65.000000000000	0.00000000000000
25.309999465942	-0.025795387104154	-0.15275624394417	65.000000000000	0.00000000000000
25.319999694824	-0.025848906487226	-0.15053449571133	65.000000000000	0.00000000000000
25.329999923706	-0.025891965255141	-0.14831385016441	65.000000000000	0.00000000000000
25.340000152588	-0.025924794375896	-0.14609435200691	65.000000000000	0.00000000000000
25.350000381470	-0.025947401300073	-0.14387610554695	65.000000000000	0.00000000000000
25.360000610352	-0.025959644466639	-0.14165918529034	65.000000000000	0.00000000000000
25.370000839233	-0.025961721315980	-0.13944357633591	65.000000000000	0.00000000000000
25.379999160767	-0.025953626260161	-0.13722942769527	65.000000000000	0.00000000000000
25.389999389648	-0.025935217738152	-0.13501679897308	65.000000000000	0.00000000000000
25.399999618530	-0.025906728580594	-0.13280573487282	65.000000000000	0.00000000000000
25.409999847412	-0.025868015363812	-0.13059630990028	65.000000000000	0.00000000000000
25.420000076294	-0.025819171220064	-0.12838861346245	65.000000000000	0.00000000000000
25.430000305176	-0.025760337710381	-0.12618264555931	65.000000000000	0.00000000000000
25.440000534058	-0.025691237300634	-0.12397857010365	65.000000000000	0.00000000000000
25.450000762939	-0.025612238794565	-0.12177637219429	65.000000000000	0.00000000000000
25.459999084473	-0.025523157790303	-0.11957614123821	65.000000000000	0.00000000000000
25.469999313354	-0.025424050167203	-0.11737795919180	65.000000000000	0.00000000000000
25.479999542236	-0.025314897298813	-0.11518189311028	65.000000000000	0.00000000000000
25.489999771118	-0.025195840746164	-0.11298798769712	65.000000000000	0.00000000000000
25.500000000000	-0.025066893547773	-0.11079629510641	65.000000000000	0.00000000000000
25.510000228882	-0.024928005412221	-0.10860691964626	65.000000000000	0.00000000000000
25.520000457764	-0.024779221042991	-0.10641989856958	65.000000000000	0.00000000000000
25.530000686646	-0.024620620533824	-0.10423529893160	65.000000000000	0.00000000000000
25.540000915527	-0.024452161043882	-0.10205318033695	65.000000000000	0.00000000000000
25.549999237061	-0.024273941293359	-0.099873602390289	65.000000000000	0.00000000000000
25.559999465942	-0.024085981771350	-0.097696647047997	65.000000000000	0.00000000000000
25.569999694824	-0.023888241499662	-0.095522359013557	65.000000000000	0.00000000000000
25.579999923706	-0.023680847138166	-0.093350797891617	65.000000000000	0.00000000000000
25.590000152588	-0.023463750258088	-0.091182030737400	65.000000000000	0.00000000000000
25.600000381470	-0.023237068206072	-0.089016102254391	65.000000000000	0.00000000000000
25.610000610352	-0.023000752553344	-0.086853101849556	65.000000000000	0.00000000000000
25.620000839233	-0.022754853591323	-0.084693081676960	65.000000000000	0.00000000000000
25.629999160767	-0.022499460726976	-0.082536071538925	65.000000000000	0.00000000000000
25.639999389648	-0.022234514355659	-0.080382153391838	65.000000000000	0.00000000000000
25.649999618530	-0.021960111334920	-0.078231401741505	65.000000000000	0.00000000000000
25.659999847412	-0.021676288917661	-0.076083831489086	65.000000000000	0.00000000000000
25.670000076294	-0.021383078768849	-0.073939539492130	65.000000000000	0.00000000000000
25.680000305176	-0.021080484613776	-0.071798555552959	65.000000000000	0.00000000000000
25.690000534058	-0.020768567919731	-0.069660954177380	65.000000000000	0.00000000000000
25.700000762939	-0.020447334274650	-0.067526780068874	65.000000000000	0.00000000000000
25.709999084473	-0.020116891711950	-0.065396092832088	65.000000000000	0.00000000000000
25.719999313354	-0.019777176901698	-0.063268952071667	65.000000000000	0.00000000000000
25.729999542236	-0.019428327679634	-0.061145402491093	65.000000000000	0.00000000000000
25.739999771118	-0.019070290029049	-0.059025514870882	65.000000000000	0.00000000000000
25.750000000000	-0.018703153356910	-0.056909330189228	65.000000000000	0.00000000000000
25.760000228882	-0.018326992169023	-0.054796893149614	65.000000000000	0.00000000000000
25.770000457764	-0.017941771075130	-0.052688270807266	65.000000000000	0.00000000000000
25.780000686646	-0.017547547817230	-0.050583519041538	65.000000000000	0.00000000000000
25.790000915527	-0.017144400626421	-0.048482675105333	65.000000000000	0.00000000000000
25.799999237061	-0.016732327640057	-0.046385798603296	65.000000000000	0.00000000000000
25.809999465942	-0.016311381012201	-0.044292941689491	65.000000000000	0.00000000000000
25.819999694824	-0.015881605446339	-0.042204160243273	65.000000000000	0.00000000000000
25.829999923706	-0.015443043783307	-0.040119487792253	65.000000000000	0.00000000000000
25.840000152588	-0.014995736069977	-0.038038987666368	65.000000000000	0.00000000000000
25.850000381470	-0.014539713039994	-0.035962704569101	65.000000000000	0.00000000000000
25.860000610352	-0.014075030572712	-0.033890686929226	65.000000000000	0.00000000000000
25.870000839233	-0.013601723127067	-0.031822983175516	65.000000000000	0.00000000000000
25.879999160767	-0.013119831681252	-0.029759641736746	65.000000000000	0.00000000000000
25.889999389648	-0.012629405595362	-0.027700707316399	65.000000000000	0.00000000000000
25.899999618530	-0.012130486778915	-0.025646233931184	65.000000000000	0.00000000000000
25.909999847412	-0.011623111553490	-0.023596258834004	65.000000000000	0.00000000000000
25.920000076294	-0.011107333004475	-0.021550830453634	65.000000000000	0.00000000000000
25.930000305176	-0.010583176277578	-0.019510000944138	65.000000000000	0.00000000000000
25.940000534058	-0.010050707496703	-0.017473805695772	65.000000000000	0.00000000000000
25.950000762939	-0.0095099676400423	-0.015442291274667	65.000000000000	0.00000000000000
25.959999084473	-0.0089609865099192	-0.013415507040918	65.000000000000	0.00000000000000
25.969999313354	-0.0084038227796555	-0.011393490247428	65.000000000000	0.00000000000000
25.979999542236	-0.0078385174274445	-0.0093762855976820	65.000000000000	0.00000000000000
25.989999771118	-0.0072651118971407	-0.0073639373295009	65.000000000000	0.00000000000000
26.000000000000	-0.0066836564801633	-0.0053564859554172	65.000000000000	0.00000000000000
26.010000228882	-0.0060941926203668	-0.0033539722207934	65.000000000000	0.00000000000000
26.020000457764	-0.0054967696778476	-0.0013564391992986	65.000000000000	0.00000000000000
26.030000686646	-0.0048914332874119	0.00063607329502702	65.000000000000	0.00000000000000
26.040000915527	-0.0042782286182046	0.0026235277764499	65.000000000000	0.00000000000000
26.049999237061	-0.0036572010722011	0.0046058823354542	65.000000000000	0.00000000000000
26.059999465942	-0.0030284004751593	0.0065830978564918	65.000000000000	0.00000000000000
26.069999694824	-0.0023918701335788	0.0085551366209984	65.000000000000	0.00000000000000
26.079999923706	-0.0017476619686931	0.010521959513426	65.000000000000	0.00000000000000
26.090000152588	-0.0010958180064335	0.012483529746532	65.000000000000	0.00000000000000
26.100000381470	-0.00043639162322506	0.014439810067415	65.000000000000	0.00000000000000
26.110000610352	0.00023057416547090	0.016390765085816	65.000000000000	0.00000000000000
26.120000839233	0.00090503774117678	0.018336355686188	65.000000000000	0.00000000000000
26.129999160767	0.0015869312919676	0.020276550203562	65.000000000000	0.00000000000000
26.139999389648	0.0022762352600694	0.022211309522390	65.000000000000	0.00000000000000
26.149999618530	0.0029728796798736	0.024140603840351	65.000000000000	0.00000000000000
26.159999847412	0.0036768224090338	0.026064394041896	65.000000000000	0.00000000000000
26.170000076294	0.0043880185112357	0.027982648462057	65.000000000000	0.00000000000000
26.180000305176	0.0051063909195364	0.029895339161158	65.000000000000	0.00000000000000
26.190000534058	0.0058319363743067	0.031802419573069	65.000000000000	0.00000000000000
26.200000762939	0.0065645813010633	0.033703874796629	65.000000000000	0.00000000000000
26.209999084473	0.0073042833246291	0.035599660128355	65.000000000000	0.00000000000000
26.219999313354	0.0080510098487139	0.037489745765924	65.000000000000	0.00000000000000
26.229999542236	0.0088046751916409	0.039374105632305	65.000000000000	0.00000000000000
26.239999771118	0.0095652341842651	0.041252713650465	65.000000000000	0.00000000000000
26.250000000000	0.010332657024264	0.043125525116920	65.000000000000	0.00000000000000
26.260000228882	0.011106902733445	0.044992521405220	65.000000000000	0.00000000000000
26.270000457764	0.011887899599969	0.046853672713041	65.000000000000	0.00000000000000
26.280000686646	0.012675606645644	0.048708949238062	65.000000000000	0.00000000000000
26.290000915527	0.013469968922436	0.050558328628540	65.000000000000	0.00000000000000
26.299999237061	0.014270946383476	0.052401769906282	65.000000000000	0.00000000000000
26.309999465942	0.015078484080732	0.054239254444838	65.000000000000	0.00000000000000
26.319999694824	0.015892544761300	0.056070752441883	65.000000000000	0.00000000000000
26.329999923706	0.016713041812181	0.057896256446838	65.000000000000	0.00000000000000
26.340000152588	0.017539963126183	0.059715710580349	65.000000000000	0.00000000000000
26.350000381470	0.018373223021626	0.061529111117125	65.000000000000	0.00000000000000
26.360000610352	0.019212799146771	0.063336424529552	65.000000000000	0.00000000000000
26.370000839233	0.020058657974005	0.065137624740601	65.000000000000	0.00000000000000
26.379999160767	0.020910711959004	0.066932700574398	65.000000000000	0.00000000000000
26.389999389648	0.021768925711513	0.068721607327461	65.000000000000	0.00000000000000
26.399999618530	0.022633245214820	0.070504352450371	65.000000000000	0.00000000000000
26.409999847412	0.023503646254539	0.072280883789063	65.000000000000	0.00000000000000
26.420000076294	0.024380026385188	0.074051193892956	65.000000000000	0.00000000000000
26.430000305176	0.025262376293540	0.075815267860889	65.000000000000	0.00000000000000
26.440000534058	0.026150630787015	0.077573068439960	65.000000000000	0.00000000000000
26.450000762939	0.027044745162129	0.079324588179588	65.000000000000	0.00000000000000
26.459999084473	0.027944684028625	0.081069797277451	65.000000000000	0.00000000000000
26.469999313354	0.028850357979536	0.082808673381805	65.000000000000	0.00000000000000
26.479999542236	0.029761739075184	0.084541216492653	65.000000000000	0.00000000000000
26.489999771118	0.030678791925311	0.086267396807671	65.000000000000	0.00000000000000
26.500000000000	0.031601458787918	0.087987177073956	65.000000000000	0.00000000000000
26.510000228882	0.032529652118683	0.089700579643250	65.000000000000	0.00000000000000
26.520000457764	0.033463362604380	0.091407544910908	65.000000000000	0.00000000000000
26.530000686646	0.034402541816235	0.093108087778091	65.000000000000	0.00000000000000
26.540000915527	0.035347118973732	0.094802178442478	65.000000000000	0.00000000000000
26.549999237061	0.036297056823969	0.096489794552326	65.000000000000	0.00000000000000
26.559999465942	0.037252292037010	0.098170928657055	65.000000000000	0.00000000000000
26.569999694824	0.038212779909372	0.099845573306084	65.000000000000	0.00000000000000
26.579999923706	0.039178483188152	0.10151369869709	65.000000000000	0.00000000000000
26.590000152588	0.040149323642254	0.10317529737949	65.000000000000	0.00000000000000
26.600000381470	0.041125304996967	0.10483035445213	65.000000000000	0.00000000000000
26.610000610352	0.042106322944164	0.10647885501385	65.000000000000	0.00000000000000
26.620000839233	0.043092332780361	0.10812078416348	65.000000000000	0.00000000000000
26.629999160767	0.044083327054977	0.10975613445044	65.000000000000	0.00000000000000
26.639999389648	0.045079186558723	0.11138489097357	65.000000000000	0.00000000000000
26.649999618530	0.046079944819212	0.11300704628229	65.000000000000	0.00000000000000
26.659999847412	0.047085504978895	0.11462257802486	65.000000000000	0.00000000000000
26.670000076294	0.048095807433128	0.11623147875071	65.000000000000	0.00000000000000
26.680000305176	0.049110807478428	0.11783374845982	65.000000000000	0.00000000000000
26.690000534058	0.050130520015955	0.11942936480045	65.000000000000	0.00000000000000
26.700000762939	0.051154803484678	0.12101831287146	65.000000000000	0.00000000000000
26.709999084473	0.052183642983437	0.12260060012341	65.000000000000	0.00000000000000
26.719999313354	0.053217019885778	0.12417621165514	65.000000000000	0.00000000000000
26.729999542236	0.054254837334156	0.12574514746666	65.000000000000	0.00000000000000
26.739999771118	0.055297113955021	0.12730737030506	65.000000000000	0.00000000000000
26.750000000000	0.056343693286180	0.12886288762093	65.000000000000	0.00000000000000
26.760000228882	0.057394612580538	0.13041169941425	65.000000000000	0.00000000000000
26.770000457764	0.058449827134609	0.13195379078388	65.000000000000	0.00000000000000
26.780000686646	0.059509247541428	0.13348914682865	65.000000000000	0.00000000000000
26.790000915527	0.060572858899832	0.13501778244972	65.000000000000	0.00000000000000
26.799999237061	0.061640560626984	0.13653968274593	65.000000000000	0.00000000000000
26.809999465942	0.062712341547012	0.13805484771729	65.000000000000	0.00000000000000
26.819999694824	0.063788160681725	0.13956323266029	65.000000000000	0.00000000000000
26.829999923706	0.064867988228798	0.14106488227844	65.000000000000	0.00000000000000
26.840000152588	0.065951704978943	0.14255978167057	65.000000000000	0.00000000000000
26.850000381470	0.067039333283901	0.14404791593552	65.000000000000	0.00000000000000
26.860000610352	0.068130783736706	0.14552928507328	65.000000000000	0.00000000000000
26.870000839233	0.069226041436195	0.14700387418270	65.000000000000	0.00000000000000
26.879999160767	0.070325069129467	0.14847166836262	65.000000000000	0.00000000000000
26.889999389648	0.071427732706070	0.14993272721767	65.000000000000	0.00000000000000
26.899999618530	0.072534069418907	0.15138697624207	65.000000000000	0.00000000000000
26.909999847412	0.073644042015076	0.15283444523811	65.000000000000	0.00000000000000
26.920000076294	0.074757523834705	0.15427514910698	65.000000000000	0.00000000000000
26.930000305176	0.075874544680119	0.15570905804634	65.000000000000	0.00000000000000
26.940000534058	0.076995052397251	0.15713615715504	65.000000000000	0.00000000000000
26.950000762939	0.078118950128555	0.15855652093887	65.000000000000	0.00000000000000
26.959999084473	0.079246222972870	0.15997005999088	65.000000000000	0.00000000000000
26.969999313354	0.080376796424389	0.16137681901455	65.000000000000	0.00000000000000
26.979999542236	0.081510707736015	0.16277678310871	65.000000000000	0.00000000000000
26.989999771118	0.082647815346718	0.16416998207569	65.000000000000	0.00000000000000
27.000000000000	0.083788149058819	0.16555637121201	65.000000000000	0.00000000000000
27.010000228882	0.084931597113609	0.16693596541882	65.000000000000	0.00000000000000
27.020000457764	0.086078144609928	0.16830880939960	65.000000000000	0.00000000000000
27.030000686646	0.087227754294872	0.16967484354973	65.000000000000	0.00000000000000
27.040000915527	0.088380388915539	0.17103411257267	65.000000000000	0.00000000000000
27.049999237061	0.089535951614380	0.17238658666611	65.000000000000	0.00000000000000
27.059999465942	0.090694487094879	0.17373229563236	65.000000000000	0.00000000000000
27.069999694824	0.091855898499489	0.17507122457027	65.000000000000	0.00000000000000
27.079999923706	0.093020074069500	0.17640338838100	65.000000000000	0.00000000000000
27.090000152588	0.094187118113041	0.17772878706455	65.000000000000	0.00000000000000
27.100000381470	0.095356881618500	0.17904742062092	65.000000000000	0.00000000000000
27.110000610352	0.096529342234135	0.18035931885242	65.000000000000	0.00000000000000
27.120000839233	0.097704485058784	0.18166442215443	65.000000000000	0.00000000000000
27.129999160767	0.098882250487804	0.18296280503273	65.000000000000	0.00000000000000
27.139999389648	0.10006251931190	0.18425442278385	65.000000000000	0.00000000000000
27.149999618530	0.10124542564154	0.18553930521011	65.000000000000	0.00000000000000
27.159999847412	0.10243073105812	0.18681745231152	65.000000000000	0.00000000000000
27.170000076294	0.10361854732037	0.18808889389038	65.000000000000	0.00000000000000
27.180000305176	0.10480871796608	0.18935358524323	65.000000000000	0.00000000000000
27.190000534058	0.10600129514933	0.19061157107353	65.000000000000	0.00000000000000
27.200000762939	0.10719621181488	0.19186285138130	65.000000000000	0.00000000000000
27.209999084473	0.10839332640171	0.19310744106770	65.000000000000	0.00000000000000
27.219999313354	0.10959275066853	0.19434529542923	65.000000000000	0.00000000000000
27.229999542236	0.11079436540604	0.19557647407055	65.000000000000	0.00000000000000
27.239999771118	0.11199809610844	0.19680099189281	65.000000000000	0.00000000000000
27.250000000000	0.11320398747921	0.19801881909370	65.000000000000	0.00000000000000
27.260000228882	0.11441197991371	0.19922998547554	65.000000000000	0.00000000000000
27.270000457764	0.11562193930149	0.20043450593948	65.000000000000	0.00000000000000
27.280000686646	0.11683395504951	0.20163235068321	65.000000000000	0.00000000000000
27.290000915527	0.11804790794849	0.20282357931137	65.000000000000	0.00000000000000
