#Parameters = {d=0.25489949748743; l2=5.0979899497485; lambda=10.195979899497; r=0.034350256281405}
#"Frequency / GHz"	"S1,1 (lambda=10.196) [Re]"	"S1,1 (lambda=10.196) [Im]"	"Ref.Imp. [Re]"	"Ref.Imp. [Im]"
#---------------------------------------------------------------------------------------------------------
25.000000000000	-0.00046661600936204	-0.29539918899536	65.000000000000	0.00000000000000
25.010000228882	-0.0011823963141069	-0.29328727722168	65.000000000000	0.00000000000000
25.020000457764	-0.0018885052995756	-0.29117184877396	65.000000000000	0.00000000000000
25.030000686646	-0.0025847731158137	-0.28905290365219	65.000000000000	0.00000000000000
25.040000915527	-0.0032711711246520	-0.28693059086800	65.000000000000	0.00000000000000
25.049999237061	-0.0039476705715060	-0.28480494022369	65.000000000000	0.00000000000000
25.059999465942	-0.0046142437495291	-0.28267601132393	65.000000000000	0.00000000000000
25.069999694824	-0.0052709905430675	-0.28054392337799	65.000000000000	0.00000000000000
25.079999923706	-0.0059177605435252	-0.27840873599052	65.000000000000	0.00000000000000
25.090000152588	-0.0065545211546123	-0.27627044916153	65.000000000000	0.00000000000000
25.100000381470	-0.0071815080009401	-0.27412924170494	65.000000000000	0.00000000000000
25.110000610352	-0.0077982996590436	-0.27198508381844	65.000000000000	0.00000000000000
25.120000839233	-0.0084051312878728	-0.26983812451363	65.000000000000	0.00000000000000
25.129999160767	-0.0090019749477506	-0.26768836379051	65.000000000000	0.00000000000000
25.139999389648	-0.0095888031646609	-0.26553598046303	65.000000000000	0.00000000000000
25.149999618530	-0.010165338404477	-0.26338091492653	65.000000000000	0.00000000000000
25.159999847412	-0.010731931775808	-0.26122331619263	65.000000000000	0.00000000000000
25.170000076294	-0.011288435198367	-0.25906324386597	65.000000000000	0.00000000000000
25.180000305176	-0.011834695935249	-0.25690078735352	65.000000000000	0.00000000000000
25.190000534058	-0.012370936572552	-0.25473600625992	65.000000000000	0.00000000000000
25.200000762939	-0.012897009029984	-0.25256890058517	65.000000000000	0.00000000000000
25.209999084473	-0.013413009233773	-0.25039967894554	65.000000000000	0.00000000000000
25.219999313354	-0.013918554410338	-0.24822829663754	65.000000000000	0.00000000000000
25.229999542236	-0.014414213597775	-0.24605490267277	65.000000000000	0.00000000000000
25.239999771118	-0.014899489469826	-0.24387949705124	65.000000000000	0.00000000000000
25.250000000000	-0.015374596230686	-0.24170222878456	65.000000000000	0.00000000000000
25.260000228882	-0.015839505940676	-0.23952312767506	65.000000000000	0.00000000000000
25.270000457764	-0.016294080764055	-0.23734226822853	65.000000000000	0.00000000000000
25.280000686646	-0.016738634556532	-0.23515972495079	65.000000000000	0.00000000000000
25.290000915527	-0.017172697931528	-0.23297555744648	65.000000000000	0.00000000000000
25.299999237061	-0.017596691846848	-0.23078989982605	65.000000000000	0.00000000000000
25.309999465942	-0.018010258674622	-0.22860275208950	65.000000000000	0.00000000000000
25.319999694824	-0.018413705751300	-0.22641420364380	65.000000000000	0.00000000000000
25.329999923706	-0.018806790933013	-0.22422432899475	65.000000000000	0.00000000000000
25.340000152588	-0.019189704209566	-0.22203323245049	65.000000000000	0.00000000000000
25.350000381470	-0.019562209025025	-0.21984094381332	65.000000000000	0.00000000000000
25.360000610352	-0.019924491643906	-0.21764756739140	65.000000000000	0.00000000000000
25.370000839233	-0.020276527851820	-0.21545311808586	65.000000000000	0.00000000000000
25.379999160767	-0.020618291571736	-0.21325777471066	65.000000000000	0.00000000000000
25.389999389648	-0.020949656143785	-0.21106150746346	65.000000000000	0.00000000000000
25.399999618530	-0.021270800381899	-0.20886442065239	65.000000000000	0.00000000000000
25.409999847412	-0.021581599488854	-0.20666661858559	65.000000000000	0.00000000000000
25.420000076294	-0.021882317960262	-0.20446810126305	65.000000000000	0.00000000000000
25.430000305176	-0.022172542288899	-0.20226900279522	65.000000000000	0.00000000000000
25.440000534058	-0.022452536970377	-0.20006938278675	65.000000000000	0.00000000000000
25.450000762939	-0.022722367197275	-0.19786928594112	65.000000000000	0.00000000000000
25.459999084473	-0.022981816902757	-0.19566883146763	65.000000000000	0.00000000000000
25.469999313354	-0.023230953142047	-0.19346803426743	65.000000000000	0.00000000000000
25.479999542236	-0.023469932377338	-0.19126699864864	65.000000000000	0.00000000000000
25.489999771118	-0.023698629811406	-0.18906578421593	65.000000000000	0.00000000000000
25.500000000000	-0.023917019367218	-0.18686449527740	65.000000000000	0.00000000000000
25.510000228882	-0.024125158786774	-0.18466316163540	65.000000000000	0.00000000000000
25.520000457764	-0.024323187768459	-0.18246182799339	65.000000000000	0.00000000000000
25.530000686646	-0.024510817602277	-0.18026064336300	65.000000000000	0.00000000000000
25.540000915527	-0.024688357487321	-0.17805960774422	65.000000000000	0.00000000000000
25.549999237061	-0.024855684489012	-0.17585881054401	65.000000000000	0.00000000000000
25.559999465942	-0.025012679398060	-0.17365837097168	65.000000000000	0.00000000000000
25.569999694824	-0.025159642100334	-0.17145827412605	65.000000000000	0.00000000000000
25.579999923706	-0.025296280160546	-0.16925866901875	65.000000000000	0.00000000000000
25.590000152588	-0.025422964245081	-0.16705954074860	65.000000000000	0.00000000000000
25.600000381470	-0.025539321824908	-0.16486103832722	65.000000000000	0.00000000000000
25.610000610352	-0.025645637884736	-0.16266317665577	65.000000000000	0.00000000000000
25.620000839233	-0.025741783902049	-0.16046606004238	65.000000000000	0.00000000000000
25.629999160767	-0.025827785953879	-0.15826973319054	65.000000000000	0.00000000000000
25.639999389648	-0.025903753936291	-0.15607425570488	65.000000000000	0.00000000000000
25.649999618530	-0.025969557464123	-0.15387973189354	65.000000000000	0.00000000000000
25.659999847412	-0.026025440543890	-0.15168616175652	65.000000000000	0.00000000000000
25.670000076294	-0.026071198284626	-0.14949369430542	65.000000000000	0.00000000000000
25.680000305176	-0.026106841862202	-0.14730234444141	65.000000000000	0.00000000000000
25.690000534058	-0.026132667437196	-0.14511215686798	65.000000000000	0.00000000000000
25.700000762939	-0.026148261502385	-0.14292329549789	65.000000000000	0.00000000000000
25.709999084473	-0.026154039427638	-0.14073573052883	65.000000000000	0.00000000000000
25.719999313354	-0.026149857789278	-0.13854955136776	65.000000000000	0.00000000000000
25.729999542236	-0.026135709136724	-0.13636484742165	65.000000000000	0.00000000000000
25.739999771118	-0.026111707091331	-0.13418163359165	65.000000000000	0.00000000000000
25.750000000000	-0.026077777147293	-0.13200004398823	65.000000000000	0.00000000000000
25.760000228882	-0.026033885776997	-0.12982009351254	65.000000000000	0.00000000000000
25.770000457764	-0.025980262085795	-0.12764185667038	65.000000000000	0.00000000000000
25.780000686646	-0.025916801765561	-0.12546537816525	65.000000000000	0.00000000000000
25.790000915527	-0.025843530893326	-0.12329077720642	65.000000000000	0.00000000000000
25.799999237061	-0.025760445743799	-0.12111806124449	65.000000000000	0.00000000000000
25.809999465942	-0.025667615234852	-0.11894731223583	65.000000000000	0.00000000000000
25.819999694824	-0.025565091520548	-0.11677860468626	65.000000000000	0.00000000000000
25.829999923706	-0.025452820584178	-0.11461196839809	65.000000000000	0.00000000000000
25.840000152588	-0.025330893695354	-0.11244750767946	65.000000000000	0.00000000000000
25.850000381470	-0.025199323892593	-0.11028524488211	65.000000000000	0.00000000000000
25.860000610352	-0.025058116763830	-0.10812526196241	65.000000000000	0.00000000000000
25.870000839233	-0.024907290935516	-0.10596761107445	65.000000000000	0.00000000000000
25.879999160767	-0.024746926501393	-0.10381235927343	65.000000000000	0.00000000000000
25.889999389648	-0.024576986208558	-0.10165955871344	65.000000000000	0.00000000000000
25.899999618530	-0.024397565051913	-0.099509283900261	65.000000000000	0.00000000000000
25.909999847412	-0.024208640679717	-0.097361572086811	65.000000000000	0.00000000000000
25.920000076294	-0.024010272696614	-0.095216490328312	65.000000000000	0.00000000000000
25.930000305176	-0.023802487179637	-0.093074105679989	65.000000000000	0.00000000000000
25.940000534058	-0.023585297167301	-0.090934455394745	65.000000000000	0.00000000000000
25.950000762939	-0.023358730599284	-0.088797628879547	65.000000000000	0.00000000000000
25.959999084473	-0.023122850805521	-0.086663648486137	65.000000000000	0.00000000000000
25.969999313354	-0.022877650335431	-0.084532603621483	65.000000000000	0.00000000000000
25.979999542236	-0.022623205557466	-0.082404524087906	65.000000000000	0.00000000000000
25.989999771118	-0.022359507158399	-0.080279469490051	65.000000000000	0.00000000000000
26.000000000000	-0.022086594253778	-0.078157506883144	65.000000000000	0.00000000000000
26.010000228882	-0.021804541349411	-0.076038688421249	65.000000000000	0.00000000000000
26.020000457764	-0.021513333544135	-0.073923073709011	65.000000000000	0.00000000000000
26.030000686646	-0.021213026717305	-0.071810692548752	65.000000000000	0.00000000000000
26.040000915527	-0.020903637632728	-0.069701619446278	65.000000000000	0.00000000000000
26.049999237061	-0.020585218444467	-0.067595906555653	65.000000000000	0.00000000000000
26.059999465942	-0.020257804542780	-0.065493613481522	65.000000000000	0.00000000000000
26.069999694824	-0.019921448081732	-0.063394770026207	65.000000000000	0.00000000000000
26.079999923706	-0.019576147198677	-0.061299443244934	65.000000000000	0.00000000000000
26.090000152588	-0.019221950322390	-0.059207692742348	65.000000000000	0.00000000000000
26.100000381470	-0.018858892843127	-0.057119555771351	65.000000000000	0.00000000000000
26.110000610352	-0.018487034365535	-0.055035084486008	65.000000000000	0.00000000000000
26.120000839233	-0.018106387928128	-0.052954334765673	65.000000000000	0.00000000000000
26.129999160767	-0.017716998234391	-0.050877351313829	65.000000000000	0.00000000000000
26.139999389648	-0.017318900674582	-0.048804197460413	65.000000000000	0.00000000000000
26.149999618530	-0.016912147402763	-0.046734903007746	65.000000000000	0.00000000000000
26.159999847412	-0.016496762633324	-0.044669531285763	65.000000000000	0.00000000000000
26.170000076294	-0.016072783619165	-0.042608119547367	65.000000000000	0.00000000000000
26.180000305176	-0.015640249475837	-0.040550727397203	65.000000000000	0.00000000000000
26.190000534058	-0.015199211426079	-0.038497392088175	65.000000000000	0.00000000000000
26.200000762939	-0.014749696478248	-0.036448165774345	65.000000000000	0.00000000000000
26.209999084473	-0.014291757717729	-0.034403089433908	65.000000000000	0.00000000000000
26.219999313354	-0.013825424015522	-0.032362218946218	65.000000000000	0.00000000000000
26.229999542236	-0.013350739143789	-0.030325593426824	65.000000000000	0.00000000000000
26.239999771118	-0.012867750599980	-0.028293255716562	65.000000000000	0.00000000000000
26.250000000000	-0.012376490980387	-0.026265254244208	65.000000000000	0.00000000000000
26.260000228882	-0.011877002194524	-0.024241637438536	65.000000000000	0.00000000000000
26.270000457764	-0.011369333602488	-0.022222438827157	65.000000000000	0.00000000000000
26.280000686646	-0.010853515937924	-0.020207710564137	65.000000000000	0.00000000000000
26.290000915527	-0.010329596698284	-0.018197493627667	65.000000000000	0.00000000000000
26.299999237061	-0.0097976131364703	-0.016191827133298	65.000000000000	0.00000000000000
26.309999465942	-0.0092576220631599	-0.014190754853189	65.000000000000	0.00000000000000
26.319999694824	-0.0087096588686109	-0.012194320559502	65.000000000000	0.00000000000000
26.329999923706	-0.0081537598744035	-0.010202563367784	65.000000000000	0.00000000000000
26.340000152588	-0.0075899749062955	-0.0082155233249068	65.000000000000	0.00000000000000
26.350000381470	-0.0070183454081416	-0.0062332446686924	65.000000000000	0.00000000000000
26.360000610352	-0.0064389193430543	-0.0042557609267533	65.000000000000	0.00000000000000
26.370000839233	-0.0058517344295979	-0.0022831156384200	65.000000000000	0.00000000000000
26.379999160767	-0.0052568386308849	-0.00031534582376480	65.000000000000	0.00000000000000
26.389999389648	-0.0046542743220925	0.0016475098673254	65.000000000000	0.00000000000000
26.399999618530	-0.0040440880693495	0.0036054106894881	65.000000000000	0.00000000000000
26.409999847412	-0.0034263206180185	0.0055583231151104	65.000000000000	0.00000000000000
26.420000076294	-0.0028010210953653	0.0075062084943056	65.000000000000	0.00000000000000
26.430000305176	-0.0021682293154299	0.0094490312039852	65.000000000000	0.00000000000000
26.440000534058	-0.0015279989456758	0.011386752128601	65.000000000000	0.00000000000000
26.450000762939	-0.00088036525994539	0.013319337740541	65.000000000000	0.00000000000000
26.459999084473	-0.00022538326447830	0.015246753580868	65.000000000000	0.00000000000000
26.469999313354	0.00043690402526408	0.017168965190649	65.000000000000	0.00000000000000
26.479999542236	0.0011064558057114	0.019085936248302	65.000000000000	0.00000000000000
26.489999771118	0.0017832240555435	0.020997634157538	65.000000000000	0.00000000000000
26.500000000000	0.0024671589490026	0.022904025390744	65.000000000000	0.00000000000000
26.510000228882	0.0031582163646817	0.024805076420307	65.000000000000	0.00000000000000
26.520000457764	0.0038563481066376	0.026700753718615	65.000000000000	0.00000000000000
26.530000686646	0.0045615215785801	0.028591027483344	65.000000000000	0.00000000000000
26.540000915527	0.0052736704237759	0.030475867912173	65.000000000000	0.00000000000000
26.549999237061	0.0059927576221526	0.032355237752199	65.000000000000	0.00000000000000
26.559999465942	0.0067187370732427	0.034229118376970	65.000000000000	0.00000000000000
26.569999694824	0.0074515622109175	0.036097459495068	65.000000000000	0.00000000000000
26.579999923706	0.0081911720335484	0.037960249930620	65.000000000000	0.00000000000000
26.590000152588	0.0089375413954258	0.039817456156015	65.000000000000	0.00000000000000
26.600000381470	0.0096906023100019	0.041669040918350	65.000000000000	0.00000000000000
26.610000610352	0.010450326837599	0.043514981865883	65.000000000000	0.00000000000000
26.620000839233	0.011216662824154	0.045355252921581	65.000000000000	0.00000000000000
26.629999160767	0.011989548802376	0.047189828008413	65.000000000000	0.00000000000000
26.639999389648	0.012768957763910	0.049018669873476	65.000000000000	0.00000000000000
26.649999618530	0.013554830104113	0.050841763615608	65.000000000000	0.00000000000000
26.659999847412	0.014347114600241	0.052659071981907	65.000000000000	0.00000000000000
26.670000076294	0.015145758166909	0.054470580071211	65.000000000000	0.00000000000000
26.680000305176	0.015950733795762	0.056276254355907	65.000000000000	0.00000000000000
26.690000534058	0.016761980950832	0.058076076209545	65.000000000000	0.00000000000000
26.700000762939	0.017579456791282	0.059870015829802	65.000000000000	0.00000000000000
26.709999084473	0.018403112888336	0.061658050864935	65.000000000000	0.00000000000000
26.719999313354	0.019232887774706	0.063440166413784	65.000000000000	0.00000000000000
26.729999542236	0.020068762823939	0.065216325223446	65.000000000000	0.00000000000000
26.739999771118	0.020910661667585	0.066986508667469	65.000000000000	0.00000000000000
26.750000000000	0.021758519113064	0.068750701844692	65.000000000000	0.00000000000000
26.760000228882	0.022612355649471	0.070508874952793	65.000000000000	0.00000000000000
26.770000457764	0.023472076281905	0.072261005640030	65.000000000000	0.00000000000000
26.780000686646	0.024337615817785	0.074007086455822	65.000000000000	0.00000000000000
26.790000915527	0.025208961218596	0.075747087597847	65.000000000000	0.00000000000000
26.799999237061	0.026086056604981	0.077480971813202	65.000000000000	0.00000000000000
26.809999465942	0.026968833059072	0.079208754003048	65.000000000000	0.00000000000000
26.819999694824	0.027857258915901	0.080930382013321	65.000000000000	0.00000000000000
26.829999923706	0.028751306235790	0.082645870745182	65.000000000000	0.00000000000000
26.840000152588	0.029650885611773	0.084355168044567	65.000000000000	0.00000000000000
26.850000381470	0.030555989593267	0.086058273911476	65.000000000000	0.00000000000000
26.860000610352	0.031466551125050	0.087755173444748	65.000000000000	0.00000000000000
26.870000839233	0.032382484525442	0.089445829391479	65.000000000000	0.00000000000000
26.879999160767	0.033303812146187	0.091130256652832	65.000000000000	0.00000000000000
26.889999389648	0.034230440855026	0.092808410525322	65.000000000000	0.00000000000000
26.899999618530	0.035162352025509	0.094480283558369	65.000000000000	0.00000000000000
26.909999847412	0.036099430173635	0.096145875751972	65.000000000000	0.00000000000000
26.920000076294	0.037041723728180	0.097805149853230	65.000000000000	0.00000000000000
26.930000305176	0.037989094853401	0.099458098411560	65.000000000000	0.00000000000000
26.940000534058	0.038941588252783	0.10110472142696	65.000000000000	0.00000000000000
26.950000762939	0.039899080991745	0.10274497419596	65.000000000000	0.00000000000000
26.959999084473	0.040861546993256	0.10437886416912	65.000000000000	0.00000000000000
26.969999313354	0.041828941553831	0.10600637644529	65.000000000000	0.00000000000000
26.979999542236	0.042801231145859	0.10762750357389	65.000000000000	0.00000000000000
26.989999771118	0.043778341263533	0.10924223065376	65.000000000000	0.00000000000000
27.000000000000	0.044760249555111	0.11085052043200	65.000000000000	0.00000000000000
27.010000228882	0.045746877789497	0.11245240271091	65.000000000000	0.00000000000000
27.020000457764	0.046738196164370	0.11404784023762	65.000000000000	0.00000000000000
27.030000686646	0.047734189778566	0.11563683301210	65.000000000000	0.00000000000000
27.040000915527	0.048734724521637	0.11721935868263	65.000000000000	0.00000000000000
27.049999237061	0.049739841371775	0.11879540979862	65.000000000000	0.00000000000000
27.059999465942	0.050749480724335	0.12036498636007	65.000000000000	0.00000000000000
27.069999694824	0.051763534545898	0.12192807346582	65.000000000000	0.00000000000000
27.079999923706	0.052782014012337	0.12348466366529	65.000000000000	0.00000000000000
27.090000152588	0.053804855793715	0.12503474950790	65.000000000000	0.00000000000000
27.100000381470	0.054831992834806	0.12657830119133	65.000000000000	0.00000000000000
27.110000610352	0.055863432586193	0.12811534106731	65.000000000000	0.00000000000000
27.120000839233	0.056899052113295	0.12964585423470	65.000000000000	0.00000000000000
27.129999160767	0.057938899844885	0.13116982579231	65.000000000000	0.00000000000000
27.139999389648	0.058982826769352	0.13268725574017	65.000000000000	0.00000000000000
27.149999618530	0.060030847787857	0.13419812917709	65.000000000000	0.00000000000000
27.159999847412	0.061082933098078	0.13570244610310	65.000000000000	0.00000000000000
27.170000076294	0.062138941138983	0.13720020651817	65.000000000000	0.00000000000000
27.180000305176	0.063198976218700	0.13869139552116	65.000000000000	0.00000000000000
27.190000534058	0.064262822270393	0.14017599821091	65.000000000000	0.00000000000000
27.200000762939	0.065330572426319	0.14165402948856	65.000000000000	0.00000000000000
27.209999084473	0.066402159631252	0.14312548935413	65.000000000000	0.00000000000000
27.219999313354	0.067477449774742	0.14459036290646	65.000000000000	0.00000000000000
27.229999542236	0.068556465208530	0.14604862034321	65.000000000000	0.00000000000000
27.239999771118	0.069639191031456	0.14750029146671	65.000000000000	0.00000000000000
27.250000000000	0.070725530385971	0.14894537627697	65.000000000000	0.00000000000000
27.260000228882	0.071815401315689	0.15038387477398	65.000000000000	0.00000000000000
27.270000457764	0.072908870875835	0.15181574225426	65.000000000000	0.00000000000000
