#Parameters = {d=0.24937185929648; l2=4.9874371859297; lambda=9.9748743718593; r=0.033605351758794}
#"Frequency / GHz"	"S1,1 (lambda=9.97487) [Re]"	"S1,1 (lambda=9.97487) [Im]"	"Ref.Imp. [Re]"	"Ref.Imp. [Im]"
#-----------------------------------------------------------------------------------------------------------
25.000000000000	0.050804018974304	-0.40221163630486	65.000000000000	0.00000000000000
25.010000228882	0.049642909318209	-0.40041229128838	65.000000000000	0.00000000000000
25.020000457764	0.048488985747099	-0.39860659837723	65.000000000000	0.00000000000000
25.030000686646	0.047342572361231	-0.39679452776909	65.000000000000	0.00000000000000
25.040000915527	0.046203438192606	-0.39497619867325	65.000000000000	0.00000000000000
25.049999237061	0.045071620494127	-0.39315161108971	65.000000000000	0.00000000000000
25.059999465942	0.043947357684374	-0.39132079482079	65.000000000000	0.00000000000000
25.069999694824	0.042830783873796	-0.38948380947113	65.000000000000	0.00000000000000
25.079999923706	0.041721668094397	-0.38764077425003	65.000000000000	0.00000000000000
25.090000152588	0.040620144456625	-0.38579162955284	65.000000000000	0.00000000000000
25.100000381470	0.039526347070932	-0.38393649458885	65.000000000000	0.00000000000000
25.110000610352	0.038440328091383	-0.38207539916039	65.000000000000	0.00000000000000
25.120000839233	0.037362024188042	-0.38020837306976	65.000000000000	0.00000000000000
25.129999160767	0.036291774362326	-0.37833544611931	65.000000000000	0.00000000000000
25.139999389648	0.035228963941336	-0.37645679712296	65.000000000000	0.00000000000000
25.149999618530	0.034174453467131	-0.37457230687141	65.000000000000	0.00000000000000
25.159999847412	0.033127747476101	-0.37268215417862	65.000000000000	0.00000000000000
25.170000076294	0.032089069485664	-0.37078627943993	65.000000000000	0.00000000000000
25.180000305176	0.031058628112078	-0.36888480186462	65.000000000000	0.00000000000000
25.190000534058	0.030035942792892	-0.36697775125504	65.000000000000	0.00000000000000
25.200000762939	0.029021929949522	-0.36506521701813	65.000000000000	0.00000000000000
25.209999084473	0.028015583753586	-0.36314725875854	65.000000000000	0.00000000000000
25.219999313354	0.027017809450626	-0.36122387647629	65.000000000000	0.00000000000000
25.229999542236	0.026028297841549	-0.35929512977600	65.000000000000	0.00000000000000
25.239999771118	0.025046924129128	-0.35736113786697	65.000000000000	0.00000000000000
25.250000000000	0.024074060842395	-0.35542187094688	65.000000000000	0.00000000000000
25.260000228882	0.023109748959541	-0.35347741842270	65.000000000000	0.00000000000000
25.270000457764	0.022153686732054	-0.35152786970139	65.000000000000	0.00000000000000
25.280000686646	0.021206252276897	-0.34957322478294	65.000000000000	0.00000000000000
25.290000915527	0.020267307758331	-0.34761357307434	65.000000000000	0.00000000000000
25.299999237061	0.019337061792612	-0.34564897418022	65.000000000000	0.00000000000000
25.309999465942	0.018415220081806	-0.34367948770523	65.000000000000	0.00000000000000
25.319999694824	0.017502143979073	-0.34170520305634	65.000000000000	0.00000000000000
25.329999923706	0.016597708687186	-0.33972609043121	65.000000000000	0.00000000000000
25.340000152588	0.015702268108726	-0.33774223923683	65.000000000000	0.00000000000000
25.350000381470	0.014815216884017	-0.33575373888016	65.000000000000	0.00000000000000
25.360000610352	0.013937231153250	-0.33376064896584	65.000000000000	0.00000000000000
25.370000839233	0.013068023137748	-0.33176299929619	65.000000000000	0.00000000000000
25.379999160767	0.012207784689963	-0.32976090908051	65.000000000000	0.00000000000000
25.389999389648	0.011356236413121	-0.32775434851646	65.000000000000	0.00000000000000
25.399999618530	0.010513723827899	-0.32574346661568	65.000000000000	0.00000000000000
25.409999847412	0.0096802776679397	-0.32372823357582	65.000000000000	0.00000000000000
25.420000076294	0.0088557768613100	-0.32170882821083	65.000000000000	0.00000000000000
25.430000305176	0.0080402521416545	-0.31968522071838	65.000000000000	0.00000000000000
25.440000534058	0.0072338893078268	-0.31765750050545	65.000000000000	0.00000000000000
25.450000762939	0.0064365663565695	-0.31562572717667	65.000000000000	0.00000000000000
25.459999084473	0.0056484639644623	-0.31358996033669	65.000000000000	0.00000000000000
25.469999313354	0.0048694633878767	-0.31155025959015	65.000000000000	0.00000000000000
25.479999542236	0.0040997425094247	-0.30950668454170	65.000000000000	0.00000000000000
25.489999771118	0.0033391832839698	-0.30745935440063	65.000000000000	0.00000000000000
25.500000000000	0.0025878148153424	-0.30540823936462	65.000000000000	0.00000000000000
25.510000228882	0.0018458125414327	-0.30335345864296	65.000000000000	0.00000000000000
25.520000457764	0.0011129154590890	-0.30129510164261	65.000000000000	0.00000000000000
25.530000686646	0.00038958393270150	-0.29923316836357	65.000000000000	0.00000000000000
25.540000915527	-0.00032444260432385	-0.29716774821281	65.000000000000	0.00000000000000
25.549999237061	-0.0010291358921677	-0.29509893059731	65.000000000000	0.00000000000000
25.559999465942	-0.0017244674963877	-0.29302674531937	65.000000000000	0.00000000000000
25.569999694824	-0.0024102714378387	-0.29095131158829	65.000000000000	0.00000000000000
25.579999923706	-0.0030866616871208	-0.28887265920639	65.000000000000	0.00000000000000
25.590000152588	-0.0037536104209721	-0.28679081797600	65.000000000000	0.00000000000000
25.600000381470	-0.0044109560549259	-0.28470590710640	65.000000000000	0.00000000000000
25.610000610352	-0.0050589451566339	-0.28261795639992	65.000000000000	0.00000000000000
25.620000839233	-0.0056974142789841	-0.28052702546120	65.000000000000	0.00000000000000
25.629999160767	-0.0063263396732509	-0.27843323349953	65.000000000000	0.00000000000000
25.639999389648	-0.0069455639459193	-0.27633661031723	65.000000000000	0.00000000000000
25.649999618530	-0.0075551969930530	-0.27423721551895	65.000000000000	0.00000000000000
25.659999847412	-0.0081553431227803	-0.27213510870934	65.000000000000	0.00000000000000
25.670000076294	-0.0087458500638604	-0.27003043889999	65.000000000000	0.00000000000000
25.680000305176	-0.0093265632167459	-0.26792317628860	65.000000000000	0.00000000000000
25.690000534058	-0.0098977191373706	-0.26581341028214	65.000000000000	0.00000000000000
25.700000762939	-0.010459289886057	-0.26370120048523	65.000000000000	0.00000000000000
25.709999084473	-0.011011128313839	-0.26158663630486	65.000000000000	0.00000000000000
25.719999313354	-0.011553212068975	-0.25946977734566	65.000000000000	0.00000000000000
25.729999542236	-0.012085640802979	-0.25735074281693	65.000000000000	0.00000000000000
25.739999771118	-0.012608394026756	-0.25522947311401	65.000000000000	0.00000000000000
25.750000000000	-0.013121446594596	-0.25310614705086	65.000000000000	0.00000000000000
25.760000228882	-0.013624655082822	-0.25098076462746	65.000000000000	0.00000000000000
25.770000457764	-0.014118121936917	-0.24885345995426	65.000000000000	0.00000000000000
25.780000686646	-0.014601703733206	-0.24672424793243	65.000000000000	0.00000000000000
25.790000915527	-0.015075740404427	-0.24459321796894	65.000000000000	0.00000000000000
25.799999237061	-0.015539903193712	-0.24246042966843	65.000000000000	0.00000000000000
25.809999465942	-0.015994234010577	-0.24032591283321	65.000000000000	0.00000000000000
25.819999694824	-0.016438828781247	-0.23818983137608	65.000000000000	0.00000000000000
25.829999923706	-0.016873549669981	-0.23605214059353	65.000000000000	0.00000000000000
25.840000152588	-0.017298545688391	-0.23391298949718	65.000000000000	0.00000000000000
25.850000381470	-0.017713628709316	-0.23177242279053	65.000000000000	0.00000000000000
25.860000610352	-0.018118996173143	-0.22963047027588	65.000000000000	0.00000000000000
25.870000839233	-0.018514409661293	-0.22748723626137	65.000000000000	0.00000000000000
25.879999160767	-0.018900066614151	-0.22534281015396	65.000000000000	0.00000000000000
25.889999389648	-0.019275831058621	-0.22319719195366	65.000000000000	0.00000000000000
25.899999618530	-0.019641902297735	-0.22105048596859	65.000000000000	0.00000000000000
25.909999847412	-0.019998040050268	-0.21890278160572	65.000000000000	0.00000000000000
25.920000076294	-0.020344328135252	-0.21675409376621	65.000000000000	0.00000000000000
25.930000305176	-0.020680751651525	-0.21460452675819	65.000000000000	0.00000000000000
25.940000534058	-0.021007383242249	-0.21245415508747	65.000000000000	0.00000000000000
25.950000762939	-0.021324202418327	-0.21030299365520	65.000000000000	0.00000000000000
25.959999084473	-0.021631134673953	-0.20815119147301	65.000000000000	0.00000000000000
25.969999313354	-0.021928256377578	-0.20599871873856	65.000000000000	0.00000000000000
25.979999542236	-0.022215545177460	-0.20384570956230	65.000000000000	0.00000000000000
25.989999771118	-0.022492976859212	-0.20169222354889	65.000000000000	0.00000000000000
26.000000000000	-0.022760573774576	-0.19953829050064	65.000000000000	0.00000000000000
26.010000228882	-0.023018406704068	-0.19738401472569	65.000000000000	0.00000000000000
26.020000457764	-0.023266358301044	-0.19522942602634	65.000000000000	0.00000000000000
26.030000686646	-0.023504491895437	-0.19307461380959	65.000000000000	0.00000000000000
26.040000915527	-0.023732876405120	-0.19091966748238	65.000000000000	0.00000000000000
26.049999237061	-0.023951437324286	-0.18876460194588	65.000000000000	0.00000000000000
26.059999465942	-0.024160189554095	-0.18660949170589	65.000000000000	0.00000000000000
26.069999694824	-0.024359155446291	-0.18445444107056	65.000000000000	0.00000000000000
26.079999923706	-0.024548342451453	-0.18229946494102	65.000000000000	0.00000000000000
26.090000152588	-0.024727810174227	-0.18014465272427	65.000000000000	0.00000000000000
26.100000381470	-0.024897439405322	-0.17799006402493	65.000000000000	0.00000000000000
26.110000610352	-0.025057371705770	-0.17583578824997	65.000000000000	0.00000000000000
26.120000839233	-0.025207571685314	-0.17368185520172	65.000000000000	0.00000000000000
26.129999160767	-0.025347959250212	-0.17152833938599	65.000000000000	0.00000000000000
26.139999389648	-0.025478709489107	-0.16937528550625	65.000000000000	0.00000000000000
26.149999618530	-0.025599738582969	-0.16722279787064	65.000000000000	0.00000000000000
26.159999847412	-0.025711018592119	-0.16507092118263	65.000000000000	0.00000000000000
26.170000076294	-0.025812651962042	-0.16291971504688	65.000000000000	0.00000000000000
26.180000305176	-0.025904608890414	-0.16076923906803	65.000000000000	0.00000000000000
26.190000534058	-0.025986921042204	-0.15861955285072	65.000000000000	0.00000000000000
26.200000762939	-0.026059579104185	-0.15647073090076	65.000000000000	0.00000000000000
26.209999084473	-0.026122644543648	-0.15432283282280	65.000000000000	0.00000000000000
26.219999313354	-0.026176072657108	-0.15217593312263	65.000000000000	0.00000000000000
26.229999542236	-0.026219885796309	-0.15003006160259	65.000000000000	0.00000000000000
26.239999771118	-0.026254171505570	-0.14788530766964	65.000000000000	0.00000000000000
26.250000000000	-0.026278868317604	-0.14574171602726	65.000000000000	0.00000000000000
26.260000228882	-0.026294028386474	-0.14359934628010	65.000000000000	0.00000000000000
26.270000457764	-0.026299623772502	-0.14145825803280	65.000000000000	0.00000000000000
26.280000686646	-0.026295756921172	-0.13931854069233	65.000000000000	0.00000000000000
26.290000915527	-0.026282388716936	-0.13718020915985	65.000000000000	0.00000000000000
26.299999237061	-0.026259554550052	-0.13504336774349	65.000000000000	0.00000000000000
26.309999465942	-0.026227273046970	-0.13290804624557	65.000000000000	0.00000000000000
26.319999694824	-0.026185555383563	-0.13077433407307	65.000000000000	0.00000000000000
26.329999923706	-0.026134444400668	-0.12864224612713	65.000000000000	0.00000000000000
26.340000152588	-0.026073915883899	-0.12651187181473	65.000000000000	0.00000000000000
26.350000381470	-0.026004059240222	-0.12438324838877	65.000000000000	0.00000000000000
26.360000610352	-0.025924829766154	-0.12225646525621	65.000000000000	0.00000000000000
26.370000839233	-0.025836307555437	-0.12013155221939	65.000000000000	0.00000000000000
26.379999160767	-0.025738436728716	-0.11800859123468	65.000000000000	0.00000000000000
26.389999389648	-0.025631325319409	-0.11588761210442	65.000000000000	0.00000000000000
26.399999618530	-0.025514964014292	-0.11376870423555	65.000000000000	0.00000000000000
26.409999847412	-0.025389386340976	-0.11165188997984	65.000000000000	0.00000000000000
26.420000076294	-0.025254609063268	-0.10953722894192	65.000000000000	0.00000000000000
26.430000305176	-0.025110647082329	-0.10742480307817	65.000000000000	0.00000000000000
26.440000534058	-0.024957502260804	-0.10531466454268	65.000000000000	0.00000000000000
26.450000762939	-0.024795256555080	-0.10320685803890	65.000000000000	0.00000000000000
26.459999084473	-0.024623932316899	-0.10110142081976	65.000000000000	0.00000000000000
26.469999313354	-0.024443533271551	-0.098998442292213	65.000000000000	0.00000000000000
26.479999542236	-0.024254053831100	-0.096897959709167	65.000000000000	0.00000000000000
26.489999771118	-0.024055600166321	-0.094800010323524	65.000000000000	0.00000000000000
26.500000000000	-0.023848127573729	-0.092704683542252	65.000000000000	0.00000000000000
26.510000228882	-0.023631704971194	-0.090612009167671	65.000000000000	0.00000000000000
26.520000457764	-0.023406371474266	-0.088522046804428	65.000000000000	0.00000000000000
26.530000686646	-0.023172101005912	-0.086434848606586	65.000000000000	0.00000000000000
26.540000915527	-0.022928984835744	-0.084350459277630	65.000000000000	0.00000000000000
26.549999237061	-0.022677006199956	-0.082268945872784	65.000000000000	0.00000000000000
26.559999465942	-0.022416226565838	-0.080190345644951	65.000000000000	0.00000000000000
26.569999694824	-0.022146660834551	-0.078114718198776	65.000000000000	0.00000000000000
26.579999923706	-0.021868344396353	-0.076042115688324	65.000000000000	0.00000000000000
26.590000152588	-0.021581318229437	-0.073972582817078	65.000000000000	0.00000000000000
26.600000381470	-0.021285569295287	-0.071906179189682	65.000000000000	0.00000000000000
26.610000610352	-0.020981200039387	-0.069842942059040	65.000000000000	0.00000000000000
26.620000839233	-0.020668203011155	-0.067782923579216	65.000000000000	0.00000000000000
26.629999160767	-0.020346587523818	-0.065726190805435	65.000000000000	0.00000000000000
26.639999389648	-0.020016444846988	-0.063672758638859	65.000000000000	0.00000000000000
26.649999618530	-0.019677745178342	-0.061622701585293	65.000000000000	0.00000000000000
26.659999847412	-0.019330583512783	-0.059576056897640	65.000000000000	0.00000000000000
26.670000076294	-0.018974948674440	-0.057532884180546	65.000000000000	0.00000000000000
26.680000305176	-0.018610896542668	-0.055493216961622	65.000000000000	0.00000000000000
26.690000534058	-0.018238434568048	-0.053457111120224	65.000000000000	0.00000000000000
26.700000762939	-0.017857648432255	-0.051424600183964	65.000000000000	0.00000000000000
26.709999084473	-0.017468526959419	-0.049395751208067	65.000000000000	0.00000000000000
26.719999313354	-0.017071124166250	-0.047370590269566	65.000000000000	0.00000000000000
26.729999542236	-0.016665473580360	-0.045349169522524	65.000000000000	0.00000000000000
26.739999771118	-0.016251612454653	-0.043331537395716	65.000000000000	0.00000000000000
26.750000000000	-0.015829574316740	-0.041317738592625	65.000000000000	0.00000000000000
26.760000228882	-0.015399383381009	-0.039307810366154	65.000000000000	0.00000000000000
26.770000457764	-0.014961111359298	-0.037301797419786	65.000000000000	0.00000000000000
26.780000686646	-0.014514766633511	-0.035299748182297	65.000000000000	0.00000000000000
26.790000915527	-0.014060382731259	-0.033301707357168	65.000000000000	0.00000000000000
26.799999237061	-0.013598014600575	-0.031307708472013	65.000000000000	0.00000000000000
26.809999465942	-0.013127692975104	-0.029317801818252	65.000000000000	0.00000000000000
26.819999694824	-0.012649450451136	-0.027332030236721	65.000000000000	0.00000000000000
26.829999923706	-0.012163343839347	-0.025350425392389	65.000000000000	0.00000000000000
26.840000152588	-0.011669388972223	-0.023373033851385	65.000000000000	0.00000000000000
26.850000381470	-0.011167641729116	-0.021399896591902	65.000000000000	0.00000000000000
26.860000610352	-0.010658121667802	-0.019431056454778	65.000000000000	0.00000000000000
26.870000839233	-0.010140889324248	-0.017466546967626	65.000000000000	0.00000000000000
26.879999160767	-0.0096159633249044	-0.015506410971284	65.000000000000	0.00000000000000
26.889999389648	-0.0090834051370621	-0.013550689443946	65.000000000000	0.00000000000000
26.899999618530	-0.0085432427003980	-0.011599415913224	65.000000000000	0.00000000000000
26.909999847412	-0.0079955141991377	-0.0096526304259896	65.000000000000	0.00000000000000
26.920000076294	-0.0074402643367648	-0.0077103734947741	65.000000000000	0.00000000000000
26.930000305176	-0.0068775303661823	-0.0057726819068193	65.000000000000	0.00000000000000
26.940000534058	-0.0063073574565351	-0.0038395863957703	65.000000000000	0.00000000000000
26.950000762939	-0.0057297796010971	-0.0019111330620944	65.000000000000	0.00000000000000
26.959999084473	-0.0051448424346745	1.2650670214498e-05	65.000000000000	0.00000000000000
26.969999313354	-0.0045525874011219	0.0019317232072353	65.000000000000	0.00000000000000
26.979999542236	-0.0039530531503260	0.0038460530340672	65.000000000000	0.00000000000000
26.989999771118	-0.0033462839201093	0.0057556014508009	65.000000000000	0.00000000000000
27.000000000000	-0.0027323192916811	0.0076603377237916	65.000000000000	0.00000000000000
27.010000228882	-0.0021112002432346	0.0095602255314589	65.000000000000	0.00000000000000
27.020000457764	-0.0014829724095762	0.011455231346190	65.000000000000	0.00000000000000
27.030000686646	-0.00084767461521551	0.013345323503017	65.000000000000	0.00000000000000
27.040000915527	-0.00020534874056466	0.015230467543006	65.000000000000	0.00000000000000
27.049999237061	0.00044396318844520	0.017110630869865	65.000000000000	0.00000000000000
27.059999465942	0.0011002136161551	0.018985783681273	65.000000000000	0.00000000000000
27.069999694824	0.0017633639508858	0.020855892449617	65.000000000000	0.00000000000000
27.079999923706	0.0024333701003343	0.022720925509930	65.000000000000	0.00000000000000
27.090000152588	0.0031101950444281	0.024580854922533	65.000000000000	0.00000000000000
27.100000381470	0.0037937858141959	0.026435643434525	65.000000000000	0.00000000000000
27.110000610352	0.0044841007329524	0.028285270556808	65.000000000000	0.00000000000000
27.120000839233	0.0051811016164720	0.030129700899124	65.000000000000	0.00000000000000
27.129999160767	0.0058847488835454	0.031968906521797	65.000000000000	0.00000000000000
27.139999389648	0.0065949852578342	0.033802859485149	65.000000000000	0.00000000000000
27.149999618530	0.0073117860592902	0.035631526261568	65.000000000000	0.00000000000000
27.159999847412	0.0080350972712040	0.037454884499311	65.000000000000	0.00000000000000
27.170000076294	0.0087648602202535	0.039272904396057	65.000000000000	0.00000000000000
27.180000305176	0.0095010567456484	0.041085559874773	65.000000000000	0.00000000000000
27.190000534058	0.010243626311421	0.042892828583717	65.000000000000	0.00000000000000
27.200000762939	0.010992547497153	0.044694673269987	65.000000000000	0.00000000000000
27.209999084473	0.011747739277780	0.046491071581841	65.000000000000	0.00000000000000
27.219999313354	0.012509184889495	0.048282008618116	65.000000000000	0.00000000000000
27.229999542236	0.013276831246912	0.050067450851202	65.000000000000	0.00000000000000
27.239999771118	0.014050631783903	0.051847364753485	65.000000000000	0.00000000000000
27.250000000000	0.014830545522273	0.053621742874384	65.000000000000	0.00000000000000
27.260000228882	0.015616547316313	0.055390551686287	65.000000000000	0.00000000000000
27.270000457764	0.016408549621701	0.057153768837452	65.000000000000	0.00000000000000
