#Parameters = {d=0.18907035175879; l2=3.7814070351759; lambda=7.5628140703518; r=0.025479120603015}
#"Frequency / GHz"	"S1,1 (lambda=7.56281) [Re]"	"S1,1 (lambda=7.56281) [Im]"	"Ref.Imp. [Re]"	"Ref.Imp. [Im]"
#-----------------------------------------------------------------------------------------------------------
25.000000000000	0.78923618793488	-0.51252603530884	65.000000000000	0.00000000000000
25.010000228882	0.78879100084305	-0.51289248466492	65.000000000000	0.00000000000000
25.020000457764	0.78834491968155	-0.51325893402100	65.000000000000	0.00000000000000
25.030000686646	0.78789782524109	-0.51362538337708	65.000000000000	0.00000000000000
25.040000915527	0.78744977712631	-0.51399189233780	65.000000000000	0.00000000000000
25.049999237061	0.78700047731400	-0.51435834169388	65.000000000000	0.00000000000000
25.059999465942	0.78655046224594	-0.51472485065460	65.000000000000	0.00000000000000
25.069999694824	0.78609931468964	-0.51509135961533	65.000000000000	0.00000000000000
25.079999923706	0.78564709424973	-0.51545780897141	65.000000000000	0.00000000000000
25.090000152588	0.78519392013550	-0.51582431793213	65.000000000000	0.00000000000000
25.100000381470	0.78473979234695	-0.51619082689285	65.000000000000	0.00000000000000
25.110000610352	0.78428453207016	-0.51655733585358	65.000000000000	0.00000000000000
25.120000839233	0.78382819890976	-0.51692390441895	65.000000000000	0.00000000000000
25.129999160767	0.78337091207504	-0.51729035377502	65.000000000000	0.00000000000000
25.139999389648	0.78291267156601	-0.51765698194504	65.000000000000	0.00000000000000
25.149999618530	0.78245329856873	-0.51802343130112	65.000000000000	0.00000000000000
25.159999847412	0.78199291229248	-0.51838994026184	65.000000000000	0.00000000000000
25.170000076294	0.78153151273727	-0.51875644922256	65.000000000000	0.00000000000000
25.180000305176	0.78106898069382	-0.51912301778793	65.000000000000	0.00000000000000
25.190000534058	0.78060549497604	-0.51948952674866	65.000000000000	0.00000000000000
25.200000762939	0.78014099597931	-0.51985597610474	65.000000000000	0.00000000000000
25.209999084473	0.77967530488968	-0.52022242546082	65.000000000000	0.00000000000000
25.219999313354	0.77920866012573	-0.52058893442154	65.000000000000	0.00000000000000
25.229999542236	0.77874100208282	-0.52095544338226	65.000000000000	0.00000000000000
25.239999771118	0.77827221155167	-0.52132189273834	65.000000000000	0.00000000000000
25.250000000000	0.77780228853226	-0.52168822288513	65.000000000000	0.00000000000000
25.260000228882	0.77733135223389	-0.52205467224121	65.000000000000	0.00000000000000
25.270000457764	0.77685940265656	-0.52242112159729	65.000000000000	0.00000000000000
25.280000686646	0.77638638019562	-0.52278745174408	65.000000000000	0.00000000000000
25.290000915527	0.77591222524643	-0.52315384149551	65.000000000000	0.00000000000000
25.299999237061	0.77543711662292	-0.52352029085159	65.000000000000	0.00000000000000
25.309999465942	0.77496081590652	-0.52388656139374	65.000000000000	0.00000000000000
25.319999694824	0.77448344230652	-0.52425289154053	65.000000000000	0.00000000000000
25.329999923706	0.77400505542755	-0.52461922168732	65.000000000000	0.00000000000000
25.340000152588	0.77352541685104	-0.52498543262482	65.000000000000	0.00000000000000
25.350000381470	0.77304488420486	-0.52535170316696	65.000000000000	0.00000000000000
25.360000610352	0.77256315946579	-0.52571791410446	65.000000000000	0.00000000000000
25.370000839233	0.77208036184311	-0.52608406543732	65.000000000000	0.00000000000000
25.379999160767	0.77159643173218	-0.52645021677017	65.000000000000	0.00000000000000
25.389999389648	0.77111148834229	-0.52681630849838	65.000000000000	0.00000000000000
25.399999618530	0.77062535285950	-0.52718240022659	65.000000000000	0.00000000000000
25.409999847412	0.77013802528381	-0.52754843235016	65.000000000000	0.00000000000000
25.420000076294	0.76964980363846	-0.52791446447372	65.000000000000	0.00000000000000
25.430000305176	0.76916027069092	-0.52828037738800	65.000000000000	0.00000000000000
25.440000534058	0.76866984367371	-0.52864629030228	65.000000000000	0.00000000000000
25.450000762939	0.76817804574966	-0.52901220321655	65.000000000000	0.00000000000000
25.459999084473	0.76768523454666	-0.52937799692154	65.000000000000	0.00000000000000
25.469999313354	0.76719123125076	-0.52974379062653	65.000000000000	0.00000000000000
25.479999542236	0.76669621467590	-0.53010952472687	65.000000000000	0.00000000000000
25.489999771118	0.76620012521744	-0.53047525882721	65.000000000000	0.00000000000000
25.500000000000	0.76570272445679	-0.53084087371826	65.000000000000	0.00000000000000
25.510000228882	0.76520431041718	-0.53120642900467	65.000000000000	0.00000000000000
25.520000457764	0.76470464468002	-0.53157210350037	65.000000000000	0.00000000000000
25.530000686646	0.76420402526855	-0.53193730115891	65.000000000000	0.00000000000000
25.540000915527	0.76370203495026	-0.53230291604996	65.000000000000	0.00000000000000
25.549999237061	0.76319909095764	-0.53266805410385	65.000000000000	0.00000000000000
25.559999465942	0.76269477605820	-0.53303349018097	65.000000000000	0.00000000000000
25.569999694824	0.76218944787979	-0.53339850902557	65.000000000000	0.00000000000000
25.579999923706	0.76168310642242	-0.53376352787018	65.000000000000	0.00000000000000
25.590000152588	0.76117527484894	-0.53412884473801	65.000000000000	0.00000000000000
25.600000381470	0.76066613197327	-0.53449410200119	65.000000000000	0.00000000000000
25.610000610352	0.76015645265579	-0.53485846519470	65.000000000000	0.00000000000000
25.620000839233	0.75964480638504	-0.53522396087646	65.000000000000	0.00000000000000
25.629999160767	0.75913244485855	-0.53558862209320	65.000000000000	0.00000000000000
25.639999389648	0.75861930847168	-0.53595286607742	65.000000000000	0.00000000000000
25.649999618530	0.75810432434082	-0.53631776571274	65.000000000000	0.00000000000000
25.659999847412	0.75758844614029	-0.53668218851089	65.000000000000	0.00000000000000
25.670000076294	0.75707137584686	-0.53704655170441	65.000000000000	0.00000000000000
25.680000305176	0.75655311346054	-0.53741073608398	65.000000000000	0.00000000000000
25.690000534058	0.75603342056274	-0.53777527809143	65.000000000000	0.00000000000000
25.700000762939	0.75551283359528	-0.53813934326172	65.000000000000	0.00000000000000
25.709999084473	0.75499075651169	-0.53850364685059	65.000000000000	0.00000000000000
25.719999313354	0.75446772575378	-0.53886747360229	65.000000000000	0.00000000000000
25.729999542236	0.75394344329834	-0.53923118114471	65.000000000000	0.00000000000000
25.739999771118	0.75341773033142	-0.53959518671036	65.000000000000	0.00000000000000
25.750000000000	0.75289118289948	-0.53995871543884	65.000000000000	0.00000000000000
25.760000228882	0.75236308574677	-0.54032242298126	65.000000000000	0.00000000000000
25.770000457764	0.75183403491974	-0.54068571329117	65.000000000000	0.00000000000000
25.780000686646	0.75130355358124	-0.54104912281036	65.000000000000	0.00000000000000
25.790000915527	0.75077188014984	-0.54141211509705	65.000000000000	0.00000000000000
25.799999237061	0.75023907423019	-0.54177516698837	65.000000000000	0.00000000000000
25.809999465942	0.74970495700836	-0.54213809967041	65.000000000000	0.00000000000000
25.819999694824	0.74916964769363	-0.54250091314316	65.000000000000	0.00000000000000
25.829999923706	0.74863308668137	-0.54286366701126	65.000000000000	0.00000000000000
25.840000152588	0.74809527397156	-0.54322618246078	65.000000000000	0.00000000000000
25.850000381470	0.74755626916885	-0.54358863830566	65.000000000000	0.00000000000000
25.860000610352	0.74701595306396	-0.54395091533661	65.000000000000	0.00000000000000
25.870000839233	0.74647432565689	-0.54431307315826	65.000000000000	0.00000000000000
25.879999160767	0.74593162536621	-0.54467511177063	65.000000000000	0.00000000000000
25.889999389648	0.74538755416870	-0.54503697156906	65.000000000000	0.00000000000000
25.899999618530	0.74484223127365	-0.54539859294891	65.000000000000	0.00000000000000
25.909999847412	0.74429571628571	-0.54576027393341	65.000000000000	0.00000000000000
25.920000076294	0.74374771118164	-0.54612165689468	65.000000000000	0.00000000000000
25.930000305176	0.74319875240326	-0.54648298025131	65.000000000000	0.00000000000000
25.940000534058	0.74264830350876	-0.54684406518936	65.000000000000	0.00000000000000
25.950000762939	0.74209666252136	-0.54720497131348	65.000000000000	0.00000000000000
25.959999084473	0.74154359102249	-0.54756575822830	65.000000000000	0.00000000000000
25.969999313354	0.74098938703537	-0.54792642593384	65.000000000000	0.00000000000000
25.979999542236	0.74043381214142	-0.54828685522079	65.000000000000	0.00000000000000
25.989999771118	0.73987710475922	-0.54864716529846	65.000000000000	0.00000000000000
26.000000000000	0.73931896686554	-0.54900723695755	65.000000000000	0.00000000000000
26.010000228882	0.73875963687897	-0.54936712980270	65.000000000000	0.00000000000000
26.020000457764	0.73819899559021	-0.54972684383392	65.000000000000	0.00000000000000
26.030000686646	0.73763692378998	-0.55008637905121	65.000000000000	0.00000000000000
26.040000915527	0.73707371950150	-0.55044573545456	65.000000000000	0.00000000000000
26.049999237061	0.73650896549225	-0.55080497264862	65.000000000000	0.00000000000000
26.059999465942	0.73594319820404	-0.55116391181946	65.000000000000	0.00000000000000
26.069999694824	0.73537594079971	-0.55152267217636	65.000000000000	0.00000000000000
26.079999923706	0.73480737209320	-0.55188119411469	65.000000000000	0.00000000000000
26.090000152588	0.73423749208450	-0.55223959684372	65.000000000000	0.00000000000000
26.100000381470	0.73366647958755	-0.55259776115417	65.000000000000	0.00000000000000
26.110000610352	0.73309385776520	-0.55295568704605	65.000000000000	0.00000000000000
26.120000839233	0.73251992464066	-0.55331349372864	65.000000000000	0.00000000000000
26.129999160767	0.73194479942322	-0.55367100238800	65.000000000000	0.00000000000000
26.139999389648	0.73136842250824	-0.55402833223343	65.000000000000	0.00000000000000
26.149999618530	0.73079049587250	-0.55438530445099	65.000000000000	0.00000000000000
26.159999847412	0.73021143674850	-0.55474221706390	65.000000000000	0.00000000000000
26.170000076294	0.72963088750839	-0.55509889125824	65.000000000000	0.00000000000000
26.180000305176	0.72904902696609	-0.55545520782471	65.000000000000	0.00000000000000
26.190000534058	0.72846573591232	-0.55581134557724	65.000000000000	0.00000000000000
26.200000762939	0.72788119316101	-0.55616730451584	65.000000000000	0.00000000000000
26.209999084473	0.72729527950287	-0.55652296543121	65.000000000000	0.00000000000000
26.219999313354	0.72670793533325	-0.55687832832336	65.000000000000	0.00000000000000
26.229999542236	0.72611939907074	-0.55723345279694	65.000000000000	0.00000000000000
26.239999771118	0.72552937269211	-0.55758833885193	65.000000000000	0.00000000000000
26.250000000000	0.72493809461594	-0.55794298648834	65.000000000000	0.00000000000000
26.260000228882	0.72434520721436	-0.55829739570618	65.000000000000	0.00000000000000
26.270000457764	0.72375118732452	-0.55865150690079	65.000000000000	0.00000000000000
26.280000686646	0.72315573692322	-0.55900532007217	65.000000000000	0.00000000000000
26.290000915527	0.72255879640579	-0.55935901403427	65.000000000000	0.00000000000000
26.299999237061	0.72196054458618	-0.55971217155457	65.000000000000	0.00000000000000
26.309999465942	0.72136104106903	-0.56006526947021	65.000000000000	0.00000000000000
26.319999694824	0.72075986862183	-0.56041795015335	65.000000000000	0.00000000000000
26.329999923706	0.72015750408173	-0.56077045202255	65.000000000000	0.00000000000000
26.340000152588	0.71955376863480	-0.56112259626389	65.000000000000	0.00000000000000
26.350000381470	0.71894854307175	-0.56147438287735	65.000000000000	0.00000000000000
26.360000610352	0.71834200620651	-0.56182599067688	65.000000000000	0.00000000000000
26.370000839233	0.71773397922516	-0.56217724084854	65.000000000000	0.00000000000000
26.379999160767	0.71712458133698	-0.56252813339233	65.000000000000	0.00000000000000
26.389999389648	0.71651381254196	-0.56287884712219	65.000000000000	0.00000000000000
26.399999618530	0.71590161323547	-0.56322914361954	65.000000000000	0.00000000000000
26.409999847412	0.71528786420822	-0.56357914209366	65.000000000000	0.00000000000000
26.420000076294	0.71467286348343	-0.56392878293991	65.000000000000	0.00000000000000
26.430000305176	0.71405637264252	-0.56427818536758	65.000000000000	0.00000000000000
26.440000534058	0.71343857049942	-0.56462723016739	65.000000000000	0.00000000000000
26.450000762939	0.71281915903091	-0.56497585773468	65.000000000000	0.00000000000000
26.459999084473	0.71219831705093	-0.56532424688339	65.000000000000	0.00000000000000
26.469999313354	0.71157628297806	-0.56567227840424	65.000000000000	0.00000000000000
26.479999542236	0.71095263957977	-0.56601983308792	65.000000000000	0.00000000000000
26.489999771118	0.71032762527466	-0.56636720895767	65.000000000000	0.00000000000000
26.500000000000	0.70970106124878	-0.56671422719955	65.000000000000	0.00000000000000
26.510000228882	0.70907312631607	-0.56706082820892	65.000000000000	0.00000000000000
26.520000457764	0.70844393968582	-0.56740701198578	65.000000000000	0.00000000000000
26.530000686646	0.70781308412552	-0.56775289773941	65.000000000000	0.00000000000000
26.540000915527	0.70718073844910	-0.56809848546982	65.000000000000	0.00000000000000
26.549999237061	0.70654702186584	-0.56844347715378	65.000000000000	0.00000000000000
26.559999465942	0.70591187477112	-0.56878829002380	65.000000000000	0.00000000000000
26.569999694824	0.70527517795563	-0.56913268566132	65.000000000000	0.00000000000000
26.579999923706	0.70463716983795	-0.56947666406631	65.000000000000	0.00000000000000
26.590000152588	0.70399767160416	-0.56982022523880	65.000000000000	0.00000000000000
26.600000381470	0.70335656404495	-0.57016336917877	65.000000000000	0.00000000000000
26.610000610352	0.70271414518356	-0.57050627470016	65.000000000000	0.00000000000000
26.620000839233	0.70207023620605	-0.57084864377975	65.000000000000	0.00000000000000
26.629999160767	0.70142465829849	-0.57119059562683	65.000000000000	0.00000000000000
26.639999389648	0.70077782869339	-0.57153218984604	65.000000000000	0.00000000000000
26.649999618530	0.70012950897217	-0.57187324762344	65.000000000000	0.00000000000000
26.659999847412	0.69947952032089	-0.57221406698227	65.000000000000	0.00000000000000
26.670000076294	0.69882822036743	-0.57255440950394	65.000000000000	0.00000000000000
26.680000305176	0.69817531108856	-0.57289427518845	65.000000000000	0.00000000000000
26.690000534058	0.69752103090286	-0.57323366403580	65.000000000000	0.00000000000000
26.700000762939	0.69686520099640	-0.57357269525528	65.000000000000	0.00000000000000
26.709999084473	0.69620794057846	-0.57391130924225	65.000000000000	0.00000000000000
26.719999313354	0.69554907083511	-0.57424932718277	65.000000000000	0.00000000000000
26.729999542236	0.69488871097565	-0.57458704710007	65.000000000000	0.00000000000000
26.739999771118	0.69422680139542	-0.57492423057556	65.000000000000	0.00000000000000
26.750000000000	0.69356358051300	-0.57526099681854	65.000000000000	0.00000000000000
26.760000228882	0.69289869070053	-0.57559728622437	65.000000000000	0.00000000000000
26.770000457764	0.69223242998123	-0.57593303918839	65.000000000000	0.00000000000000
26.780000686646	0.69156461954117	-0.57626837491989	65.000000000000	0.00000000000000
26.790000915527	0.69089508056641	-0.57660323381424	65.000000000000	0.00000000000000
26.799999237061	0.69022423028946	-0.57693761587143	65.000000000000	0.00000000000000
26.809999465942	0.68955183029175	-0.57727146148682	65.000000000000	0.00000000000000
26.819999694824	0.68887788057327	-0.57760488986969	65.000000000000	0.00000000000000
26.829999923706	0.68820226192474	-0.57793778181076	65.000000000000	0.00000000000000
26.840000152588	0.68752533197403	-0.57827013731003	65.000000000000	0.00000000000000
26.850000381470	0.68684691190720	-0.57860207557678	65.000000000000	0.00000000000000
26.860000610352	0.68616664409637	-0.57893347740173	65.000000000000	0.00000000000000
26.870000839233	0.68548500537872	-0.57926428318024	65.000000000000	0.00000000000000
26.879999160767	0.68480187654495	-0.57959467172623	65.000000000000	0.00000000000000
26.889999389648	0.68411725759506	-0.57992446422577	65.000000000000	0.00000000000000
26.899999618530	0.68343096971512	-0.58025372028351	65.000000000000	0.00000000000000
26.909999847412	0.68274319171906	-0.58058249950409	65.000000000000	0.00000000000000
26.920000076294	0.68205386400223	-0.58091062307358	65.000000000000	0.00000000000000
26.930000305176	0.68136298656464	-0.58123826980591	65.000000000000	0.00000000000000
26.940000534058	0.68067055940628	-0.58156543970108	65.000000000000	0.00000000000000
26.950000762939	0.67997646331787	-0.58189195394516	65.000000000000	0.00000000000000
26.959999084473	0.67928099632263	-0.58221799135208	65.000000000000	0.00000000000000
26.969999313354	0.67858380079269	-0.58254343271255	65.000000000000	0.00000000000000
26.979999542236	0.67788511514664	-0.58286821842194	65.000000000000	0.00000000000000
26.989999771118	0.67718482017517	-0.58319258689880	65.000000000000	0.00000000000000
27.000000000000	0.67648297548294	-0.58351624011993	65.000000000000	0.00000000000000
27.010000228882	0.67577958106995	-0.58383941650391	65.000000000000	0.00000000000000
27.020000457764	0.67507457733154	-0.58416187763214	65.000000000000	0.00000000000000
27.030000686646	0.67436802387238	-0.58448386192322	65.000000000000	0.00000000000000
27.040000915527	0.67365992069244	-0.58480519056320	65.000000000000	0.00000000000000
27.049999237061	0.67295026779175	-0.58512586355209	65.000000000000	0.00000000000000
27.059999465942	0.67223894596100	-0.58544594049454	65.000000000000	0.00000000000000
27.069999694824	0.67152601480484	-0.58576554059982	65.000000000000	0.00000000000000
27.079999923706	0.67081153392792	-0.58608442544937	65.000000000000	0.00000000000000
27.090000152588	0.67009544372559	-0.58640265464783	65.000000000000	0.00000000000000
27.100000381470	0.66937768459320	-0.58672028779984	65.000000000000	0.00000000000000
27.110000610352	0.66865855455399	-0.58703726530075	65.000000000000	0.00000000000000
27.120000839233	0.66793763637543	-0.58735358715057	65.000000000000	0.00000000000000
27.129999160767	0.66721528768539	-0.58766931295395	65.000000000000	0.00000000000000
27.139999389648	0.66649109125137	-0.58798438310623	65.000000000000	0.00000000000000
27.149999618530	0.66576552391052	-0.58829879760742	65.000000000000	0.00000000000000
27.159999847412	0.66503816843033	-0.58861243724823	65.000000000000	0.00000000000000
27.170000076294	0.66430938243866	-0.58892548084259	65.000000000000	0.00000000000000
27.180000305176	0.66357880830765	-0.58923792839050	65.000000000000	0.00000000000000
27.190000534058	0.66284674406052	-0.58954972028732	65.000000000000	0.00000000000000
27.200000762939	0.66211295127869	-0.58986067771912	65.000000000000	0.00000000000000
27.209999084473	0.66137760877609	-0.59017097949982	65.000000000000	0.00000000000000
27.219999313354	0.66064053773880	-0.59048062562943	65.000000000000	0.00000000000000
27.229999542236	0.65990203619003	-0.59078967571259	65.000000000000	0.00000000000000
27.239999771118	0.65916174650192	-0.59109777212143	65.000000000000	0.00000000000000
27.250000000000	0.65841996669769	-0.59140539169312	65.000000000000	0.00000000000000
27.260000228882	0.65767639875412	-0.59171217679977	65.000000000000	0.00000000000000
27.270000457764	0.65693128108978	-0.59201824665070	65.000000000000	0.00000000000000
27.280000686646	0.65618455410004	-0.59232366085052	65.000000000000	0.00000000000000
27.290000915527	0.65543609857559	-0.59262830018997	65.000000000000	0.00000000000000
27.299999237061	0.65468609333038	-0.59293210506439	65.000000000000	0.00000000000000
27.309999465942	0.65393441915512	-0.59323525428772	65.000000000000	0.00000000000000
27.319999694824	0.65318107604980	-0.59353768825531	65.000000000000	0.00000000000000
27.329999923706	0.65242618322372	-0.59383928775787	65.000000000000	0.00000000000000
