#Parameters = {d=0.25590452261308; l2=5.1180904522615; lambda=10.236180904523; r=0.034485693467338}
#"Frequency / GHz"	"S1,1 (lambda=10.2362) [Re]"	"S1,1 (lambda=10.2362) [Im]"	"Ref.Imp. [Re]"	"Ref.Imp. [Im]"
#-----------------------------------------------------------------------------------------------------------
25.000000000000	-0.0069372304715216	-0.27465179562569	65.000000000000	0.00000000000000
25.010000228882	-0.0075594503432512	-0.27250096201897	65.000000000000	0.00000000000000
25.020000457764	-0.0081715760752559	-0.27034726738930	65.000000000000	0.00000000000000
25.030000686646	-0.0087736435234547	-0.26819074153900	65.000000000000	0.00000000000000
25.040000915527	-0.0093656266108155	-0.26603144407272	65.000000000000	0.00000000000000
25.049999237061	-0.0099474368616939	-0.26386952400208	65.000000000000	0.00000000000000
25.059999465942	-0.010518976487219	-0.26170495152473	65.000000000000	0.00000000000000
25.069999694824	-0.011080360040069	-0.25953790545464	65.000000000000	0.00000000000000
25.079999923706	-0.011631679721177	-0.25736841559410	65.000000000000	0.00000000000000
25.090000152588	-0.012172781862319	-0.25519651174545	65.000000000000	0.00000000000000
25.100000381470	-0.012703644111753	-0.25302231311798	65.000000000000	0.00000000000000
25.110000610352	-0.013224239461124	-0.25084584951401	65.000000000000	0.00000000000000
25.120000839233	-0.013734665699303	-0.24866726994514	65.000000000000	0.00000000000000
25.129999160767	-0.014234774746001	-0.24648660421371	65.000000000000	0.00000000000000
25.139999389648	-0.014724663458765	-0.24430391192436	65.000000000000	0.00000000000000
25.149999618530	-0.015204074792564	-0.24211928248405	65.000000000000	0.00000000000000
25.159999847412	-0.015673328191042	-0.23993279039860	65.000000000000	0.00000000000000
25.170000076294	-0.016132401302457	-0.23774449527264	65.000000000000	0.00000000000000
25.180000305176	-0.016581151634455	-0.23555445671082	65.000000000000	0.00000000000000
25.190000534058	-0.017019445076585	-0.23336280882359	65.000000000000	0.00000000000000
25.200000762939	-0.017447371035814	-0.23116956651211	65.000000000000	0.00000000000000
25.209999084473	-0.017865123227239	-0.22897481918335	65.000000000000	0.00000000000000
25.219999313354	-0.018272461369634	-0.22677867114544	65.000000000000	0.00000000000000
25.229999542236	-0.018669465556741	-0.22458113729954	65.000000000000	0.00000000000000
25.239999771118	-0.019056007266045	-0.22238233685493	65.000000000000	0.00000000000000
25.250000000000	-0.019432274624705	-0.22018231451511	65.000000000000	0.00000000000000
25.260000228882	-0.019798243418336	-0.21798117458820	65.000000000000	0.00000000000000
25.270000457764	-0.020153781399131	-0.21577896177769	65.000000000000	0.00000000000000
25.280000686646	-0.020499072968960	-0.21357576549053	65.000000000000	0.00000000000000
25.290000915527	-0.020833984017372	-0.21137163043022	65.000000000000	0.00000000000000
25.299999237061	-0.021158393472433	-0.20916666090488	65.000000000000	0.00000000000000
25.309999465942	-0.021472476422787	-0.20696093142033	65.000000000000	0.00000000000000
25.319999694824	-0.021776303648949	-0.20475450158119	65.000000000000	0.00000000000000
25.329999923706	-0.022069653496146	-0.20254744589329	65.000000000000	0.00000000000000
25.340000152588	-0.022352693602443	-0.20033982396126	65.000000000000	0.00000000000000
25.350000381470	-0.022625394165516	-0.19813171029091	65.000000000000	0.00000000000000
25.360000610352	-0.022887725383043	-0.19592320919037	65.000000000000	0.00000000000000
25.370000839233	-0.023139758035541	-0.19371435046196	65.000000000000	0.00000000000000
25.379999160767	-0.023381456732750	-0.19150523841381	65.000000000000	0.00000000000000
25.389999389648	-0.023612791672349	-0.18929591774940	65.000000000000	0.00000000000000
25.399999618530	-0.023833733052015	-0.18708647787571	65.000000000000	0.00000000000000
25.409999847412	-0.024044346064329	-0.18487700819969	65.000000000000	0.00000000000000
25.420000076294	-0.024244681000710	-0.18266752362251	65.000000000000	0.00000000000000
25.430000305176	-0.024434706196189	-0.18045815825462	65.000000000000	0.00000000000000
25.440000534058	-0.024614471942186	-0.17824892699718	65.000000000000	0.00000000000000
25.450000762939	-0.024783940985799	-0.17603994905949	65.000000000000	0.00000000000000
25.459999084473	-0.024943081662059	-0.17383125424385	65.000000000000	0.00000000000000
25.469999313354	-0.025092018768191	-0.17162293195724	65.000000000000	0.00000000000000
25.479999542236	-0.025230709463358	-0.16941504180431	65.000000000000	0.00000000000000
25.489999771118	-0.025359120219946	-0.16720768809319	65.000000000000	0.00000000000000
25.500000000000	-0.025477206334472	-0.16500091552734	65.000000000000	0.00000000000000
25.510000228882	-0.025585163384676	-0.16279478371143	65.000000000000	0.00000000000000
25.520000457764	-0.025682942941785	-0.16058935225010	65.000000000000	0.00000000000000
25.530000686646	-0.025770494714379	-0.15838469564915	65.000000000000	0.00000000000000
25.540000915527	-0.025847848504782	-0.15618093311787	65.000000000000	0.00000000000000
25.549999237061	-0.025915179401636	-0.15397807955742	65.000000000000	0.00000000000000
25.559999465942	-0.025972204282880	-0.15177622437477	65.000000000000	0.00000000000000
25.569999694824	-0.026019165292382	-0.14957541227341	65.000000000000	0.00000000000000
25.579999923706	-0.026055997237563	-0.14737573266029	65.000000000000	0.00000000000000
25.590000152588	-0.026082713156939	-0.14517724514008	65.000000000000	0.00000000000000
25.600000381470	-0.026099393144250	-0.14298005402088	65.000000000000	0.00000000000000
25.610000610352	-0.026106024160981	-0.14078414440155	65.000000000000	0.00000000000000
25.620000839233	-0.026102608069777	-0.13858963549137	65.000000000000	0.00000000000000
25.629999160767	-0.026089267805219	-0.13639658689499	65.000000000000	0.00000000000000
25.639999389648	-0.026065798476338	-0.13420508801937	65.000000000000	0.00000000000000
25.649999618530	-0.026032429188490	-0.13201515376568	65.000000000000	0.00000000000000
25.659999847412	-0.025989077985287	-0.12982688844204	65.000000000000	0.00000000000000
25.670000076294	-0.025935839861631	-0.12764033675194	65.000000000000	0.00000000000000
25.680000305176	-0.025872673839331	-0.12545555830002	65.000000000000	0.00000000000000
25.690000534058	-0.025799598544836	-0.12327264994383	65.000000000000	0.00000000000000
25.700000762939	-0.025716682896018	-0.12109163403511	65.000000000000	0.00000000000000
25.709999084473	-0.025623986497521	-0.11891259998083	65.000000000000	0.00000000000000
25.719999313354	-0.025521438568830	-0.11673562228680	65.000000000000	0.00000000000000
25.729999542236	-0.025409135967493	-0.11456072330475	65.000000000000	0.00000000000000
25.739999771118	-0.025287048891187	-0.11238797754049	65.000000000000	0.00000000000000
25.750000000000	-0.025155248120427	-0.11021748185158	65.000000000000	0.00000000000000
25.760000228882	-0.025013687089086	-0.10804928094149	65.000000000000	0.00000000000000
25.770000457764	-0.024862509220839	-0.10588340461254	65.000000000000	0.00000000000000
25.780000686646	-0.024701688438654	-0.10371994227171	65.000000000000	0.00000000000000
25.790000915527	-0.024531237781048	-0.10155895352364	65.000000000000	0.00000000000000
25.799999237061	-0.024351196363568	-0.099400497972965	65.000000000000	0.00000000000000
25.809999465942	-0.024161593988538	-0.097244635224342	65.000000000000	0.00000000000000
25.819999694824	-0.023962479084730	-0.095091417431831	65.000000000000	0.00000000000000
25.829999923706	-0.023753833025694	-0.092940889298916	65.000000000000	0.00000000000000
25.840000152588	-0.023535730317235	-0.090793147683144	65.000000000000	0.00000000000000
25.850000381470	-0.023308178409934	-0.088648222386837	65.000000000000	0.00000000000000
25.860000610352	-0.023071225732565	-0.086506187915802	65.000000000000	0.00000000000000
25.870000839233	-0.022824909538031	-0.084367088973522	65.000000000000	0.00000000000000
25.879999160767	-0.022569242864847	-0.082230992615223	65.000000000000	0.00000000000000
25.889999389648	-0.022304257377982	-0.080097943544388	65.000000000000	0.00000000000000
25.899999618530	-0.022029992192984	-0.077968008816242	65.000000000000	0.00000000000000
25.909999847412	-0.021746510639787	-0.075841233134270	65.000000000000	0.00000000000000
25.920000076294	-0.021453790366650	-0.073717676103115	65.000000000000	0.00000000000000
25.930000305176	-0.021151915192604	-0.071597404778004	65.000000000000	0.00000000000000
25.940000534058	-0.020840886980295	-0.069480456411839	65.000000000000	0.00000000000000
25.950000762939	-0.020520774647593	-0.067366898059845	65.000000000000	0.00000000000000
25.959999084473	-0.020191572606564	-0.065256774425507	65.000000000000	0.00000000000000
25.969999313354	-0.019853342324495	-0.063150137662888	65.000000000000	0.00000000000000
25.979999542236	-0.019506130367517	-0.061047051101923	65.000000000000	0.00000000000000
25.989999771118	-0.019149929285049	-0.058947563171387	65.000000000000	0.00000000000000
26.000000000000	-0.018784822896123	-0.056851722300053	65.000000000000	0.00000000000000
26.010000228882	-0.018410833552480	-0.054759576916695	65.000000000000	0.00000000000000
26.020000457764	-0.018027989193797	-0.052671186625957	65.000000000000	0.00000000000000
26.030000686646	-0.017636332660913	-0.050586596131325	65.000000000000	0.00000000000000
26.040000915527	-0.017235901206732	-0.048505861312151	65.000000000000	0.00000000000000
26.049999237061	-0.016826750710607	-0.046429023146629	65.000000000000	0.00000000000000
26.059999465942	-0.016408910974860	-0.044356137514114	65.000000000000	0.00000000000000
26.069999694824	-0.015982398763299	-0.042287256568670	65.000000000000	0.00000000000000
26.079999923706	-0.015547277405858	-0.040222421288490	65.000000000000	0.00000000000000
26.090000152588	-0.015103584155440	-0.038161680102348	65.000000000000	0.00000000000000
26.100000381470	-0.014651348814368	-0.036105088889599	65.000000000000	0.00000000000000
26.110000610352	-0.014190630987287	-0.034052681177855	65.000000000000	0.00000000000000
26.120000839233	-0.013721452094615	-0.032004512846470	65.000000000000	0.00000000000000
26.129999160767	-0.013243868015707	-0.029960630461574	65.000000000000	0.00000000000000
26.139999389648	-0.012757902033627	-0.027921080589294	65.000000000000	0.00000000000000
26.149999618530	-0.012263611890376	-0.025885900482535	65.000000000000	0.00000000000000
26.159999847412	-0.011761038564146	-0.023855142295361	65.000000000000	0.00000000000000
26.170000076294	-0.011250215582550	-0.021828848868608	65.000000000000	0.00000000000000
26.180000305176	-0.010731191374362	-0.019807063043118	65.000000000000	0.00000000000000
26.190000534058	-0.010204004123807	-0.017789825797081	65.000000000000	0.00000000000000
26.200000762939	-0.0096687059849501	-0.015777185559273	65.000000000000	0.00000000000000
26.209999084473	-0.0091253314167261	-0.013769182376564	65.000000000000	0.00000000000000
26.219999313354	-0.0085739241912961	-0.011765855364501	65.000000000000	0.00000000000000
26.229999542236	-0.0080145327374339	-0.0097672492265701	65.000000000000	0.00000000000000
26.239999771118	-0.0074472003616393	-0.0077734058722854	65.000000000000	0.00000000000000
26.250000000000	-0.0068719643168151	-0.0057843653485179	65.000000000000	0.00000000000000
26.260000228882	-0.0062888758257031	-0.0038001665379852	65.000000000000	0.00000000000000
26.270000457764	-0.0056979781948030	-0.0018208497203887	65.000000000000	0.00000000000000
26.280000686646	-0.0050993137992918	0.00015354521747213	65.000000000000	0.00000000000000
26.290000915527	-0.0044929292052984	0.0021229810081422	65.000000000000	0.00000000000000
26.299999237061	-0.0038788684178144	0.0040874169208109	65.000000000000	0.00000000000000
26.309999465942	-0.0032571782357991	0.0060468171723187	65.000000000000	0.00000000000000
26.319999694824	-0.0026279010344297	0.0080011440441012	65.000000000000	0.00000000000000
26.329999923706	-0.0019910889677703	0.0099503584206104	65.000000000000	0.00000000000000
26.340000152588	-0.0013467785902321	0.011894427239895	65.000000000000	0.00000000000000
26.350000381470	-0.00069502019323409	0.013833312317729	65.000000000000	0.00000000000000
26.360000610352	-3.5867025871994e-05	0.015766978263855	65.000000000000	0.00000000000000
26.370000839233	0.00063064257847145	0.017695393413305	65.000000000000	0.00000000000000
26.379999160767	0.0013044694205746	0.019618514925241	65.000000000000	0.00000000000000
26.389999389648	0.0019855455029756	0.021536314859986	65.000000000000	0.00000000000000
26.399999618530	0.0026738350279629	0.023448761552572	65.000000000000	0.00000000000000
26.409999847412	0.0033693152945489	0.025355814024806	65.000000000000	0.00000000000000
26.420000076294	0.0040718931704760	0.027257449924946	65.000000000000	0.00000000000000
26.430000305176	0.0047815525904298	0.029153628274798	65.000000000000	0.00000000000000
26.440000534058	0.0054982420988381	0.031044317409396	65.000000000000	0.00000000000000
26.450000762939	0.0062219090759754	0.032929494976997	65.000000000000	0.00000000000000
26.459999084473	0.0069525172002614	0.034809119999409	65.000000000000	0.00000000000000
26.469999313354	0.0076900003477931	0.036683164536953	65.000000000000	0.00000000000000
26.479999542236	0.0084343282505870	0.038551598787308	65.000000000000	0.00000000000000
26.489999771118	0.0091854436323047	0.040414396673441	65.000000000000	0.00000000000000
26.500000000000	0.0099432878196239	0.042271532118320	65.000000000000	0.00000000000000
26.510000228882	0.010707843117416	0.044122967869043	65.000000000000	0.00000000000000
26.520000457764	0.011479040607810	0.045968670397997	65.000000000000	0.00000000000000
26.530000686646	0.012256837449968	0.047808632254601	65.000000000000	0.00000000000000
26.540000915527	0.013041178695858	0.049642812460661	65.000000000000	0.00000000000000
26.549999237061	0.013832026161253	0.051471173763275	65.000000000000	0.00000000000000
26.559999465942	0.014629317447543	0.053293716162443	65.000000000000	0.00000000000000
26.569999694824	0.015433022752404	0.055110394954681	65.000000000000	0.00000000000000
26.579999923706	0.016243077814579	0.056921184062958	65.000000000000	0.00000000000000
26.590000152588	0.017059450969100	0.058726068586111	65.000000000000	0.00000000000000
26.600000381470	0.017882062122226	0.060525018721819	65.000000000000	0.00000000000000
26.610000610352	0.018710892647505	0.062318015843630	65.000000000000	0.00000000000000
26.620000839233	0.019545901566744	0.064105026423931	65.000000000000	0.00000000000000
26.629999160767	0.020387019962072	0.065886035561562	65.000000000000	0.00000000000000
26.639999389648	0.021234182640910	0.067661009728909	65.000000000000	0.00000000000000
26.649999618530	0.022087380290031	0.069429941475391	65.000000000000	0.00000000000000
26.659999847412	0.022946549579501	0.071192793548107	65.000000000000	0.00000000000000
26.670000076294	0.023811616003513	0.072949565947056	65.000000000000	0.00000000000000
26.680000305176	0.024682562798262	0.074700206518173	65.000000000000	0.00000000000000
26.690000534058	0.025559341534972	0.076444715261459	65.000000000000	0.00000000000000
26.700000762939	0.026441868394613	0.078183077275753	65.000000000000	0.00000000000000
26.709999084473	0.027330143377185	0.079915255308151	65.000000000000	0.00000000000000
26.719999313354	0.028224095702171	0.081641249358654	65.000000000000	0.00000000000000
26.729999542236	0.029123673215508	0.083361022174358	65.000000000000	0.00000000000000
26.739999771118	0.030028788372874	0.085074566304684	65.000000000000	0.00000000000000
26.750000000000	0.030939476564527	0.086781851947308	65.000000000000	0.00000000000000
26.760000228882	0.031855635344982	0.088482879102230	65.000000000000	0.00000000000000
26.770000457764	0.032777205109596	0.090177617967129	65.000000000000	0.00000000000000
26.780000686646	0.033704180270433	0.091866053640842	65.000000000000	0.00000000000000
26.790000915527	0.034636471420527	0.093548178672791	65.000000000000	0.00000000000000
26.799999237061	0.035574063658714	0.095223963260651	65.000000000000	0.00000000000000
26.809999465942	0.036516878753901	0.096893392503262	65.000000000000	0.00000000000000
26.819999694824	0.037464898079634	0.098556473851204	65.000000000000	0.00000000000000
26.829999923706	0.038418039679527	0.10021316260099	65.000000000000	0.00000000000000
26.840000152588	0.039376318454742	0.10186345130205	65.000000000000	0.00000000000000
26.850000381470	0.040339585393667	0.10350734740496	65.000000000000	0.00000000000000
26.860000610352	0.041307862848043	0.10514482110739	65.000000000000	0.00000000000000
26.870000839233	0.042281065136194	0.10677585005760	65.000000000000	0.00000000000000
26.879999160767	0.043259210884571	0.10840044170618	65.000000000000	0.00000000000000
26.889999389648	0.044242169708014	0.11001855880022	65.000000000000	0.00000000000000
26.899999618530	0.045229934155941	0.11163021624088	65.000000000000	0.00000000000000
26.909999847412	0.046222493052483	0.11323539167643	65.000000000000	0.00000000000000
26.920000076294	0.047219719737768	0.11483406275511	65.000000000000	0.00000000000000
26.930000305176	0.048221599310637	0.11642623692751	65.000000000000	0.00000000000000
26.940000534058	0.049228116869926	0.11801189929247	65.000000000000	0.00000000000000
26.950000762939	0.050239164382219	0.11959102749825	65.000000000000	0.00000000000000
26.959999084473	0.051254745572805	0.12116362154484	65.000000000000	0.00000000000000
26.969999313354	0.052274808287621	0.12272968143225	65.000000000000	0.00000000000000
26.979999542236	0.053299251943827	0.12428916990757	65.000000000000	0.00000000000000
26.989999771118	0.054328098893166	0.12584210932255	65.000000000000	0.00000000000000
27.000000000000	0.055361233651638	0.12738847732544	65.000000000000	0.00000000000000
27.010000228882	0.056398678570986	0.12892825901508	65.000000000000	0.00000000000000
27.020000457764	0.057440351694822	0.13046146929264	65.000000000000	0.00000000000000
27.030000686646	0.058486178517342	0.13198807835579	65.000000000000	0.00000000000000
27.040000915527	0.059536196291447	0.13350808620453	65.000000000000	0.00000000000000
27.049999237061	0.060590229928493	0.13502149283886	65.000000000000	0.00000000000000
27.059999465942	0.061648387461901	0.13652828335762	65.000000000000	0.00000000000000
27.069999694824	0.062710478901863	0.13802847266197	65.000000000000	0.00000000000000
27.079999923706	0.063776552677155	0.13952203094959	65.000000000000	0.00000000000000
27.090000152588	0.064846508204937	0.14100895822048	65.000000000000	0.00000000000000
27.100000381470	0.065920308232307	0.14248923957348	65.000000000000	0.00000000000000
27.110000610352	0.066997975111008	0.14396291971207	65.000000000000	0.00000000000000
27.120000839233	0.068079367280006	0.14542992413044	65.000000000000	0.00000000000000
27.129999160767	0.069164469838142	0.14689031243324	65.000000000000	0.00000000000000
27.139999389648	0.070253275334835	0.14834403991699	65.000000000000	0.00000000000000
27.149999618530	0.071345686912537	0.14979112148285	65.000000000000	0.00000000000000
27.159999847412	0.072441689670086	0.15123155713081	65.000000000000	0.00000000000000
27.170000076294	0.073541238903999	0.15266533195972	65.000000000000	0.00000000000000
27.180000305176	0.074644267559052	0.15409244596958	65.000000000000	0.00000000000000
27.190000534058	0.075750745832920	0.15551291406155	65.000000000000	0.00000000000000
27.200000762939	0.076860599219799	0.15692672133446	65.000000000000	0.00000000000000
27.209999084473	0.077973835170269	0.15833383798599	65.000000000000	0.00000000000000
27.219999313354	0.079090416431427	0.15973433852196	65.000000000000	0.00000000000000
27.229999542236	0.080210179090500	0.16112816333771	65.000000000000	0.00000000000000
27.239999771118	0.081333257257938	0.16251531243324	65.000000000000	0.00000000000000
27.250000000000	0.082459449768066	0.16389581561089	65.000000000000	0.00000000000000
27.260000228882	0.083588808774948	0.16526965796947	65.000000000000	0.00000000000000
27.270000457764	0.084721252322197	0.16663683950901	65.000000000000	0.00000000000000
27.280000686646	0.085856765508652	0.16799736022949	65.000000000000	0.00000000000000
