#Parameters = {d=0.22625628140703; l2=4.5251256281407; lambda=9.0502512562814; r=0.030490296482412}
#"Frequency / GHz"	"S1,1 (lambda=9.05025) [Re]"	"S1,1 (lambda=9.05025) [Im]"	"Ref.Imp. [Re]"	"Ref.Imp. [Im]"
#-----------------------------------------------------------------------------------------------------------
25.000000000000	0.40473797917366	-0.62592500448227	65.000000000000	0.00000000000000
25.010000228882	0.40331736207008	-0.62573397159576	65.000000000000	0.00000000000000
25.020000457764	0.40189522504807	-0.62553882598877	65.000000000000	0.00000000000000
25.030000686646	0.40047171711922	-0.62533926963806	65.000000000000	0.00000000000000
25.040000915527	0.39904665946960	-0.62513542175293	65.000000000000	0.00000000000000
25.049999237061	0.39762011170387	-0.62492728233337	65.000000000000	0.00000000000000
25.059999465942	0.39619207382202	-0.62471461296082	65.000000000000	0.00000000000000
25.069999694824	0.39476254582405	-0.62449771165848	65.000000000000	0.00000000000000
25.079999923706	0.39333167672157	-0.62427639961243	65.000000000000	0.00000000000000
25.090000152588	0.39189928770065	-0.62405067682266	65.000000000000	0.00000000000000
25.100000381470	0.39046543836594	-0.62382060289383	65.000000000000	0.00000000000000
25.110000610352	0.38903024792671	-0.62358599901199	65.000000000000	0.00000000000000
25.120000839233	0.38759344816208	-0.62334704399109	65.000000000000	0.00000000000000
25.129999160767	0.38615527749062	-0.62310367822647	65.000000000000	0.00000000000000
25.139999389648	0.38471579551697	-0.62285584211349	65.000000000000	0.00000000000000
25.149999618530	0.38327491283417	-0.62260353565216	65.000000000000	0.00000000000000
25.159999847412	0.38183259963989	-0.62234669923782	65.000000000000	0.00000000000000
25.170000076294	0.38038894534111	-0.62208539247513	65.000000000000	0.00000000000000
25.180000305176	0.37894380092621	-0.62181955575943	65.000000000000	0.00000000000000
25.190000534058	0.37749731540680	-0.62154918909073	65.000000000000	0.00000000000000
25.200000762939	0.37604960799217	-0.62127429246902	65.000000000000	0.00000000000000
25.209999084473	0.37460049986839	-0.62099492549896	65.000000000000	0.00000000000000
25.219999313354	0.37315005064011	-0.62071084976196	65.000000000000	0.00000000000000
25.229999542236	0.37169817090034	-0.62042224407196	65.000000000000	0.00000000000000
25.239999771118	0.37024503946304	-0.62012904882431	65.000000000000	0.00000000000000
25.250000000000	0.36879065632820	-0.61983120441437	65.000000000000	0.00000000000000
25.260000228882	0.36733487248421	-0.61952877044678	65.000000000000	0.00000000000000
25.270000457764	0.36587786674500	-0.61922168731689	65.000000000000	0.00000000000000
25.280000686646	0.36441954970360	-0.61890989542007	65.000000000000	0.00000000000000
25.290000915527	0.36296004056931	-0.61859351396561	65.000000000000	0.00000000000000
25.299999237061	0.36149907112122	-0.61827242374420	65.000000000000	0.00000000000000
25.309999465942	0.36003690958023	-0.61794650554657	65.000000000000	0.00000000000000
25.319999694824	0.35857364535332	-0.61761605739594	65.000000000000	0.00000000000000
25.329999923706	0.35710924863815	-0.61728066205978	65.000000000000	0.00000000000000
25.340000152588	0.35564345121384	-0.61694061756134	65.000000000000	0.00000000000000
25.350000381470	0.35417628288269	-0.61659580469131	65.000000000000	0.00000000000000
25.360000610352	0.35270804166794	-0.61624616384506	65.000000000000	0.00000000000000
25.370000839233	0.35123872756958	-0.61589163541794	65.000000000000	0.00000000000000
25.379999160767	0.34976840019226	-0.61553221940994	65.000000000000	0.00000000000000
25.389999389648	0.34829646348953	-0.61516821384430	65.000000000000	0.00000000000000
25.399999618530	0.34682378172874	-0.61479908227921	65.000000000000	0.00000000000000
25.409999847412	0.34534955024719	-0.61442530155182	65.000000000000	0.00000000000000
25.420000076294	0.34387439489365	-0.61404645442963	65.000000000000	0.00000000000000
25.430000305176	0.34239822626114	-0.61366271972656	65.000000000000	0.00000000000000
25.440000534058	0.34092116355896	-0.61327391862869	65.000000000000	0.00000000000000
25.450000762939	0.33944231271744	-0.61288058757782	65.000000000000	0.00000000000000
25.459999084473	0.33796313405037	-0.61248177289963	65.000000000000	0.00000000000000
25.469999313354	0.33648249506950	-0.61207824945450	65.000000000000	0.00000000000000
25.479999542236	0.33500069379807	-0.61166971921921	65.000000000000	0.00000000000000
25.489999771118	0.33351835608482	-0.61125600337982	65.000000000000	0.00000000000000
25.500000000000	0.33203431963921	-0.61083751916885	65.000000000000	0.00000000000000
25.510000228882	0.33055007457733	-0.61041355133057	65.000000000000	0.00000000000000
25.520000457764	0.32906413078308	-0.60998487472534	65.000000000000	0.00000000000000
25.530000686646	0.32757744193077	-0.60955095291138	65.000000000000	0.00000000000000
25.540000915527	0.32609000802040	-0.60911178588867	65.000000000000	0.00000000000000
25.549999237061	0.32460156083107	-0.60866755247116	65.000000000000	0.00000000000000
25.559999465942	0.32311210036278	-0.60821819305420	65.000000000000	0.00000000000000
25.569999694824	0.32162195444107	-0.60776352882385	65.000000000000	0.00000000000000
25.579999923706	0.32013085484505	-0.60730367898941	65.000000000000	0.00000000000000
25.590000152588	0.31863850355148	-0.60683876276016	65.000000000000	0.00000000000000
25.600000381470	0.31714555621147	-0.60636860132217	65.000000000000	0.00000000000000
25.610000610352	0.31565171480179	-0.60589313507080	65.000000000000	0.00000000000000
25.620000839233	0.31415724754333	-0.60541218519211	65.000000000000	0.00000000000000
25.629999160767	0.31266194581985	-0.60492604970932	65.000000000000	0.00000000000000
25.639999389648	0.31116548180580	-0.60443478822708	65.000000000000	0.00000000000000
25.649999618530	0.30966854095459	-0.60393804311752	65.000000000000	0.00000000000000
25.659999847412	0.30817079544067	-0.60343593358994	65.000000000000	0.00000000000000
25.670000076294	0.30667254328728	-0.60292834043503	65.000000000000	0.00000000000000
25.680000305176	0.30517327785492	-0.60241550207138	65.000000000000	0.00000000000000
25.690000534058	0.30367326736450	-0.60189729928970	65.000000000000	0.00000000000000
25.700000762939	0.30217283964157	-0.60137355327606	65.000000000000	0.00000000000000
25.709999084473	0.30067169666290	-0.60084426403046	65.000000000000	0.00000000000000
25.719999313354	0.29916962981224	-0.60030966997147	65.000000000000	0.00000000000000
25.729999542236	0.29766750335693	-0.59976935386658	65.000000000000	0.00000000000000
25.739999771118	0.29616421461105	-0.59922385215759	65.000000000000	0.00000000000000
25.750000000000	0.29466086626053	-0.59867250919342	65.000000000000	0.00000000000000
25.760000228882	0.29315662384033	-0.59811568260193	65.000000000000	0.00000000000000
25.770000457764	0.29165187478065	-0.59755337238312	65.000000000000	0.00000000000000
25.780000686646	0.29014691710472	-0.59698534011841	65.000000000000	0.00000000000000
25.790000915527	0.28864112496376	-0.59641176462173	65.000000000000	0.00000000000000
25.799999237061	0.28713515400887	-0.59583252668381	65.000000000000	0.00000000000000
25.809999465942	0.28562870621681	-0.59524768590927	65.000000000000	0.00000000000000
25.819999694824	0.28412172198296	-0.59465706348419	65.000000000000	0.00000000000000
25.829999923706	0.28261446952820	-0.59406083822250	65.000000000000	0.00000000000000
25.840000152588	0.28110668063164	-0.59345889091492	65.000000000000	0.00000000000000
25.850000381470	0.27959871292114	-0.59285122156143	65.000000000000	0.00000000000000
25.860000610352	0.27809038758278	-0.59223777055740	65.000000000000	0.00000000000000
25.870000839233	0.27658191323280	-0.59161853790283	65.000000000000	0.00000000000000
25.879999160767	0.27507314085960	-0.59099352359772	65.000000000000	0.00000000000000
25.889999389648	0.27356395125389	-0.59036272764206	65.000000000000	0.00000000000000
25.899999618530	0.27205458283424	-0.58972615003586	65.000000000000	0.00000000000000
25.909999847412	0.27054527401924	-0.58908367156982	65.000000000000	0.00000000000000
25.920000076294	0.26903551816940	-0.58843535184860	65.000000000000	0.00000000000000
25.930000305176	0.26752576231956	-0.58778113126755	65.000000000000	0.00000000000000
25.940000534058	0.26601585745811	-0.58712100982666	65.000000000000	0.00000000000000
25.950000762939	0.26450601220131	-0.58645504713058	65.000000000000	0.00000000000000
25.959999084473	0.26299607753754	-0.58578300476074	65.000000000000	0.00000000000000
25.969999313354	0.26148596405983	-0.58510512113571	65.000000000000	0.00000000000000
25.979999542236	0.25997599959373	-0.58442115783691	65.000000000000	0.00000000000000
25.989999771118	0.25846603512764	-0.58373129367828	65.000000000000	0.00000000000000
26.000000000000	0.25695610046387	-0.58303540945053	65.000000000000	0.00000000000000
26.010000228882	0.25544640421867	-0.58233356475830	65.000000000000	0.00000000000000
26.020000457764	0.25393664836884	-0.58162564039230	65.000000000000	0.00000000000000
26.030000686646	0.25242716073990	-0.58091157674789	65.000000000000	0.00000000000000
26.040000915527	0.25091779232025	-0.58019149303436	65.000000000000	0.00000000000000
26.049999237061	0.24940879642963	-0.57946538925171	65.000000000000	0.00000000000000
26.059999465942	0.24789984524250	-0.57873308658600	65.000000000000	0.00000000000000
26.069999694824	0.24639113247395	-0.57799476385117	65.000000000000	0.00000000000000
26.079999923706	0.24488300085068	-0.57725024223328	65.000000000000	0.00000000000000
26.090000152588	0.24337510764599	-0.57649946212769	65.000000000000	0.00000000000000
26.100000381470	0.24186745285988	-0.57574266195297	65.000000000000	0.00000000000000
26.110000610352	0.24036028981209	-0.57497966289520	65.000000000000	0.00000000000000
26.120000839233	0.23885351419449	-0.57421040534973	65.000000000000	0.00000000000000
26.129999160767	0.23734730482101	-0.57343500852585	65.000000000000	0.00000000000000
26.139999389648	0.23584151268005	-0.57265323400497	65.000000000000	0.00000000000000
26.149999618530	0.23433637619019	-0.57186537981033	65.000000000000	0.00000000000000
26.159999847412	0.23283173143864	-0.57107120752335	65.000000000000	0.00000000000000
26.170000076294	0.23132777214050	-0.57027077674866	65.000000000000	0.00000000000000
26.180000305176	0.22982439398766	-0.56946402788162	65.000000000000	0.00000000000000
26.190000534058	0.22832161188126	-0.56865096092224	65.000000000000	0.00000000000000
26.200000762939	0.22681945562363	-0.56783163547516	65.000000000000	0.00000000000000
26.209999084473	0.22531825304031	-0.56700593233109	65.000000000000	0.00000000000000
26.219999313354	0.22381773591042	-0.56617391109467	65.000000000000	0.00000000000000
26.229999542236	0.22231796383858	-0.56533557176590	65.000000000000	0.00000000000000
26.239999771118	0.22081924974918	-0.56449085474014	65.000000000000	0.00000000000000
26.250000000000	0.21932117640972	-0.56363976001740	65.000000000000	0.00000000000000
26.260000228882	0.21782419085503	-0.56278228759766	65.000000000000	0.00000000000000
26.270000457764	0.21632796525955	-0.56191843748093	65.000000000000	0.00000000000000
26.280000686646	0.21483287215233	-0.56104815006256	65.000000000000	0.00000000000000
26.290000915527	0.21333886682987	-0.56017136573792	65.000000000000	0.00000000000000
26.299999237061	0.21184580028057	-0.55928820371628	65.000000000000	0.00000000000000
26.309999465942	0.21035388112068	-0.55839860439301	65.000000000000	0.00000000000000
26.319999694824	0.20886325836182	-0.55750256776810	65.000000000000	0.00000000000000
26.329999923706	0.20737355947495	-0.55660009384155	65.000000000000	0.00000000000000
26.340000152588	0.20588524639606	-0.55569112300873	65.000000000000	0.00000000000000
26.350000381470	0.20439817011356	-0.55477559566498	65.000000000000	0.00000000000000
26.360000610352	0.20291225612164	-0.55385369062424	65.000000000000	0.00000000000000
26.370000839233	0.20142783224583	-0.55292522907257	65.000000000000	0.00000000000000
26.379999160767	0.19994463026524	-0.55199027061462	65.000000000000	0.00000000000000
26.389999389648	0.19846282899380	-0.55104881525040	65.000000000000	0.00000000000000
26.399999618530	0.19698259234428	-0.55010080337524	65.000000000000	0.00000000000000
26.409999847412	0.19550383090973	-0.54914623498917	65.000000000000	0.00000000000000
26.420000076294	0.19402645528316	-0.54818516969681	65.000000000000	0.00000000000000
26.430000305176	0.19255073368549	-0.54721754789352	65.000000000000	0.00000000000000
26.440000534058	0.19107674062252	-0.54624342918396	65.000000000000	0.00000000000000
26.450000762939	0.18960419297218	-0.54526269435883	65.000000000000	0.00000000000000
26.459999084473	0.18813344836235	-0.54427540302277	65.000000000000	0.00000000000000
26.469999313354	0.18666428327560	-0.54328155517578	65.000000000000	0.00000000000000
26.479999542236	0.18519705533981	-0.54228115081787	65.000000000000	0.00000000000000
26.489999771118	0.18373160064220	-0.54127413034439	65.000000000000	0.00000000000000
26.500000000000	0.18226790428162	-0.54026049375534	65.000000000000	0.00000000000000
26.510000228882	0.18080621957779	-0.53924036026001	65.000000000000	0.00000000000000
26.520000457764	0.17934633791447	-0.53821355104446	65.000000000000	0.00000000000000
26.530000686646	0.17788839340210	-0.53718024492264	65.000000000000	0.00000000000000
26.540000915527	0.17643262445927	-0.53614026308060	65.000000000000	0.00000000000000
26.549999237061	0.17497885227203	-0.53509372472763	65.000000000000	0.00000000000000
26.559999465942	0.17352719604969	-0.53404045104980	65.000000000000	0.00000000000000
26.569999694824	0.17207758128643	-0.53298068046570	65.000000000000	0.00000000000000
26.579999923706	0.17063020169735	-0.53191435337067	65.000000000000	0.00000000000000
26.590000152588	0.16918504238129	-0.53084135055542	65.000000000000	0.00000000000000
26.600000381470	0.16774216294289	-0.52976179122925	65.000000000000	0.00000000000000
26.610000610352	0.16630148887634	-0.52867555618286	65.000000000000	0.00000000000000
26.620000839233	0.16486330330372	-0.52758270502090	65.000000000000	0.00000000000000
26.629999160767	0.16342738270760	-0.52648329734802	65.000000000000	0.00000000000000
26.639999389648	0.16199401021004	-0.52537721395493	65.000000000000	0.00000000000000
26.649999618530	0.16056312620640	-0.52426457405090	65.000000000000	0.00000000000000
26.659999847412	0.15913461148739	-0.52314531803131	65.000000000000	0.00000000000000
26.670000076294	0.15770862996578	-0.52201944589615	65.000000000000	0.00000000000000
26.680000305176	0.15628547966480	-0.52088695764542	65.000000000000	0.00000000000000
26.690000534058	0.15486481785774	-0.51974785327911	65.000000000000	0.00000000000000
26.700000762939	0.15344695746899	-0.51860219240189	65.000000000000	0.00000000000000
26.709999084473	0.15203166007996	-0.51744991540909	65.000000000000	0.00000000000000
26.719999313354	0.15061920881271	-0.51629108190536	65.000000000000	0.00000000000000
26.729999542236	0.14920966327190	-0.51512563228607	65.000000000000	0.00000000000000
26.739999771118	0.14780279994011	-0.51395362615585	65.000000000000	0.00000000000000
26.750000000000	0.14639914035797	-0.51277500391006	65.000000000000	0.00000000000000
26.760000228882	0.14499811828136	-0.51158976554871	65.000000000000	0.00000000000000
26.770000457764	0.14360025525093	-0.51039803028107	65.000000000000	0.00000000000000
26.780000686646	0.14220535755157	-0.50919961929321	65.000000000000	0.00000000000000
26.790000915527	0.14081370830536	-0.50799477100372	65.000000000000	0.00000000000000
26.799999237061	0.13942496478558	-0.50678336620331	65.000000000000	0.00000000000000
26.809999465942	0.13803952932358	-0.50556534528732	65.000000000000	0.00000000000000
26.819999694824	0.13665722310543	-0.50434088706970	65.000000000000	0.00000000000000
26.829999923706	0.13527816534042	-0.50310975313187	65.000000000000	0.00000000000000
26.840000152588	0.13390241563320	-0.50187212228775	65.000000000000	0.00000000000000
26.850000381470	0.13253003358841	-0.50062811374664	65.000000000000	0.00000000000000
26.860000610352	0.13116115331650	-0.49937748908997	65.000000000000	0.00000000000000
26.870000839233	0.12979556620121	-0.49812042713165	65.000000000000	0.00000000000000
26.879999160767	0.12843343615532	-0.49685683846474	65.000000000000	0.00000000000000
26.889999389648	0.12707492709160	-0.49558675289154	65.000000000000	0.00000000000000
26.899999618530	0.12571993470192	-0.49431020021439	65.000000000000	0.00000000000000
26.909999847412	0.12436841428280	-0.49302724003792	65.000000000000	0.00000000000000
26.920000076294	0.12302073836327	-0.49173781275749	65.000000000000	0.00000000000000
26.930000305176	0.12167672067881	-0.49044200778008	65.000000000000	0.00000000000000
26.940000534058	0.12033638358116	-0.48913970589638	65.000000000000	0.00000000000000
26.950000762939	0.11899976432323	-0.48783102631569	65.000000000000	0.00000000000000
26.959999084473	0.11766702681780	-0.48651593923569	65.000000000000	0.00000000000000
26.969999313354	0.11633821576834	-0.48519447445869	65.000000000000	0.00000000000000
26.979999542236	0.11501334607601	-0.48386663198471	65.000000000000	0.00000000000000
26.989999771118	0.11369224637747	-0.48253247141838	65.000000000000	0.00000000000000
27.000000000000	0.11237528920174	-0.48119196295738	65.000000000000	0.00000000000000
27.010000228882	0.11106240749359	-0.47984510660172	65.000000000000	0.00000000000000
27.020000457764	0.10975350439548	-0.47849196195602	65.000000000000	0.00000000000000
27.030000686646	0.10844875127077	-0.47713249921799	65.000000000000	0.00000000000000
27.040000915527	0.10714817047119	-0.47576674818993	65.000000000000	0.00000000000000
27.049999237061	0.10585181415081	-0.47439473867416	65.000000000000	0.00000000000000
27.059999465942	0.10455971211195	-0.47301650047302	65.000000000000	0.00000000000000
27.069999694824	0.10327190160751	-0.47163206338882	65.000000000000	0.00000000000000
27.079999923706	0.10198852419853	-0.47024130821228	65.000000000000	0.00000000000000
27.090000152588	0.10070952028036	-0.46884441375732	65.000000000000	0.00000000000000
27.100000381470	0.099434800446033	-0.46744138002396	65.000000000000	0.00000000000000
27.110000610352	0.098164640367031	-0.46603214740753	65.000000000000	0.00000000000000
27.120000839233	0.096898958086967	-0.46461680531502	65.000000000000	0.00000000000000
27.129999160767	0.095637895166874	-0.46319532394409	65.000000000000	0.00000000000000
27.139999389648	0.094381384551525	-0.46176773309708	65.000000000000	0.00000000000000
27.149999618530	0.093129567801952	-0.46033403277397	65.000000000000	0.00000000000000
27.159999847412	0.091882377862930	-0.45889434218407	65.000000000000	0.00000000000000
27.170000076294	0.090639956295490	-0.45744860172272	65.000000000000	0.00000000000000
27.180000305176	0.089402236044407	-0.45599684119225	65.000000000000	0.00000000000000
27.190000534058	0.088169351220131	-0.45453906059265	65.000000000000	0.00000000000000
27.200000762939	0.086941242218018	-0.45307528972626	65.000000000000	0.00000000000000
27.209999084473	0.085718154907227	-0.45160555839539	65.000000000000	0.00000000000000
27.219999313354	0.084499910473824	-0.45012995600700	65.000000000000	0.00000000000000
27.229999542236	0.083286643028259	-0.44864839315414	65.000000000000	0.00000000000000
27.239999771118	0.082078509032726	-0.44716098904610	65.000000000000	0.00000000000000
27.250000000000	0.080875329673290	-0.44566771388054	65.000000000000	0.00000000000000
27.260000228882	0.079677343368530	-0.44416859745979	65.000000000000	0.00000000000000
27.270000457764	0.078484371304512	-0.44266363978386	65.000000000000	0.00000000000000
27.280000686646	0.077296577394009	-0.44115290045738	65.000000000000	0.00000000000000
27.290000915527	0.076113969087601	-0.43963646888733	65.000000000000	0.00000000000000
27.299999237061	0.074936702847481	-0.43811422586441	65.000000000000	0.00000000000000
27.309999465942	0.073764704167843	-0.43658629059792	65.000000000000	0.00000000000000
27.319999694824	0.072598002851009	-0.43505269289017	65.000000000000	0.00000000000000
27.329999923706	0.071436740458012	-0.43351343274117	65.000000000000	0.00000000000000
