#Parameters = {d=0.22575376884422; l2=4.5150753768844; lambda=9.0301507537688; r=0.030422577889447}
#"Frequency / GHz"	"S1,1 (lambda=9.03015) [Re]"	"S1,1 (lambda=9.03015) [Im]"	"Ref.Imp. [Re]"	"Ref.Imp. [Im]"
#-----------------------------------------------------------------------------------------------------------
25.000000000000	0.41253027319908	-0.62690216302872	65.000000000000	0.00000000000000
25.010000228882	0.41112163662910	-0.62673485279083	65.000000000000	0.00000000000000
25.020000457764	0.40971145033836	-0.62656331062317	65.000000000000	0.00000000000000
25.030000686646	0.40829980373383	-0.62638753652573	65.000000000000	0.00000000000000
25.040000915527	0.40688666701317	-0.62620759010315	65.000000000000	0.00000000000000
25.049999237061	0.40547183156013	-0.62602329254150	65.000000000000	0.00000000000000
25.059999465942	0.40405571460724	-0.62583470344543	65.000000000000	0.00000000000000
25.069999694824	0.40263783931732	-0.62564194202423	65.000000000000	0.00000000000000
25.079999923706	0.40121868252754	-0.62544488906860	65.000000000000	0.00000000000000
25.090000152588	0.39979791641235	-0.62524354457855	65.000000000000	0.00000000000000
25.100000381470	0.39837577939034	-0.62503784894943	65.000000000000	0.00000000000000
25.110000610352	0.39695209264755	-0.62482786178589	65.000000000000	0.00000000000000
25.120000839233	0.39552706480026	-0.62461358308792	65.000000000000	0.00000000000000
25.129999160767	0.39410042762756	-0.62439483404160	65.000000000000	0.00000000000000
25.139999389648	0.39267238974571	-0.62417191267014	65.000000000000	0.00000000000000
25.149999618530	0.39124295115471	-0.62394446134567	65.000000000000	0.00000000000000
25.159999847412	0.38981205224991	-0.62371277809143	65.000000000000	0.00000000000000
25.170000076294	0.38837972283363	-0.62347656488419	65.000000000000	0.00000000000000
25.180000305176	0.38694596290588	-0.62323606014252	65.000000000000	0.00000000000000
25.190000534058	0.38551089167595	-0.62299108505249	65.000000000000	0.00000000000000
25.200000762939	0.38407421112061	-0.62274163961411	65.000000000000	0.00000000000000
25.209999084473	0.38263624906540	-0.62248784303665	65.000000000000	0.00000000000000
25.219999313354	0.38119697570801	-0.62222951650620	65.000000000000	0.00000000000000
25.229999542236	0.37975636124611	-0.62196671962738	65.000000000000	0.00000000000000
25.239999771118	0.37831407785416	-0.62169945240021	65.000000000000	0.00000000000000
25.250000000000	0.37687081098557	-0.62142771482468	65.000000000000	0.00000000000000
25.260000228882	0.37542590498924	-0.62115144729614	65.000000000000	0.00000000000000
25.270000457764	0.37397980690002	-0.62087059020996	65.000000000000	0.00000000000000
25.280000686646	0.37253230810165	-0.62058526277542	65.000000000000	0.00000000000000
25.290000915527	0.37108352780342	-0.62029528617859	65.000000000000	0.00000000000000
25.299999237061	0.36963331699371	-0.62000083923340	65.000000000000	0.00000000000000
25.309999465942	0.36818203330040	-0.61970168352127	65.000000000000	0.00000000000000
25.319999694824	0.36672952771187	-0.61939799785614	65.000000000000	0.00000000000000
25.329999923706	0.36527520418167	-0.61908978223801	65.000000000000	0.00000000000000
25.340000152588	0.36381998658180	-0.61877679824829	65.000000000000	0.00000000000000
25.350000381470	0.36236360669136	-0.61845910549164	65.000000000000	0.00000000000000
25.360000610352	0.36090573668480	-0.61813682317734	65.000000000000	0.00000000000000
25.370000839233	0.35944676399231	-0.61780983209610	65.000000000000	0.00000000000000
25.379999160767	0.35798633098602	-0.61747819185257	65.000000000000	0.00000000000000
25.389999389648	0.35652479529381	-0.61714178323746	65.000000000000	0.00000000000000
25.399999618530	0.35506215691566	-0.61680060625076	65.000000000000	0.00000000000000
25.409999847412	0.35359814763069	-0.61645472049713	65.000000000000	0.00000000000000
25.420000076294	0.35213306546211	-0.61610394716263	65.000000000000	0.00000000000000
25.430000305176	0.35066691040993	-0.61574840545654	65.000000000000	0.00000000000000
25.440000534058	0.34919917583466	-0.61538827419281	65.000000000000	0.00000000000000
25.450000762939	0.34773072600365	-0.61502307653427	65.000000000000	0.00000000000000
25.459999084473	0.34626066684723	-0.61465322971344	65.000000000000	0.00000000000000
25.469999313354	0.34478989243507	-0.61427825689316	65.000000000000	0.00000000000000
25.479999542236	0.34331789612770	-0.61389851570129	65.000000000000	0.00000000000000
25.489999771118	0.34184497594833	-0.61351376771927	65.000000000000	0.00000000000000
25.500000000000	0.34037050604820	-0.61312443017960	65.000000000000	0.00000000000000
25.510000228882	0.33889514207840	-0.61272990703583	65.000000000000	0.00000000000000
25.520000457764	0.33741888403893	-0.61233037710190	65.000000000000	0.00000000000000
25.530000686646	0.33594146370888	-0.61192601919174	65.000000000000	0.00000000000000
25.540000915527	0.33446288108826	-0.61151665449142	65.000000000000	0.00000000000000
25.549999237061	0.33298346400261	-0.61110222339630	65.000000000000	0.00000000000000
25.559999465942	0.33150261640549	-0.61068290472031	65.000000000000	0.00000000000000
25.569999694824	0.33002129197121	-0.61025828123093	65.000000000000	0.00000000000000
25.579999923706	0.32853859663010	-0.60982882976532	65.000000000000	0.00000000000000
25.590000152588	0.32705545425415	-0.60939407348633	65.000000000000	0.00000000000000
25.600000381470	0.32557094097137	-0.60895425081253	65.000000000000	0.00000000000000
25.610000610352	0.32408544421196	-0.60850948095322	65.000000000000	0.00000000000000
25.620000839233	0.32259923219681	-0.60805940628052	65.000000000000	0.00000000000000
25.629999160767	0.32111173868179	-0.60760438442230	65.000000000000	0.00000000000000
25.639999389648	0.31962385773659	-0.60714381933212	65.000000000000	0.00000000000000
25.649999618530	0.31813475489616	-0.60667830705643	65.000000000000	0.00000000000000
25.659999847412	0.31664505600929	-0.60620748996735	65.000000000000	0.00000000000000
25.670000076294	0.31515440344810	-0.60573136806488	65.000000000000	0.00000000000000
25.680000305176	0.31366261839867	-0.60525017976761	65.000000000000	0.00000000000000
25.690000534058	0.31217056512833	-0.60476350784302	65.000000000000	0.00000000000000
25.700000762939	0.31067737936974	-0.60427165031433	65.000000000000	0.00000000000000
25.709999084473	0.30918365716934	-0.60377436876297	65.000000000000	0.00000000000000
25.719999313354	0.30768916010857	-0.60327172279358	65.000000000000	0.00000000000000
25.729999542236	0.30619361996651	-0.60276395082474	65.000000000000	0.00000000000000
25.739999771118	0.30469784140587	-0.60225051641464	65.000000000000	0.00000000000000
25.750000000000	0.30320110917091	-0.60173183679581	65.000000000000	0.00000000000000
25.760000228882	0.30170363187790	-0.60120773315430	65.000000000000	0.00000000000000
25.770000457764	0.30020573735237	-0.60067802667618	65.000000000000	0.00000000000000
25.780000686646	0.29870697855949	-0.60014313459396	65.000000000000	0.00000000000000
25.790000915527	0.29720774292946	-0.59960246086121	65.000000000000	0.00000000000000
25.799999237061	0.29570782184601	-0.59905642271042	65.000000000000	0.00000000000000
25.809999465942	0.29420745372772	-0.59850490093231	65.000000000000	0.00000000000000
25.819999694824	0.29270648956299	-0.59794777631760	65.000000000000	0.00000000000000
25.829999923706	0.29120501875877	-0.59738516807556	65.000000000000	0.00000000000000
25.840000152588	0.28970313072205	-0.59681695699692	65.000000000000	0.00000000000000
25.850000381470	0.28820061683655	-0.59624314308167	65.000000000000	0.00000000000000
25.860000610352	0.28669771552086	-0.59566366672516	65.000000000000	0.00000000000000
25.870000839233	0.28519442677498	-0.59507858753204	65.000000000000	0.00000000000000
25.879999160767	0.28369066119194	-0.59448784589767	65.000000000000	0.00000000000000
25.889999389648	0.28218653798103	-0.59389144182205	65.000000000000	0.00000000000000
25.899999618530	0.28068214654922	-0.59328937530518	65.000000000000	0.00000000000000
25.909999847412	0.27917724847794	-0.59268158674240	65.000000000000	0.00000000000000
25.920000076294	0.27767217159271	-0.59206795692444	65.000000000000	0.00000000000000
25.930000305176	0.27616664767265	-0.59144866466522	65.000000000000	0.00000000000000
25.940000534058	0.27466112375259	-0.59082359075546	65.000000000000	0.00000000000000
25.950000762939	0.27315518260002	-0.59019273519516	65.000000000000	0.00000000000000
25.959999084473	0.27164921164513	-0.58955603837967	65.000000000000	0.00000000000000
25.969999313354	0.27014285326004	-0.58891355991364	65.000000000000	0.00000000000000
25.979999542236	0.26863646507263	-0.58826518058777	65.000000000000	0.00000000000000
25.989999771118	0.26712989807129	-0.58761101961136	65.000000000000	0.00000000000000
26.000000000000	0.26562324166298	-0.58695089817047	65.000000000000	0.00000000000000
26.010000228882	0.26411646604538	-0.58628487586975	65.000000000000	0.00000000000000
26.020000457764	0.26260980963707	-0.58561301231384	65.000000000000	0.00000000000000
26.030000686646	0.26110303401947	-0.58493512868881	65.000000000000	0.00000000000000
26.040000915527	0.25959628820419	-0.58425134420395	65.000000000000	0.00000000000000
26.049999237061	0.25808942317963	-0.58356159925461	65.000000000000	0.00000000000000
26.059999465942	0.25658285617828	-0.58286583423615	65.000000000000	0.00000000000000
26.069999694824	0.25507622957230	-0.58216410875320	65.000000000000	0.00000000000000
26.079999923706	0.25356978178024	-0.58145630359650	65.000000000000	0.00000000000000
26.090000152588	0.25206351280212	-0.58074247837067	65.000000000000	0.00000000000000
26.100000381470	0.25055751204491	-0.58002263307571	65.000000000000	0.00000000000000
26.110000610352	0.24905143678188	-0.57929664850235	65.000000000000	0.00000000000000
26.120000839233	0.24754595756531	-0.57856458425522	65.000000000000	0.00000000000000
26.129999160767	0.24604059755802	-0.57782649993896	65.000000000000	0.00000000000000
26.139999389648	0.24453563988209	-0.57708227634430	65.000000000000	0.00000000000000
26.149999618530	0.24303084611893	-0.57633191347122	65.000000000000	0.00000000000000
26.159999847412	0.24152661859989	-0.57557535171509	65.000000000000	0.00000000000000
26.170000076294	0.24002262949944	-0.57481271028519	65.000000000000	0.00000000000000
26.180000305176	0.23851932585239	-0.57404375076294	65.000000000000	0.00000000000000
26.190000534058	0.23701626062393	-0.57326859235764	65.000000000000	0.00000000000000
26.200000762939	0.23551368713379	-0.57248741388321	65.000000000000	0.00000000000000
26.209999084473	0.23401182889938	-0.57169991731644	65.000000000000	0.00000000000000
26.219999313354	0.23251047730446	-0.57090616226196	65.000000000000	0.00000000000000
26.229999542236	0.23100969195366	-0.57010614871979	65.000000000000	0.00000000000000
26.239999771118	0.22950959205627	-0.56929987668991	65.000000000000	0.00000000000000
26.250000000000	0.22801010310650	-0.56848728656769	65.000000000000	0.00000000000000
26.260000228882	0.22651135921478	-0.56766843795776	65.000000000000	0.00000000000000
26.270000457764	0.22501330077648	-0.56684333086014	65.000000000000	0.00000000000000
26.280000686646	0.22351619601250	-0.56601184606552	65.000000000000	0.00000000000000
26.290000915527	0.22201970219612	-0.56517404317856	65.000000000000	0.00000000000000
26.299999237061	0.22052420675755	-0.56432986259460	65.000000000000	0.00000000000000
26.309999465942	0.21902953088284	-0.56347936391830	65.000000000000	0.00000000000000
26.319999694824	0.21753570437431	-0.56262254714966	65.000000000000	0.00000000000000
26.329999923706	0.21604283154011	-0.56175929307938	65.000000000000	0.00000000000000
26.340000152588	0.21455112099648	-0.56088966131210	65.000000000000	0.00000000000000
26.350000381470	0.21306036412716	-0.56001365184784	65.000000000000	0.00000000000000
26.360000610352	0.21157065033913	-0.55913114547729	65.000000000000	0.00000000000000
26.370000839233	0.21008193492889	-0.55824232101440	65.000000000000	0.00000000000000
26.379999160767	0.20859453082085	-0.55734705924988	65.000000000000	0.00000000000000
26.389999389648	0.20710818469524	-0.55644530057907	65.000000000000	0.00000000000000
26.399999618530	0.20562319457531	-0.55553710460663	65.000000000000	0.00000000000000
26.409999847412	0.20413933694363	-0.55462247133255	65.000000000000	0.00000000000000
26.420000076294	0.20265688002110	-0.55370128154755	65.000000000000	0.00000000000000
26.430000305176	0.20117563009262	-0.55277377367020	65.000000000000	0.00000000000000
26.440000534058	0.19969587028027	-0.55183964967728	65.000000000000	0.00000000000000
26.450000762939	0.19821749627590	-0.55089902877808	65.000000000000	0.00000000000000
26.459999084473	0.19674056768417	-0.54995203018188	65.000000000000	0.00000000000000
26.469999313354	0.19526495039463	-0.54899841547012	65.000000000000	0.00000000000000
26.479999542236	0.19379097223282	-0.54803830385208	65.000000000000	0.00000000000000
26.489999771118	0.19231854379177	-0.54707169532776	65.000000000000	0.00000000000000
26.500000000000	0.19084781408310	-0.54609853029251	65.000000000000	0.00000000000000
26.510000228882	0.18937879800797	-0.54511886835098	65.000000000000	0.00000000000000
26.520000457764	0.18791128695011	-0.54413259029388	65.000000000000	0.00000000000000
26.530000686646	0.18644559383392	-0.54313981533051	65.000000000000	0.00000000000000
26.540000915527	0.18498148024082	-0.54214054346085	65.000000000000	0.00000000000000
26.549999237061	0.18351937830448	-0.54113465547562	65.000000000000	0.00000000000000
26.559999465942	0.18205903470516	-0.54012215137482	65.000000000000	0.00000000000000
26.569999694824	0.18060053884983	-0.53910315036774	65.000000000000	0.00000000000000
26.579999923706	0.17914412915707	-0.53807759284973	65.000000000000	0.00000000000000
26.590000152588	0.17768961191177	-0.53704547882080	65.000000000000	0.00000000000000
26.600000381470	0.17623701691628	-0.53600668907166	65.000000000000	0.00000000000000
26.610000610352	0.17478652298450	-0.53496146202087	65.000000000000	0.00000000000000
26.620000839233	0.17333827912807	-0.53390955924988	65.000000000000	0.00000000000000
26.629999160767	0.17189194262028	-0.53285109996796	65.000000000000	0.00000000000000
26.639999389648	0.17044782638550	-0.53178602457047	65.000000000000	0.00000000000000
26.649999618530	0.16900603473186	-0.53071439266205	65.000000000000	0.00000000000000
26.659999847412	0.16756640374660	-0.52963614463806	65.000000000000	0.00000000000000
26.670000076294	0.16612909734249	-0.52855139970779	65.000000000000	0.00000000000000
26.680000305176	0.16469424962997	-0.52746003866196	65.000000000000	0.00000000000000
26.690000534058	0.16326165199280	-0.52636206150055	65.000000000000	0.00000000000000
26.700000762939	0.16183148324490	-0.52525752782822	65.000000000000	0.00000000000000
26.709999084473	0.16040390729904	-0.52414637804031	65.000000000000	0.00000000000000
26.719999313354	0.15897867083549	-0.52302867174149	65.000000000000	0.00000000000000
26.729999542236	0.15755598247051	-0.52190434932709	65.000000000000	0.00000000000000
26.739999771118	0.15613599121571	-0.52077347040176	65.000000000000	0.00000000000000
26.750000000000	0.15471872687340	-0.51963603496552	65.000000000000	0.00000000000000
26.760000228882	0.15330410003662	-0.51849198341370	65.000000000000	0.00000000000000
26.770000457764	0.15189228951931	-0.51734137535095	65.000000000000	0.00000000000000
26.780000686646	0.15048305690289	-0.51618415117264	65.000000000000	0.00000000000000
26.790000915527	0.14907670021057	-0.51502043008804	65.000000000000	0.00000000000000
26.799999237061	0.14767327904701	-0.51385015249252	65.000000000000	0.00000000000000
26.809999465942	0.14627254009247	-0.51267325878143	65.000000000000	0.00000000000000
26.819999694824	0.14487494528294	-0.51148986816406	65.000000000000	0.00000000000000
26.829999923706	0.14348025619984	-0.51029998064041	65.000000000000	0.00000000000000
26.840000152588	0.14208872616291	-0.50910347700119	65.000000000000	0.00000000000000
26.850000381470	0.14070020616055	-0.50790047645569	65.000000000000	0.00000000000000
26.860000610352	0.13931469619274	-0.50669091939926	65.000000000000	0.00000000000000
26.870000839233	0.13793247938156	-0.50547486543655	65.000000000000	0.00000000000000
26.879999160767	0.13655336201191	-0.50425231456757	65.000000000000	0.00000000000000
26.889999389648	0.13517761230469	-0.50302320718765	65.000000000000	0.00000000000000
26.899999618530	0.13380503654480	-0.50178766250610	65.000000000000	0.00000000000000
26.909999847412	0.13243591785431	-0.50054556131363	65.000000000000	0.00000000000000
26.920000076294	0.13107004761696	-0.49929705262184	65.000000000000	0.00000000000000
26.930000305176	0.12970769405365	-0.49804210662842	65.000000000000	0.00000000000000
26.940000534058	0.12834876775742	-0.49678060412407	65.000000000000	0.00000000000000
26.950000762939	0.12699347734451	-0.49551266431808	65.000000000000	0.00000000000000
26.959999084473	0.12564155459404	-0.49423834681511	65.000000000000	0.00000000000000
26.969999313354	0.12429332733154	-0.49295756220818	65.000000000000	0.00000000000000
26.979999542236	0.12294868379831	-0.49167037010193	65.000000000000	0.00000000000000
26.989999771118	0.12160778790712	-0.49037671089172	65.000000000000	0.00000000000000
27.000000000000	0.12027056515217	-0.48907682299614	65.000000000000	0.00000000000000
27.010000228882	0.11893715709448	-0.48777037858963	65.000000000000	0.00000000000000
27.020000457764	0.11760751157999	-0.48645764589310	65.000000000000	0.00000000000000
27.030000686646	0.11628174036741	-0.48513856530190	65.000000000000	0.00000000000000
27.040000915527	0.11495991796255	-0.48381310701370	65.000000000000	0.00000000000000
27.049999237061	0.11364206671715	-0.48248130083084	65.000000000000	0.00000000000000
27.059999465942	0.11232800036669	-0.48114326596260	65.000000000000	0.00000000000000
27.069999694824	0.11101820319891	-0.47979888319969	65.000000000000	0.00000000000000
27.079999923706	0.10971226543188	-0.47844821214676	65.000000000000	0.00000000000000
27.090000152588	0.10841067135334	-0.47709128260612	65.000000000000	0.00000000000000
27.100000381470	0.10711301863194	-0.47572812438011	65.000000000000	0.00000000000000
27.110000610352	0.10581966489553	-0.47435867786407	65.000000000000	0.00000000000000
27.120000839233	0.10453055799007	-0.47298303246498	65.000000000000	0.00000000000000
27.129999160767	0.10324581712484	-0.47160118818283	65.000000000000	0.00000000000000
27.139999389648	0.10196528583765	-0.47021317481995	65.000000000000	0.00000000000000
27.149999618530	0.10068909823895	-0.46881902217865	65.000000000000	0.00000000000000
27.159999847412	0.099417507648468	-0.46741867065430	65.000000000000	0.00000000000000
27.170000076294	0.098150216042995	-0.46601215004921	65.000000000000	0.00000000000000
27.180000305176	0.096887499094009	-0.46459954977036	65.000000000000	0.00000000000000
27.190000534058	0.095629274845123	-0.46318089962006	65.000000000000	0.00000000000000
27.200000762939	0.094375573098660	-0.46175616979599	65.000000000000	0.00000000000000
27.209999084473	0.093126654624939	-0.46032533049583	65.000000000000	0.00000000000000
27.219999313354	0.091882340610027	-0.45888850092888	65.000000000000	0.00000000000000
27.229999542236	0.090642660856247	-0.45744565129280	65.000000000000	0.00000000000000
27.239999771118	0.089407883584499	-0.45599684119225	65.000000000000	0.00000000000000
27.250000000000	0.088177688419819	-0.45454198122025	65.000000000000	0.00000000000000
27.260000228882	0.086952462792397	-0.45308125019073	65.000000000000	0.00000000000000
27.270000457764	0.085732012987137	-0.45161455869675	65.000000000000	0.00000000000000
27.280000686646	0.084516599774361	-0.45014196634293	65.000000000000	0.00000000000000
27.290000915527	0.083306148648262	-0.44866347312927	65.000000000000	0.00000000000000
27.299999237061	0.082100585103035	-0.44717913866043	65.000000000000	0.00000000000000
27.309999465942	0.080900050699711	-0.44568899273872	65.000000000000	0.00000000000000
27.319999694824	0.079704686999321	-0.44419303536415	65.000000000000	0.00000000000000
27.329999923706	0.078514523804188	-0.44269123673439	65.000000000000	0.00000000000000
