#Parameters = {d=0.21118090452261; l2=4.2236180904523; lambda=8.4472361809045; r=0.028458738693467}
#"Frequency / GHz"	"S1,1 (lambda=8.44724) [Re]"	"S1,1 (lambda=8.44724) [Im]"	"Ref.Imp. [Re]"	"Ref.Imp. [Im]"
#-----------------------------------------------------------------------------------------------------------
25.000000000000	0.60769027471542	-0.60898983478546	65.000000000000	0.00000000000000
25.010000228882	0.60674065351486	-0.60928118228912	65.000000000000	0.00000000000000
25.020000457764	0.60578858852386	-0.60957109928131	65.000000000000	0.00000000000000
25.030000686646	0.60483419895172	-0.60985940694809	65.000000000000	0.00000000000000
25.040000915527	0.60387718677521	-0.61014628410339	65.000000000000	0.00000000000000
25.049999237061	0.60291773080826	-0.61043167114258	65.000000000000	0.00000000000000
25.059999465942	0.60195600986481	-0.61071544885635	65.000000000000	0.00000000000000
25.069999694824	0.60099142789841	-0.61099767684937	65.000000000000	0.00000000000000
25.079999923706	0.60002470016479	-0.61127829551697	65.000000000000	0.00000000000000
25.090000152588	0.59905540943146	-0.61155730485916	65.000000000000	0.00000000000000
25.100000381470	0.59808355569839	-0.61183470487595	65.000000000000	0.00000000000000
25.110000610352	0.59710949659348	-0.61211055517197	65.000000000000	0.00000000000000
25.120000839233	0.59613275527954	-0.61238473653793	65.000000000000	0.00000000000000
25.129999160767	0.59515357017517	-0.61265718936920	65.000000000000	0.00000000000000
25.139999389648	0.59417212009430	-0.61292809247971	65.000000000000	0.00000000000000
25.149999618530	0.59318804740906	-0.61319726705551	65.000000000000	0.00000000000000
25.159999847412	0.59220165014267	-0.61346471309662	65.000000000000	0.00000000000000
25.170000076294	0.59121280908585	-0.61373049020767	65.000000000000	0.00000000000000
25.180000305176	0.59022152423859	-0.61399453878403	65.000000000000	0.00000000000000
25.190000534058	0.58922779560089	-0.61425679922104	65.000000000000	0.00000000000000
25.200000762939	0.58823156356812	-0.61451733112335	65.000000000000	0.00000000000000
25.209999084473	0.58723312616348	-0.61477607488632	65.000000000000	0.00000000000000
25.219999313354	0.58623200654984	-0.61503309011459	65.000000000000	0.00000000000000
25.229999542236	0.58522868156433	-0.61528825759888	65.000000000000	0.00000000000000
25.239999771118	0.58422291278839	-0.61554169654846	65.000000000000	0.00000000000000
25.250000000000	0.58321481943130	-0.61579322814941	65.000000000000	0.00000000000000
25.260000228882	0.58220410346985	-0.61604297161102	65.000000000000	0.00000000000000
25.270000457764	0.58119124174118	-0.61629086732864	65.000000000000	0.00000000000000
25.280000686646	0.58017587661743	-0.61653691530228	65.000000000000	0.00000000000000
25.290000915527	0.57915800809860	-0.61678099632263	65.000000000000	0.00000000000000
25.299999237061	0.57813805341721	-0.61702334880829	65.000000000000	0.00000000000000
25.309999465942	0.57711541652679	-0.61726367473602	65.000000000000	0.00000000000000
25.319999694824	0.57609069347382	-0.61750209331512	65.000000000000	0.00000000000000
25.329999923706	0.57506340742111	-0.61773866415024	65.000000000000	0.00000000000000
25.340000152588	0.57403373718262	-0.61797320842743	65.000000000000	0.00000000000000
25.350000381470	0.57300174236298	-0.61820584535599	65.000000000000	0.00000000000000
25.360000610352	0.57196760177612	-0.61843657493591	65.000000000000	0.00000000000000
25.370000839233	0.57093089818954	-0.61866527795792	65.000000000000	0.00000000000000
25.379999160767	0.56989187002182	-0.61889195442200	65.000000000000	0.00000000000000
25.389999389648	0.56885057687759	-0.61911672353745	65.000000000000	0.00000000000000
25.399999618530	0.56780695915222	-0.61933940649033	65.000000000000	0.00000000000000
25.409999847412	0.56676083803177	-0.61956036090851	65.000000000000	0.00000000000000
25.420000076294	0.56571280956268	-0.61977875232697	65.000000000000	0.00000000000000
25.430000305176	0.56466209888458	-0.61999535560608	65.000000000000	0.00000000000000
25.440000534058	0.56360936164856	-0.62020975351334	65.000000000000	0.00000000000000
25.450000762939	0.56255388259888	-0.62042236328125	65.000000000000	0.00000000000000
25.459999084473	0.56149643659592	-0.62063270807266	65.000000000000	0.00000000000000
25.469999313354	0.56043630838394	-0.62084120512009	65.000000000000	0.00000000000000
25.479999542236	0.55937439203262	-0.62104713916779	65.000000000000	0.00000000000000
25.489999771118	0.55830991268158	-0.62125128507614	65.000000000000	0.00000000000000
25.500000000000	0.55724328756332	-0.62145316600800	65.000000000000	0.00000000000000
25.510000228882	0.55617415904999	-0.62165307998657	65.000000000000	0.00000000000000
25.520000457764	0.55510288476944	-0.62185072898865	65.000000000000	0.00000000000000
25.530000686646	0.55402904748917	-0.62204641103745	65.000000000000	0.00000000000000
25.540000915527	0.55295312404633	-0.62223970890045	65.000000000000	0.00000000000000
25.549999237061	0.55187529325485	-0.62243062257767	65.000000000000	0.00000000000000
25.559999465942	0.55079478025436	-0.62261974811554	65.000000000000	0.00000000000000
25.569999694824	0.54971224069595	-0.62280631065369	65.000000000000	0.00000000000000
25.579999923706	0.54862713813782	-0.62299102544785	65.000000000000	0.00000000000000
25.590000152588	0.54754006862640	-0.62317329645157	65.000000000000	0.00000000000000
25.600000381470	0.54645067453384	-0.62335330247879	65.000000000000	0.00000000000000
25.610000610352	0.54535901546478	-0.62353110313416	65.000000000000	0.00000000000000
25.620000839233	0.54426538944244	-0.62370645999908	65.000000000000	0.00000000000000
25.629999160767	0.54316943883896	-0.62387955188751	65.000000000000	0.00000000000000
25.639999389648	0.54207068681717	-0.62405097484589	65.000000000000	0.00000000000000
25.649999618530	0.54097050428391	-0.62421929836273	65.000000000000	0.00000000000000
25.659999847412	0.53986746072769	-0.62438583374023	65.000000000000	0.00000000000000
25.670000076294	0.53876280784607	-0.62454962730408	65.000000000000	0.00000000000000
25.680000305176	0.53765565156937	-0.62471145391464	65.000000000000	0.00000000000000
25.690000534058	0.53654646873474	-0.62487059831619	65.000000000000	0.00000000000000
25.700000762939	0.53543478250504	-0.62502777576447	65.000000000000	0.00000000000000
25.709999084473	0.53432083129883	-0.62518250942230	65.000000000000	0.00000000000000
25.719999313354	0.53320497274399	-0.62533468008041	65.000000000000	0.00000000000000
25.729999542236	0.53208661079407	-0.62548482418060	65.000000000000	0.00000000000000
25.739999771118	0.53096628189087	-0.62563222646713	65.000000000000	0.00000000000000
25.750000000000	0.52984410524368	-0.62577706575394	65.000000000000	0.00000000000000
25.760000228882	0.52871912717819	-0.62591999769211	65.000000000000	0.00000000000000
25.770000457764	0.52759253978729	-0.62606006860733	65.000000000000	0.00000000000000
25.780000686646	0.52646344900131	-0.62619793415070	65.000000000000	0.00000000000000
25.790000915527	0.52533215284348	-0.62633323669434	65.000000000000	0.00000000000000
25.799999237061	0.52419883012772	-0.62646609544754	65.000000000000	0.00000000000000
25.809999465942	0.52306342124939	-0.62659657001495	65.000000000000	0.00000000000000
25.819999694824	0.52192574739456	-0.62672454118729	65.000000000000	0.00000000000000
25.829999923706	0.52078592777252	-0.62684994935989	65.000000000000	0.00000000000000
25.840000152588	0.51964408159256	-0.62697285413742	65.000000000000	0.00000000000000
25.850000381470	0.51849997043610	-0.62709337472916	65.000000000000	0.00000000000000
25.860000610352	0.51735371351242	-0.62721121311188	65.000000000000	0.00000000000000
25.870000839233	0.51620548963547	-0.62732660770416	65.000000000000	0.00000000000000
25.879999160767	0.51505500078201	-0.62743937969208	65.000000000000	0.00000000000000
25.889999389648	0.51390242576599	-0.62754964828491	65.000000000000	0.00000000000000
25.899999618530	0.51274776458740	-0.62765729427338	65.000000000000	0.00000000000000
25.909999847412	0.51159083843231	-0.62776243686676	65.000000000000	0.00000000000000
25.920000076294	0.51043200492859	-0.62786489725113	65.000000000000	0.00000000000000
25.930000305176	0.50927102565765	-0.62796479463577	65.000000000000	0.00000000000000
25.940000534058	0.50810784101486	-0.62806212902069	65.000000000000	0.00000000000000
25.950000762939	0.50694251060486	-0.62815678119659	65.000000000000	0.00000000000000
25.959999084473	0.50577527284622	-0.62824875116348	65.000000000000	0.00000000000000
25.969999313354	0.50460594892502	-0.62833815813065	65.000000000000	0.00000000000000
25.979999542236	0.50343441963196	-0.62842488288879	65.000000000000	0.00000000000000
25.989999771118	0.50226080417633	-0.62850892543793	65.000000000000	0.00000000000000
26.000000000000	0.50108516216278	-0.62859028577805	65.000000000000	0.00000000000000
26.010000228882	0.49990743398666	-0.62866890430450	65.000000000000	0.00000000000000
26.020000457764	0.49872770905495	-0.62874484062195	65.000000000000	0.00000000000000
26.030000686646	0.49754574894905	-0.62881809473038	65.000000000000	0.00000000000000
26.040000915527	0.49636194109917	-0.62888866662979	65.000000000000	0.00000000000000
26.049999237061	0.49517595767975	-0.62895637750626	65.000000000000	0.00000000000000
26.059999465942	0.49398791790009	-0.62902140617371	65.000000000000	0.00000000000000
26.069999694824	0.49279770255089	-0.62908363342285	65.000000000000	0.00000000000000
26.079999923706	0.49160552024841	-0.62914317846298	65.000000000000	0.00000000000000
26.090000152588	0.49041149020195	-0.62919980287552	65.000000000000	0.00000000000000
26.100000381470	0.48921516537666	-0.62925368547440	65.000000000000	0.00000000000000
26.110000610352	0.48801693320274	-0.62930470705032	65.000000000000	0.00000000000000
26.120000839233	0.48681664466858	-0.62935298681259	65.000000000000	0.00000000000000
26.129999160767	0.48561432957649	-0.62939840555191	65.000000000000	0.00000000000000
26.139999389648	0.48440995812416	-0.62944096326828	65.000000000000	0.00000000000000
26.149999618530	0.48320358991623	-0.62948065996170	65.000000000000	0.00000000000000
26.159999847412	0.48199525475502	-0.62951749563217	65.000000000000	0.00000000000000
26.170000076294	0.48078486323357	-0.62955141067505	65.000000000000	0.00000000000000
26.180000305176	0.47957250475883	-0.62958252429962	65.000000000000	0.00000000000000
26.190000534058	0.47835808992386	-0.62961065769196	65.000000000000	0.00000000000000
26.200000762939	0.47714173793793	-0.62963587045670	65.000000000000	0.00000000000000
26.209999084473	0.47592332959175	-0.62965816259384	65.000000000000	0.00000000000000
26.219999313354	0.47470298409462	-0.62967741489410	65.000000000000	0.00000000000000
26.229999542236	0.47348058223724	-0.62969386577606	65.000000000000	0.00000000000000
26.239999771118	0.47225615382195	-0.62970727682114	65.000000000000	0.00000000000000
26.250000000000	0.47102999687195	-0.62971758842468	65.000000000000	0.00000000000000
26.260000228882	0.46980163455009	-0.62972503900528	65.000000000000	0.00000000000000
26.270000457764	0.46857139468193	-0.62972944974899	65.000000000000	0.00000000000000
26.280000686646	0.46733915805817	-0.62973082065582	65.000000000000	0.00000000000000
26.290000915527	0.46610489487648	-0.62972915172577	65.000000000000	0.00000000000000
26.299999237061	0.46486881375313	-0.62972444295883	65.000000000000	0.00000000000000
26.309999465942	0.46363070607185	-0.62971663475037	65.000000000000	0.00000000000000
26.319999694824	0.46239072084427	-0.62970578670502	65.000000000000	0.00000000000000
26.329999923706	0.46114867925644	-0.62969189882278	65.000000000000	0.00000000000000
26.340000152588	0.45990476012230	-0.62967479228973	65.000000000000	0.00000000000000
26.350000381470	0.45865890383720	-0.62965464591980	65.000000000000	0.00000000000000
26.360000610352	0.45741125941277	-0.62963140010834	65.000000000000	0.00000000000000
26.370000839233	0.45616143941879	-0.62960487604141	65.000000000000	0.00000000000000
26.379999160767	0.45490995049477	-0.62957531213760	65.000000000000	0.00000000000000
26.389999389648	0.45365643501282	-0.62954252958298	65.000000000000	0.00000000000000
26.399999618530	0.45240101218224	-0.62950664758682	65.000000000000	0.00000000000000
26.409999847412	0.45114368200302	-0.62946742773056	65.000000000000	0.00000000000000
26.420000076294	0.44988444447517	-0.62942510843277	65.000000000000	0.00000000000000
26.430000305176	0.44862329959869	-0.62937945127487	65.000000000000	0.00000000000000
26.440000534058	0.44736039638519	-0.62933063507080	65.000000000000	0.00000000000000
26.450000762939	0.44609549641609	-0.62927848100662	65.000000000000	0.00000000000000
26.459999084473	0.44482886791229	-0.62922316789627	65.000000000000	0.00000000000000
26.469999313354	0.44356021285057	-0.62916451692581	65.000000000000	0.00000000000000
26.479999542236	0.44228965044022	-0.62910246849060	65.000000000000	0.00000000000000
26.489999771118	0.44101747870445	-0.62903732061386	65.000000000000	0.00000000000000
26.500000000000	0.43974325060844	-0.62896871566772	65.000000000000	0.00000000000000
26.510000228882	0.43846720457077	-0.62889671325684	65.000000000000	0.00000000000000
26.520000457764	0.43718931078911	-0.62882149219513	65.000000000000	0.00000000000000
26.530000686646	0.43590962886810	-0.62874281406403	65.000000000000	0.00000000000000
26.540000915527	0.43462812900543	-0.62866073846817	65.000000000000	0.00000000000000
26.549999237061	0.43334472179413	-0.62857532501221	65.000000000000	0.00000000000000
26.559999465942	0.43205961585045	-0.62848639488220	65.000000000000	0.00000000000000
26.569999694824	0.43077260255814	-0.62839412689209	65.000000000000	0.00000000000000
26.579999923706	0.42948383092880	-0.62829840183258	65.000000000000	0.00000000000000
26.590000152588	0.42819344997406	-0.62819916009903	65.000000000000	0.00000000000000
26.600000381470	0.42690101265907	-0.62809652090073	65.000000000000	0.00000000000000
26.610000610352	0.42560696601868	-0.62799030542374	65.000000000000	0.00000000000000
26.620000839233	0.42431104183197	-0.62788063287735	65.000000000000	0.00000000000000
26.629999160767	0.42301338911057	-0.62776744365692	65.000000000000	0.00000000000000
26.639999389648	0.42171400785446	-0.62765073776245	65.000000000000	0.00000000000000
26.649999618530	0.42041283845901	-0.62753045558929	65.000000000000	0.00000000000000
26.659999847412	0.41910991072655	-0.62740653753281	65.000000000000	0.00000000000000
26.670000076294	0.41780531406403	-0.62727910280228	65.000000000000	0.00000000000000
26.680000305176	0.41649878025055	-0.62714809179306	65.000000000000	0.00000000000000
26.690000534058	0.41519066691399	-0.62701338529587	65.000000000000	0.00000000000000
26.700000762939	0.41388094425201	-0.62687510251999	65.000000000000	0.00000000000000
26.709999084473	0.41256943345070	-0.62673324346542	65.000000000000	0.00000000000000
26.719999313354	0.41125622391701	-0.62658762931824	65.000000000000	0.00000000000000
26.729999542236	0.40994131565094	-0.62643837928772	65.000000000000	0.00000000000000
26.739999771118	0.40862473845482	-0.62628537416458	65.000000000000	0.00000000000000
26.750000000000	0.40730646252632	-0.62612873315811	65.000000000000	0.00000000000000
26.760000228882	0.40598657727242	-0.62596827745438	65.000000000000	0.00000000000000
26.770000457764	0.40466496348381	-0.62580412626266	65.000000000000	0.00000000000000
26.780000686646	0.40334174036980	-0.62563621997833	65.000000000000	0.00000000000000
26.790000915527	0.40201684832573	-0.62546455860138	65.000000000000	0.00000000000000
26.799999237061	0.40069040656090	-0.62528908252716	65.000000000000	0.00000000000000
26.809999465942	0.39936220645905	-0.62510973215103	65.000000000000	0.00000000000000
26.819999694824	0.39803242683411	-0.62492668628693	65.000000000000	0.00000000000000
26.829999923706	0.39670124650002	-0.62473976612091	65.000000000000	0.00000000000000
26.840000152588	0.39536824822426	-0.62454891204834	65.000000000000	0.00000000000000
26.850000381470	0.39403378963470	-0.62435424327850	65.000000000000	0.00000000000000
26.860000610352	0.39269769191742	-0.62415564060211	65.000000000000	0.00000000000000
26.870000839233	0.39136013388634	-0.62395322322845	65.000000000000	0.00000000000000
26.879999160767	0.39002090692520	-0.62374681234360	65.000000000000	0.00000000000000
26.889999389648	0.38868018984795	-0.62353646755219	65.000000000000	0.00000000000000
26.899999618530	0.38733801245689	-0.62332218885422	65.000000000000	0.00000000000000
26.909999847412	0.38599419593811	-0.62310397624969	65.000000000000	0.00000000000000
26.920000076294	0.38464885950089	-0.62288171052933	65.000000000000	0.00000000000000
26.930000305176	0.38330200314522	-0.62265551090240	65.000000000000	0.00000000000000
26.940000534058	0.38195392489433	-0.62242519855499	65.000000000000	0.00000000000000
26.950000762939	0.38060411810875	-0.62219083309174	65.000000000000	0.00000000000000
26.959999084473	0.37925285100937	-0.62195247411728	65.000000000000	0.00000000000000
26.969999313354	0.37790021300316	-0.62171012163162	65.000000000000	0.00000000000000
26.979999542236	0.37654611468315	-0.62146353721619	65.000000000000	0.00000000000000
26.989999771118	0.37519052624702	-0.62121289968491	65.000000000000	0.00000000000000
27.000000000000	0.37383365631104	-0.62095820903778	65.000000000000	0.00000000000000
27.010000228882	0.37247532606125	-0.62069928646088	65.000000000000	0.00000000000000
27.020000457764	0.37111556529999	-0.62043619155884	65.000000000000	0.00000000000000
27.030000686646	0.36975443363190	-0.62016898393631	65.000000000000	0.00000000000000
27.040000915527	0.36839196085930	-0.61989754438400	65.000000000000	0.00000000000000
27.049999237061	0.36702802777290	-0.61962199211121	65.000000000000	0.00000000000000
27.059999465942	0.36566287279129	-0.61934214830399	65.000000000000	0.00000000000000
27.069999694824	0.36429631710052	-0.61905807256699	65.000000000000	0.00000000000000
27.079999923706	0.36292859911919	-0.61876970529556	65.000000000000	0.00000000000000
27.090000152588	0.36155939102173	-0.61847716569901	65.000000000000	0.00000000000000
27.100000381470	0.36018887162209	-0.61818021535873	65.000000000000	0.00000000000000
27.110000610352	0.35881730914116	-0.61787897348404	65.000000000000	0.00000000000000
27.120000839233	0.35744422674179	-0.61757349967957	65.000000000000	0.00000000000000
27.129999160767	0.35607013106346	-0.61726361513138	65.000000000000	0.00000000000000
27.139999389648	0.35469448566437	-0.61694943904877	65.000000000000	0.00000000000000
27.149999618530	0.35331791639328	-0.61663079261780	65.000000000000	0.00000000000000
27.159999847412	0.35194009542465	-0.61630779504776	65.000000000000	0.00000000000000
27.170000076294	0.35056102275848	-0.61598038673401	65.000000000000	0.00000000000000
27.180000305176	0.34918084740639	-0.61564856767654	65.000000000000	0.00000000000000
27.190000534058	0.34779924154282	-0.61531227827072	65.000000000000	0.00000000000000
27.200000762939	0.34641683101654	-0.61497157812119	65.000000000000	0.00000000000000
27.209999084473	0.34503310918808	-0.61462640762329	65.000000000000	0.00000000000000
27.219999313354	0.34364825487137	-0.61427664756775	65.000000000000	0.00000000000000
27.229999542236	0.34226244688034	-0.61392241716385	65.000000000000	0.00000000000000
27.239999771118	0.34087550640106	-0.61356377601624	65.000000000000	0.00000000000000
27.250000000000	0.33948731422424	-0.61320042610168	65.000000000000	0.00000000000000
27.260000228882	0.33809840679169	-0.61283254623413	65.000000000000	0.00000000000000
27.270000457764	0.33670812845230	-0.61246019601822	65.000000000000	0.00000000000000
27.280000686646	0.33531710505486	-0.61208319664001	65.000000000000	0.00000000000000
27.290000915527	0.33392503857613	-0.61170160770416	65.000000000000	0.00000000000000
27.299999237061	0.33253172039986	-0.61131542921066	65.000000000000	0.00000000000000
27.309999465942	0.33113765716553	-0.61092448234558	65.000000000000	0.00000000000000
27.319999694824	0.32974267005920	-0.61052900552750	65.000000000000	0.00000000000000
27.329999923706	0.32834672927856	-0.61012876033783	65.000000000000	0.00000000000000
