#Parameters = {d=0.20766331658292; l2=4.1532663316583; lambda=8.3065326633166; r=0.027984708542714}
#"Frequency / GHz"	"S1,1 (lambda=8.30653) [Re]"	"S1,1 (lambda=8.30653) [Im]"	"Ref.Imp. [Re]"	"Ref.Imp. [Im]"
#-----------------------------------------------------------------------------------------------------------
25.000000000000	0.64480048418045	-0.59633374214172	65.000000000000	0.00000000000000
25.010000228882	0.64395838975906	-0.59666502475739	65.000000000000	0.00000000000000
25.020000457764	0.64311414957047	-0.59699547290802	65.000000000000	0.00000000000000
25.030000686646	0.64226758480072	-0.59732484817505	65.000000000000	0.00000000000000
25.040000915527	0.64141881465912	-0.59765332937241	65.000000000000	0.00000000000000
25.049999237061	0.64056771993637	-0.59798091650009	65.000000000000	0.00000000000000
25.059999465942	0.63971424102783	-0.59830743074417	65.000000000000	0.00000000000000
25.069999694824	0.63885861635208	-0.59863299131393	65.000000000000	0.00000000000000
25.079999923706	0.63800078630447	-0.59895747900009	65.000000000000	0.00000000000000
25.090000152588	0.63714051246643	-0.59928101301193	65.000000000000	0.00000000000000
25.100000381470	0.63627815246582	-0.59960353374481	65.000000000000	0.00000000000000
25.110000610352	0.63541346788406	-0.59992492198944	65.000000000000	0.00000000000000
25.120000839233	0.63454639911652	-0.60024529695511	65.000000000000	0.00000000000000
25.129999160767	0.63367700576782	-0.60056459903717	65.000000000000	0.00000000000000
25.139999389648	0.63280552625656	-0.60088276863098	65.000000000000	0.00000000000000
25.149999618530	0.63193172216415	-0.60119986534119	65.000000000000	0.00000000000000
25.159999847412	0.63105553388596	-0.60151588916779	65.000000000000	0.00000000000000
25.170000076294	0.63017696142197	-0.60183072090149	65.000000000000	0.00000000000000
25.180000305176	0.62929624319077	-0.60214447975159	65.000000000000	0.00000000000000
25.190000534058	0.62841343879700	-0.60245698690414	65.000000000000	0.00000000000000
25.200000762939	0.62752813100815	-0.60276836156845	65.000000000000	0.00000000000000
25.209999084473	0.62664061784744	-0.60307860374451	65.000000000000	0.00000000000000
25.219999313354	0.62575089931488	-0.60338759422302	65.000000000000	0.00000000000000
25.229999542236	0.62485861778259	-0.60369539260864	65.000000000000	0.00000000000000
25.239999771118	0.62396425008774	-0.60400205850601	65.000000000000	0.00000000000000
25.250000000000	0.62306755781174	-0.60430735349655	65.000000000000	0.00000000000000
25.260000228882	0.62216871976852	-0.60461145639420	65.000000000000	0.00000000000000
25.270000457764	0.62126737833023	-0.60491430759430	65.000000000000	0.00000000000000
25.280000686646	0.62036395072937	-0.60521590709686	65.000000000000	0.00000000000000
25.290000915527	0.61945813894272	-0.60551619529724	65.000000000000	0.00000000000000
25.299999237061	0.61855012178421	-0.60581523180008	65.000000000000	0.00000000000000
25.309999465942	0.61763983964920	-0.60611289739609	65.000000000000	0.00000000000000
25.319999694824	0.61672711372375	-0.60640931129456	65.000000000000	0.00000000000000
25.329999923706	0.61581236124039	-0.60670429468155	65.000000000000	0.00000000000000
25.340000152588	0.61489522457123	-0.60699796676636	65.000000000000	0.00000000000000
25.350000381470	0.61397576332092	-0.60729038715363	65.000000000000	0.00000000000000
25.360000610352	0.61305415630341	-0.60758131742477	65.000000000000	0.00000000000000
25.370000839233	0.61213022470474	-0.60787093639374	65.000000000000	0.00000000000000
25.379999160767	0.61120408773422	-0.60815906524658	65.000000000000	0.00000000000000
25.389999389648	0.61027538776398	-0.60844588279724	65.000000000000	0.00000000000000
25.399999618530	0.60934472084045	-0.60873126983643	65.000000000000	0.00000000000000
25.409999847412	0.60841178894043	-0.60901522636414	65.000000000000	0.00000000000000
25.420000076294	0.60747647285461	-0.60929769277573	65.000000000000	0.00000000000000
25.430000305176	0.60653895139694	-0.60957884788513	65.000000000000	0.00000000000000
25.440000534058	0.60559910535812	-0.60985851287842	65.000000000000	0.00000000000000
25.450000762939	0.60465723276138	-0.61013650894165	65.000000000000	0.00000000000000
25.459999084473	0.60371291637421	-0.61041319370270	65.000000000000	0.00000000000000
25.469999313354	0.60276627540588	-0.61068838834763	65.000000000000	0.00000000000000
25.479999542236	0.60181760787964	-0.61096185445786	65.000000000000	0.00000000000000
25.489999771118	0.60086655616760	-0.61123400926590	65.000000000000	0.00000000000000
25.500000000000	0.59991317987442	-0.61150473356247	65.000000000000	0.00000000000000
25.510000228882	0.59895765781403	-0.61177361011505	65.000000000000	0.00000000000000
25.520000457764	0.59799993038177	-0.61204111576080	65.000000000000	0.00000000000000
25.530000686646	0.59703999757767	-0.61230689287186	65.000000000000	0.00000000000000
25.540000915527	0.59607785940170	-0.61257117986679	65.000000000000	0.00000000000000
25.549999237061	0.59511333703995	-0.61283391714096	65.000000000000	0.00000000000000
25.559999465942	0.59414637088776	-0.61309522390366	65.000000000000	0.00000000000000
25.569999694824	0.59317779541016	-0.61335444450378	65.000000000000	0.00000000000000
25.579999923706	0.59220647811890	-0.61361247301102	65.000000000000	0.00000000000000
25.590000152588	0.59123289585114	-0.61386883258820	65.000000000000	0.00000000000000
25.600000381470	0.59025746583939	-0.61412316560745	65.000000000000	0.00000000000000
25.610000610352	0.58927953243256	-0.61437624692917	65.000000000000	0.00000000000000
25.620000839233	0.58829957246780	-0.61462748050690	65.000000000000	0.00000000000000
25.629999160767	0.58731722831726	-0.61487716436386	65.000000000000	0.00000000000000
25.639999389648	0.58633285760880	-0.61512494087219	65.000000000000	0.00000000000000
25.649999618530	0.58534586429596	-0.61537140607834	65.000000000000	0.00000000000000
25.659999847412	0.58435720205307	-0.61561566591263	65.000000000000	0.00000000000000
25.670000076294	0.58336585760117	-0.61585867404938	65.000000000000	0.00000000000000
25.680000305176	0.58237218856812	-0.61609995365143	65.000000000000	0.00000000000000
25.690000534058	0.58137685060501	-0.61633908748627	65.000000000000	0.00000000000000
25.700000762939	0.58037912845612	-0.61657655239105	65.000000000000	0.00000000000000
25.709999084473	0.57937920093536	-0.61681240797043	65.000000000000	0.00000000000000
25.719999313354	0.57837688922882	-0.61704653501511	65.000000000000	0.00000000000000
25.729999542236	0.57737267017365	-0.61727875471115	65.000000000000	0.00000000000000
25.739999771118	0.57636630535126	-0.61750882863998	65.000000000000	0.00000000000000
25.750000000000	0.57535713911057	-0.61773794889450	65.000000000000	0.00000000000000
25.760000228882	0.57434630393982	-0.61796468496323	65.000000000000	0.00000000000000
25.770000457764	0.57333314418793	-0.61818975210190	65.000000000000	0.00000000000000
25.780000686646	0.57231795787811	-0.61841273307800	65.000000000000	0.00000000000000
25.790000915527	0.57130026817322	-0.61863416433334	65.000000000000	0.00000000000000
25.799999237061	0.57028049230576	-0.61885368824005	65.000000000000	0.00000000000000
25.809999465942	0.56925880908966	-0.61907124519348	65.000000000000	0.00000000000000
25.819999694824	0.56823468208313	-0.61928695440292	65.000000000000	0.00000000000000
25.829999923706	0.56720840930939	-0.61950087547302	65.000000000000	0.00000000000000
25.840000152588	0.56617999076843	-0.61971276998520	65.000000000000	0.00000000000000
25.850000381470	0.56514954566956	-0.61992281675339	65.000000000000	0.00000000000000
25.860000610352	0.56411683559418	-0.62013101577759	65.000000000000	0.00000000000000
25.870000839233	0.56308180093765	-0.62033712863922	65.000000000000	0.00000000000000
25.879999160767	0.56204485893250	-0.62054139375687	65.000000000000	0.00000000000000
25.889999389648	0.56100559234619	-0.62074369192123	65.000000000000	0.00000000000000
25.899999618530	0.55996417999268	-0.62094402313232	65.000000000000	0.00000000000000
25.909999847412	0.55892062187195	-0.62114244699478	65.000000000000	0.00000000000000
25.920000076294	0.55787497758865	-0.62133884429932	65.000000000000	0.00000000000000
25.930000305176	0.55682706832886	-0.62153327465057	65.000000000000	0.00000000000000
25.940000534058	0.55577707290649	-0.62172567844391	65.000000000000	0.00000000000000
25.950000762939	0.55472499132156	-0.62191605567932	65.000000000000	0.00000000000000
25.959999084473	0.55367070436478	-0.62210440635681	65.000000000000	0.00000000000000
25.969999313354	0.55261421203613	-0.62229079008102	65.000000000000	0.00000000000000
25.979999542236	0.55155563354492	-0.62247502803802	65.000000000000	0.00000000000000
25.989999771118	0.55049502849579	-0.62265729904175	65.000000000000	0.00000000000000
26.000000000000	0.54943215847015	-0.62283748388290	65.000000000000	0.00000000000000
26.010000228882	0.54836708307266	-0.62301558256149	65.000000000000	0.00000000000000
26.020000457764	0.54729998111725	-0.62319165468216	65.000000000000	0.00000000000000
26.030000686646	0.54623079299927	-0.62336552143097	65.000000000000	0.00000000000000
26.040000915527	0.54515945911407	-0.62353736162186	65.000000000000	0.00000000000000
26.049999237061	0.54408586025238	-0.62370705604553	65.000000000000	0.00000000000000
26.059999465942	0.54301029443741	-0.62387466430664	65.000000000000	0.00000000000000
26.069999694824	0.54193246364594	-0.62404018640518	65.000000000000	0.00000000000000
26.079999923706	0.54085266590118	-0.62420344352722	65.000000000000	0.00000000000000
26.090000152588	0.53977066278458	-0.62436455488205	65.000000000000	0.00000000000000
26.100000381470	0.53868663311005	-0.62452352046967	65.000000000000	0.00000000000000
26.110000610352	0.53760045766830	-0.62468034029007	65.000000000000	0.00000000000000
26.120000839233	0.53651207685471	-0.62483501434326	65.000000000000	0.00000000000000
26.129999160767	0.53542172908783	-0.62498742341995	65.000000000000	0.00000000000000
26.139999389648	0.53432911634445	-0.62513768672943	65.000000000000	0.00000000000000
26.149999618530	0.53323453664780	-0.62528562545776	65.000000000000	0.00000000000000
26.159999847412	0.53213793039322	-0.62543141841888	65.000000000000	0.00000000000000
26.170000076294	0.53103893995285	-0.62557488679886	65.000000000000	0.00000000000000
26.180000305176	0.52993810176849	-0.62571620941162	65.000000000000	0.00000000000000
26.190000534058	0.52883499860764	-0.62585514783859	65.000000000000	0.00000000000000
26.200000762939	0.52772992849350	-0.62599188089371	65.000000000000	0.00000000000000
26.209999084473	0.52662271261215	-0.62612634897232	65.000000000000	0.00000000000000
26.219999313354	0.52551341056824	-0.62625855207443	65.000000000000	0.00000000000000
26.229999542236	0.52440196275711	-0.62638837099075	65.000000000000	0.00000000000000
26.239999771118	0.52328860759735	-0.62651586532593	65.000000000000	0.00000000000000
26.250000000000	0.52217316627502	-0.62664109468460	65.000000000000	0.00000000000000
26.260000228882	0.52105551958084	-0.62676399946213	65.000000000000	0.00000000000000
26.270000457764	0.51993578672409	-0.62688446044922	65.000000000000	0.00000000000000
26.280000686646	0.51881396770477	-0.62700259685516	65.000000000000	0.00000000000000
26.290000915527	0.51769030094147	-0.62711840867996	65.000000000000	0.00000000000000
26.299999237061	0.51656424999237	-0.62723177671432	65.000000000000	0.00000000000000
26.309999465942	0.51543623209000	-0.62734282016754	65.000000000000	0.00000000000000
26.319999694824	0.51430624723434	-0.62745136022568	65.000000000000	0.00000000000000
26.329999923706	0.51317417621613	-0.62755751609802	65.000000000000	0.00000000000000
26.340000152588	0.51204007863998	-0.62766134738922	65.000000000000	0.00000000000000
26.350000381470	0.51090389490128	-0.62776261568069	65.000000000000	0.00000000000000
26.360000610352	0.50976550579071	-0.62786144018173	65.000000000000	0.00000000000000
26.370000839233	0.50862520933151	-0.62795788049698	65.000000000000	0.00000000000000
26.379999160767	0.50748288631439	-0.62805175781250	65.000000000000	0.00000000000000
26.389999389648	0.50633847713470	-0.62814319133759	65.000000000000	0.00000000000000
26.399999618530	0.50519192218781	-0.62823212146759	65.000000000000	0.00000000000000
26.409999847412	0.50404351949692	-0.62831860780716	65.000000000000	0.00000000000000
26.420000076294	0.50289303064346	-0.62840247154236	65.000000000000	0.00000000000000
26.430000305176	0.50174033641815	-0.62848383188248	65.000000000000	0.00000000000000
26.440000534058	0.50058573484421	-0.62856268882751	65.000000000000	0.00000000000000
26.450000762939	0.49942916631699	-0.62863892316818	65.000000000000	0.00000000000000
26.459999084473	0.49827051162720	-0.62871253490448	65.000000000000	0.00000000000000
26.469999313354	0.49710983037949	-0.62878370285034	65.000000000000	0.00000000000000
26.479999542236	0.49594697356224	-0.62885224819183	65.000000000000	0.00000000000000
26.489999771118	0.49478232860565	-0.62891811132431	65.000000000000	0.00000000000000
26.500000000000	0.49361556768417	-0.62898147106171	65.000000000000	0.00000000000000
26.510000228882	0.49244695901871	-0.62904214859009	65.000000000000	0.00000000000000
26.520000457764	0.49127605557442	-0.62910014390945	65.000000000000	0.00000000000000
26.530000686646	0.49010327458382	-0.62915551662445	65.000000000000	0.00000000000000
26.540000915527	0.48892849683762	-0.62920820713043	65.000000000000	0.00000000000000
26.549999237061	0.48775175213814	-0.62925827503204	65.000000000000	0.00000000000000
26.559999465942	0.48657298088074	-0.62930554151535	65.000000000000	0.00000000000000
26.569999694824	0.48539215326309	-0.62935018539429	65.000000000000	0.00000000000000
26.579999923706	0.48420935869217	-0.62939208745956	65.000000000000	0.00000000000000
26.590000152588	0.48302465677261	-0.62943130731583	65.000000000000	0.00000000000000
26.600000381470	0.48183786869049	-0.62946766614914	65.000000000000	0.00000000000000
26.610000610352	0.48064920306206	-0.62950134277344	65.000000000000	0.00000000000000
26.620000839233	0.47945842146873	-0.62953227758408	65.000000000000	0.00000000000000
26.629999160767	0.47826573252678	-0.62956035137177	65.000000000000	0.00000000000000
26.639999389648	0.47707113623619	-0.62958568334579	65.000000000000	0.00000000000000
26.649999618530	0.47587436437607	-0.62960827350616	65.000000000000	0.00000000000000
26.659999847412	0.47467583417892	-0.62962794303894	65.000000000000	0.00000000000000
26.670000076294	0.47347527742386	-0.62964475154877	65.000000000000	0.00000000000000
26.680000305176	0.47227284312248	-0.62965881824493	65.000000000000	0.00000000000000
26.690000534058	0.47106835246086	-0.62966996431351	65.000000000000	0.00000000000000
26.700000762939	0.46986189484596	-0.62967824935913	65.000000000000	0.00000000000000
26.709999084473	0.46865352988243	-0.62968361377716	65.000000000000	0.00000000000000
26.719999313354	0.46744334697723	-0.62968611717224	65.000000000000	0.00000000000000
26.729999542236	0.46623098850250	-0.62968569993973	65.000000000000	0.00000000000000
26.739999771118	0.46501681208611	-0.62968236207962	65.000000000000	0.00000000000000
26.750000000000	0.46380075812340	-0.62967610359192	65.000000000000	0.00000000000000
26.760000228882	0.46258261799812	-0.62966686487198	65.000000000000	0.00000000000000
26.770000457764	0.46136268973351	-0.62965464591980	65.000000000000	0.00000000000000
26.780000686646	0.46014088392258	-0.62963938713074	65.000000000000	0.00000000000000
26.790000915527	0.45891699194908	-0.62962120771408	65.000000000000	0.00000000000000
26.799999237061	0.45769146084785	-0.62959998846054	65.000000000000	0.00000000000000
26.809999465942	0.45646387338638	-0.62957578897476	65.000000000000	0.00000000000000
26.819999694824	0.45523440837860	-0.62954849004745	65.000000000000	0.00000000000000
26.829999923706	0.45400291681290	-0.62951809167862	65.000000000000	0.00000000000000
26.840000152588	0.45276975631714	-0.62948471307755	65.000000000000	0.00000000000000
26.850000381470	0.45153462886810	-0.62944829463959	65.000000000000	0.00000000000000
26.860000610352	0.45029753446579	-0.62940865755081	65.000000000000	0.00000000000000
26.870000839233	0.44905874133110	-0.62936598062515	65.000000000000	0.00000000000000
26.879999160767	0.44781798124313	-0.62932020425797	65.000000000000	0.00000000000000
26.889999389648	0.44657522439957	-0.62927120923996	65.000000000000	0.00000000000000
26.899999618530	0.44533070921898	-0.62921911478043	65.000000000000	0.00000000000000
26.909999847412	0.44408446550369	-0.62916374206543	65.000000000000	0.00000000000000
26.920000076294	0.44283628463745	-0.62910532951355	65.000000000000	0.00000000000000
26.930000305176	0.44158619642258	-0.62904369831085	65.000000000000	0.00000000000000
26.940000534058	0.44033437967300	-0.62897878885269	65.000000000000	0.00000000000000
26.950000762939	0.43908080458641	-0.62891072034836	65.000000000000	0.00000000000000
26.959999084473	0.43782520294189	-0.62883937358856	65.000000000000	0.00000000000000
26.969999313354	0.43656793236732	-0.62876474857330	65.000000000000	0.00000000000000
26.979999542236	0.43530869483948	-0.62868690490723	65.000000000000	0.00000000000000
26.989999771118	0.43404781818390	-0.62860566377640	65.000000000000	0.00000000000000
27.000000000000	0.43278494477272	-0.62852120399475	65.000000000000	0.00000000000000
27.010000228882	0.43152049183846	-0.62843340635300	65.000000000000	0.00000000000000
27.020000457764	0.43025410175323	-0.62834233045578	65.000000000000	0.00000000000000
27.030000686646	0.42898610234261	-0.62824785709381	65.000000000000	0.00000000000000
27.040000915527	0.42771631479263	-0.62814992666245	65.000000000000	0.00000000000000
27.049999237061	0.42644461989403	-0.62804871797562	65.000000000000	0.00000000000000
27.059999465942	0.42517116665840	-0.62794417142868	65.000000000000	0.00000000000000
27.069999694824	0.42389616370201	-0.62783610820770	65.000000000000	0.00000000000000
27.079999923706	0.42261925339699	-0.62772464752197	65.000000000000	0.00000000000000
27.090000152588	0.42134067416191	-0.62760978937149	65.000000000000	0.00000000000000
27.100000381470	0.42006033658981	-0.62749141454697	65.000000000000	0.00000000000000
27.110000610352	0.41877815127373	-0.62736964225769	65.000000000000	0.00000000000000
27.120000839233	0.41749444603920	-0.62724429368973	65.000000000000	0.00000000000000
27.129999160767	0.41620907187462	-0.62711548805237	65.000000000000	0.00000000000000
27.139999389648	0.41492184996605	-0.62698310613632	65.000000000000	0.00000000000000
27.149999618530	0.41363295912743	-0.62684726715088	65.000000000000	0.00000000000000
27.159999847412	0.41234245896339	-0.62670785188675	65.000000000000	0.00000000000000
27.170000076294	0.41105028986931	-0.62656486034393	65.000000000000	0.00000000000000
27.180000305176	0.40975633263588	-0.62641835212708	65.000000000000	0.00000000000000
27.190000534058	0.40846076607704	-0.62626820802689	65.000000000000	0.00000000000000
27.200000762939	0.40716356039047	-0.62611436843872	65.000000000000	0.00000000000000
27.209999084473	0.40586477518082	-0.62595695257187	65.000000000000	0.00000000000000
27.219999313354	0.40456429123878	-0.62579596042633	65.000000000000	0.00000000000000
27.229999542236	0.40326234698296	-0.62563121318817	65.000000000000	0.00000000000000
27.239999771118	0.40195849537849	-0.62546288967133	65.000000000000	0.00000000000000
27.250000000000	0.40065327286720	-0.62529075145721	65.000000000000	0.00000000000000
27.260000228882	0.39934647083282	-0.62511497735977	65.000000000000	0.00000000000000
27.270000457764	0.39803799986839	-0.62493550777435	65.000000000000	0.00000000000000
27.280000686646	0.39672800898552	-0.62475228309631	65.000000000000	0.00000000000000
27.290000915527	0.39541634917259	-0.62456524372101	65.000000000000	0.00000000000000
27.299999237061	0.39410316944122	-0.62437444925308	65.000000000000	0.00000000000000
27.309999465942	0.39278864860535	-0.62417984008789	65.000000000000	0.00000000000000
27.319999694824	0.39147236943245	-0.62398141622543	65.000000000000	0.00000000000000
27.329999923706	0.39015460014343	-0.62377923727036	65.000000000000	0.00000000000000
