#Parameters = {d=0.19660804020101; l2=3.9321608040201; lambda=7.8643216080402; r=0.026494899497487}
#"Frequency / GHz"	"S1,1 (lambda=7.86432) [Re]"	"S1,1 (lambda=7.86432) [Im]"	"Ref.Imp. [Re]"	"Ref.Imp. [Im]"
#-----------------------------------------------------------------------------------------------------------
25.000000000000	0.73988425731659	-0.54832184314728	65.000000000000	0.00000000000000
25.010000228882	0.73930835723877	-0.54869353771210	65.000000000000	0.00000000000000
25.020000457764	0.73873114585876	-0.54906499385834	65.000000000000	0.00000000000000
25.030000686646	0.73815256357193	-0.54943645000458	65.000000000000	0.00000000000000
25.040000915527	0.73757255077362	-0.54980784654617	65.000000000000	0.00000000000000
25.049999237061	0.73699116706848	-0.55017894506454	65.000000000000	0.00000000000000
25.059999465942	0.73640841245651	-0.55055016279221	65.000000000000	0.00000000000000
25.069999694824	0.73582422733307	-0.55092114210129	65.000000000000	0.00000000000000
25.079999923706	0.73523879051208	-0.55129206180573	65.000000000000	0.00000000000000
25.090000152588	0.73465192317963	-0.55166286230087	65.000000000000	0.00000000000000
25.100000381470	0.73406350612640	-0.55203348398209	65.000000000000	0.00000000000000
25.110000610352	0.73347371816635	-0.55240398645401	65.000000000000	0.00000000000000
25.120000839233	0.73288249969482	-0.55277442932129	65.000000000000	0.00000000000000
25.129999160767	0.73228991031647	-0.55314463376999	65.000000000000	0.00000000000000
25.139999389648	0.73169589042664	-0.55351483821869	65.000000000000	0.00000000000000
25.149999618530	0.73110044002533	-0.55388480424881	65.000000000000	0.00000000000000
25.159999847412	0.73050355911255	-0.55425465106964	65.000000000000	0.00000000000000
25.170000076294	0.72990518808365	-0.55462431907654	65.000000000000	0.00000000000000
25.180000305176	0.72930526733398	-0.55499386787415	65.000000000000	0.00000000000000
25.190000534058	0.72870415449142	-0.55536329746246	65.000000000000	0.00000000000000
25.200000762939	0.72810137271881	-0.55573248863220	65.000000000000	0.00000000000000
25.209999084473	0.72749710083008	-0.55610150098801	65.000000000000	0.00000000000000
25.219999313354	0.72689145803452	-0.55647039413452	65.000000000000	0.00000000000000
25.229999542236	0.72628432512283	-0.55683910846710	65.000000000000	0.00000000000000
25.239999771118	0.72567570209503	-0.55720758438110	65.000000000000	0.00000000000000
25.250000000000	0.72506546974182	-0.55757588148117	65.000000000000	0.00000000000000
25.260000228882	0.72445398569107	-0.55794399976730	65.000000000000	0.00000000000000
25.270000457764	0.72384083271027	-0.55831187963486	65.000000000000	0.00000000000000
25.280000686646	0.72322607040405	-0.55867964029312	65.000000000000	0.00000000000000
25.290000915527	0.72260999679565	-0.55904710292816	65.000000000000	0.00000000000000
25.299999237061	0.72199231386185	-0.55941432714462	65.000000000000	0.00000000000000
25.309999465942	0.72137331962585	-0.55978143215179	65.000000000000	0.00000000000000
25.319999694824	0.72075259685516	-0.56014829874039	65.000000000000	0.00000000000000
25.329999923706	0.72013032436371	-0.56051492691040	65.000000000000	0.00000000000000
25.340000152588	0.71950662136078	-0.56088125705719	65.000000000000	0.00000000000000
25.350000381470	0.71888130903244	-0.56124734878540	65.000000000000	0.00000000000000
25.360000610352	0.71825444698334	-0.56161326169968	65.000000000000	0.00000000000000
25.370000839233	0.71762609481812	-0.56197887659073	65.000000000000	0.00000000000000
25.379999160767	0.71699619293213	-0.56234425306320	65.000000000000	0.00000000000000
25.389999389648	0.71636468172073	-0.56270939111710	65.000000000000	0.00000000000000
25.399999618530	0.71573168039322	-0.56307411193848	65.000000000000	0.00000000000000
25.409999847412	0.71509706974030	-0.56343871355057	65.000000000000	0.00000000000000
25.420000076294	0.71446096897125	-0.56380307674408	65.000000000000	0.00000000000000
25.430000305176	0.71382325887680	-0.56416696310043	65.000000000000	0.00000000000000
25.440000534058	0.71318393945694	-0.56453073024750	65.000000000000	0.00000000000000
25.450000762939	0.71254307031631	-0.56489413976669	65.000000000000	0.00000000000000
25.459999084473	0.71190047264099	-0.56525719165802	65.000000000000	0.00000000000000
25.469999313354	0.71125656366348	-0.56561994552612	65.000000000000	0.00000000000000
25.479999542236	0.71061098575592	-0.56598252058029	65.000000000000	0.00000000000000
25.489999771118	0.70996379852295	-0.56634455919266	65.000000000000	0.00000000000000
25.500000000000	0.70931494235992	-0.56670641899109	65.000000000000	0.00000000000000
25.510000228882	0.70866441726685	-0.56706792116165	65.000000000000	0.00000000000000
25.520000457764	0.70801216363907	-0.56742930412292	65.000000000000	0.00000000000000
25.530000686646	0.70735883712769	-0.56778979301453	65.000000000000	0.00000000000000
25.540000915527	0.70670318603516	-0.56815057992935	65.000000000000	0.00000000000000
25.549999237061	0.70604676008224	-0.56851023435593	65.000000000000	0.00000000000000
25.559999465942	0.70538794994354	-0.56887024641037	65.000000000000	0.00000000000000
25.569999694824	0.70472782850266	-0.56922960281372	65.000000000000	0.00000000000000
25.579999923706	0.70406621694565	-0.56958836317062	65.000000000000	0.00000000000000
25.590000152588	0.70340263843536	-0.56994718313217	65.000000000000	0.00000000000000
25.600000381470	0.70273756980896	-0.57030534744263	65.000000000000	0.00000000000000
25.610000610352	0.70207089185715	-0.57066327333450	65.000000000000	0.00000000000000
25.620000839233	0.70140242576599	-0.57102084159851	65.000000000000	0.00000000000000
25.629999160767	0.70073252916336	-0.57137775421143	65.000000000000	0.00000000000000
25.639999389648	0.70006090402603	-0.57173436880112	65.000000000000	0.00000000000000
25.649999618530	0.69938755035400	-0.57209056615829	65.000000000000	0.00000000000000
25.659999847412	0.69871246814728	-0.57244652509689	65.000000000000	0.00000000000000
25.670000076294	0.69803595542908	-0.57280176877975	65.000000000000	0.00000000000000
25.680000305176	0.69735795259476	-0.57315635681152	65.000000000000	0.00000000000000
25.690000534058	0.69667798280716	-0.57351088523865	65.000000000000	0.00000000000000
25.700000762939	0.69599622488022	-0.57386511564255	65.000000000000	0.00000000000000
25.709999084473	0.69531303644180	-0.57421851158142	65.000000000000	0.00000000000000
25.719999313354	0.69462805986404	-0.57457160949707	65.000000000000	0.00000000000000
25.729999542236	0.69394141435623	-0.57492434978485	65.000000000000	0.00000000000000
25.739999771118	0.69325321912766	-0.57527625560760	65.000000000000	0.00000000000000
25.750000000000	0.69256305694580	-0.57562816143036	65.000000000000	0.00000000000000
25.760000228882	0.69187158346176	-0.57597893476486	65.000000000000	0.00000000000000
25.770000457764	0.69117796421051	-0.57633006572723	65.000000000000	0.00000000000000
25.780000686646	0.69048279523849	-0.57668030261993	65.000000000000	0.00000000000000
25.790000915527	0.68978607654572	-0.57702976465225	65.000000000000	0.00000000000000
25.799999237061	0.68908751010895	-0.57737898826599	65.000000000000	0.00000000000000
25.809999465942	0.68838739395142	-0.57772761583328	65.000000000000	0.00000000000000
25.819999694824	0.68768554925919	-0.57807576656342	65.000000000000	0.00000000000000
25.829999923706	0.68698191642761	-0.57842338085175	65.000000000000	0.00000000000000
25.840000152588	0.68627667427063	-0.57877039909363	65.000000000000	0.00000000000000
25.850000381470	0.68556952476501	-0.57911694049835	65.000000000000	0.00000000000000
25.860000610352	0.68486094474792	-0.57946294546127	65.000000000000	0.00000000000000
25.870000839233	0.68415039777756	-0.57980829477310	65.000000000000	0.00000000000000
25.879999160767	0.68343824148178	-0.58015322685242	65.000000000000	0.00000000000000
25.889999389648	0.68272429704666	-0.58049738407135	65.000000000000	0.00000000000000
25.899999618530	0.68200874328613	-0.58084112405777	65.000000000000	0.00000000000000
25.909999847412	0.68129134178162	-0.58118426799774	65.000000000000	0.00000000000000
25.920000076294	0.68057221174240	-0.58152669668198	65.000000000000	0.00000000000000
25.930000305176	0.67985141277313	-0.58186864852905	65.000000000000	0.00000000000000
25.940000534058	0.67912882566452	-0.58220994472504	65.000000000000	0.00000000000000
25.950000762939	0.67840462923050	-0.58255064487457	65.000000000000	0.00000000000000
25.959999084473	0.67767858505249	-0.58289080858231	65.000000000000	0.00000000000000
25.969999313354	0.67695081233978	-0.58323025703430	65.000000000000	0.00000000000000
25.979999542236	0.67622113227844	-0.58356904983521	65.000000000000	0.00000000000000
25.989999771118	0.67548984289169	-0.58390730619431	65.000000000000	0.00000000000000
26.000000000000	0.67475676536560	-0.58424484729767	65.000000000000	0.00000000000000
26.010000228882	0.67402207851410	-0.58458173274994	65.000000000000	0.00000000000000
26.020000457764	0.67328560352325	-0.58491796255112	65.000000000000	0.00000000000000
26.030000686646	0.67254728078842	-0.58525359630585	65.000000000000	0.00000000000000
26.040000915527	0.67180722951889	-0.58558845520020	65.000000000000	0.00000000000000
26.049999237061	0.67106544971466	-0.58592271804810	65.000000000000	0.00000000000000
26.059999465942	0.67032188177109	-0.58625632524490	65.000000000000	0.00000000000000
26.069999694824	0.66957646608353	-0.58658921718597	65.000000000000	0.00000000000000
26.079999923706	0.66882938146591	-0.58692139387131	65.000000000000	0.00000000000000
26.090000152588	0.66808050870895	-0.58725285530090	65.000000000000	0.00000000000000
26.100000381470	0.66732978820801	-0.58758360147476	65.000000000000	0.00000000000000
26.110000610352	0.66657739877701	-0.58791363239288	65.000000000000	0.00000000000000
26.120000839233	0.66582328081131	-0.58824300765991	65.000000000000	0.00000000000000
26.129999160767	0.66506731510162	-0.58857160806656	65.000000000000	0.00000000000000
26.139999389648	0.66430944204330	-0.58889943361282	65.000000000000	0.00000000000000
26.149999618530	0.66354995965958	-0.58922654390335	65.000000000000	0.00000000000000
26.159999847412	0.66278862953186	-0.58955287933350	65.000000000000	0.00000000000000
26.170000076294	0.66202551126480	-0.58987849950790	65.000000000000	0.00000000000000
26.180000305176	0.66126060485840	-0.59020346403122	65.000000000000	0.00000000000000
26.190000534058	0.66049385070801	-0.59052753448486	65.000000000000	0.00000000000000
26.200000762939	0.65972536802292	-0.59085083007813	65.000000000000	0.00000000000000
26.209999084473	0.65895509719849	-0.59117335081100	65.000000000000	0.00000000000000
26.219999313354	0.65818309783936	-0.59149509668350	65.000000000000	0.00000000000000
26.229999542236	0.65740913152695	-0.59181606769562	65.000000000000	0.00000000000000
26.239999771118	0.65663355588913	-0.59213620424271	65.000000000000	0.00000000000000
26.250000000000	0.65585607290268	-0.59245550632477	65.000000000000	0.00000000000000
26.260000228882	0.65507680177689	-0.59277403354645	65.000000000000	0.00000000000000
26.270000457764	0.65429574251175	-0.59309172630310	65.000000000000	0.00000000000000
26.280000686646	0.65351283550262	-0.59340852499008	65.000000000000	0.00000000000000
26.290000915527	0.65272808074951	-0.59372460842133	65.000000000000	0.00000000000000
26.299999237061	0.65194147825241	-0.59403979778290	65.000000000000	0.00000000000000
26.309999465942	0.65115320682526	-0.59435409307480	65.000000000000	0.00000000000000
26.319999694824	0.65036314725876	-0.59466761350632	65.000000000000	0.00000000000000
26.329999923706	0.64957123994827	-0.59498023986816	65.000000000000	0.00000000000000
26.340000152588	0.64877748489380	-0.59529197216034	65.000000000000	0.00000000000000
26.350000381470	0.64798188209534	-0.59560286998749	65.000000000000	0.00000000000000
26.360000610352	0.64718443155289	-0.59591281414032	65.000000000000	0.00000000000000
26.370000839233	0.64638531208038	-0.59622192382813	65.000000000000	0.00000000000000
26.379999160767	0.64558422565460	-0.59653007984161	65.000000000000	0.00000000000000
26.389999389648	0.64478141069412	-0.59683740139008	65.000000000000	0.00000000000000
26.399999618530	0.64397662878036	-0.59714376926422	65.000000000000	0.00000000000000
26.409999847412	0.64317011833191	-0.59744918346405	65.000000000000	0.00000000000000
26.420000076294	0.64236187934875	-0.59775370359421	65.000000000000	0.00000000000000
26.430000305176	0.64155173301697	-0.59805727005005	65.000000000000	0.00000000000000
26.440000534058	0.64073967933655	-0.59836000204086	65.000000000000	0.00000000000000
26.450000762939	0.63992577791214	-0.59866172075272	65.000000000000	0.00000000000000
26.459999084473	0.63911008834839	-0.59896248579025	65.000000000000	0.00000000000000
26.469999313354	0.63829261064529	-0.59926229715347	65.000000000000	0.00000000000000
26.479999542236	0.63747322559357	-0.59956109523773	65.000000000000	0.00000000000000
26.489999771118	0.63665211200714	-0.59985893964767	65.000000000000	0.00000000000000
26.500000000000	0.63582903146744	-0.60015583038330	65.000000000000	0.00000000000000
26.510000228882	0.63500422239304	-0.60045176744461	65.000000000000	0.00000000000000
26.520000457764	0.63417744636536	-0.60074663162231	65.000000000000	0.00000000000000
26.530000686646	0.63334876298904	-0.60104048252106	65.000000000000	0.00000000000000
26.540000915527	0.63251835107803	-0.60133343935013	65.000000000000	0.00000000000000
26.549999237061	0.63168615102768	-0.60162520408630	65.000000000000	0.00000000000000
26.559999465942	0.63085204362869	-0.60191607475281	65.000000000000	0.00000000000000
26.569999694824	0.63001614809036	-0.60220587253571	65.000000000000	0.00000000000000
26.579999923706	0.62917822599411	-0.60249471664429	65.000000000000	0.00000000000000
26.590000152588	0.62833857536316	-0.60278236865997	65.000000000000	0.00000000000000
26.600000381470	0.62749701738358	-0.60306906700134	65.000000000000	0.00000000000000
26.610000610352	0.62665367126465	-0.60335463285446	65.000000000000	0.00000000000000
26.620000839233	0.62580829858780	-0.60363924503326	65.000000000000	0.00000000000000
26.629999160767	0.62496131658554	-0.60392266511917	65.000000000000	0.00000000000000
26.639999389648	0.62411218881607	-0.60420507192612	65.000000000000	0.00000000000000
26.649999618530	0.62326139211655	-0.60448640584946	65.000000000000	0.00000000000000
26.659999847412	0.62240874767303	-0.60476654767990	65.000000000000	0.00000000000000
26.670000076294	0.62155413627625	-0.60504573583603	65.000000000000	0.00000000000000
26.680000305176	0.62069773674011	-0.60532367229462	65.000000000000	0.00000000000000
26.690000534058	0.61983948945999	-0.60560053586960	65.000000000000	0.00000000000000
26.700000762939	0.61897927522659	-0.60587632656097	65.000000000000	0.00000000000000
26.709999084473	0.61811721324921	-0.60615086555481	65.000000000000	0.00000000000000
26.719999313354	0.61725324392319	-0.60642433166504	65.000000000000	0.00000000000000
26.729999542236	0.61638754606247	-0.60669672489166	65.000000000000	0.00000000000000
26.739999771118	0.61551982164383	-0.60696786642075	65.000000000000	0.00000000000000
26.750000000000	0.61465030908585	-0.60723787546158	65.000000000000	0.00000000000000
26.760000228882	0.61377882957458	-0.60750675201416	65.000000000000	0.00000000000000
26.770000457764	0.61290562152863	-0.60777437686920	65.000000000000	0.00000000000000
26.780000686646	0.61203038692474	-0.60804086923599	65.000000000000	0.00000000000000
26.790000915527	0.61115342378616	-0.60830610990524	65.000000000000	0.00000000000000
26.799999237061	0.61027437448502	-0.60857021808624	65.000000000000	0.00000000000000
26.809999465942	0.60939365625381	-0.60883313417435	65.000000000000	0.00000000000000
26.819999694824	0.60851079225540	-0.60909479856491	65.000000000000	0.00000000000000
26.829999923706	0.60762625932693	-0.60935515165329	65.000000000000	0.00000000000000
26.840000152588	0.60673969984055	-0.60961443185806	65.000000000000	0.00000000000000
26.850000381470	0.60585135221481	-0.60987240076065	65.000000000000	0.00000000000000
26.860000610352	0.60496115684509	-0.61012911796570	65.000000000000	0.00000000000000
26.870000839233	0.60406893491745	-0.61038458347321	65.000000000000	0.00000000000000
26.879999160767	0.60317486524582	-0.61063873767853	65.000000000000	0.00000000000000
26.889999389648	0.60227906703949	-0.61089169979095	65.000000000000	0.00000000000000
26.899999618530	0.60138118267059	-0.61114335060120	65.000000000000	0.00000000000000
26.909999847412	0.60048133134842	-0.61139369010925	65.000000000000	0.00000000000000
26.920000076294	0.59957963228226	-0.61164277791977	65.000000000000	0.00000000000000
26.930000305176	0.59867626428604	-0.61189055442810	65.000000000000	0.00000000000000
26.940000534058	0.59777081012726	-0.61213701963425	65.000000000000	0.00000000000000
26.950000762939	0.59686350822449	-0.61238217353821	65.000000000000	0.00000000000000
26.959999084473	0.59595417976379	-0.61262595653534	65.000000000000	0.00000000000000
26.969999313354	0.59504300355911	-0.61286842823029	65.000000000000	0.00000000000000
26.979999542236	0.59413009881973	-0.61310958862305	65.000000000000	0.00000000000000
26.989999771118	0.59321510791779	-0.61334937810898	65.000000000000	0.00000000000000
27.000000000000	0.59229820966721	-0.61358779668808	65.000000000000	0.00000000000000
27.010000228882	0.59137958288193	-0.61382484436035	65.000000000000	0.00000000000000
27.020000457764	0.59045881032944	-0.61406058073044	65.000000000000	0.00000000000000
27.030000686646	0.58953630924225	-0.61429482698441	65.000000000000	0.00000000000000
27.040000915527	0.58861178159714	-0.61452782154083	65.000000000000	0.00000000000000
27.049999237061	0.58768540620804	-0.61475932598114	65.000000000000	0.00000000000000
27.059999465942	0.58675706386566	-0.61498939990997	65.000000000000	0.00000000000000
27.069999694824	0.58582693338394	-0.61521810293198	65.000000000000	0.00000000000000
27.079999923706	0.58489477634430	-0.61544537544250	65.000000000000	0.00000000000000
27.090000152588	0.58396077156067	-0.61567121744156	65.000000000000	0.00000000000000
27.100000381470	0.58302485942841	-0.61589556932449	65.000000000000	0.00000000000000
27.110000610352	0.58208680152893	-0.61611855030060	65.000000000000	0.00000000000000
27.120000839233	0.58114713430405	-0.61634004116058	65.000000000000	0.00000000000000
27.129999160767	0.58020544052124	-0.61655998229980	65.000000000000	0.00000000000000
27.139999389648	0.57926172018051	-0.61677855253220	65.000000000000	0.00000000000000
27.149999618530	0.57831633090973	-0.61699563264847	65.000000000000	0.00000000000000
27.159999847412	0.57736885547638	-0.61721116304398	65.000000000000	0.00000000000000
27.170000076294	0.57641947269440	-0.61742526292801	65.000000000000	0.00000000000000
27.180000305176	0.57546806335449	-0.61763775348663	65.000000000000	0.00000000000000
27.190000534058	0.57451492547989	-0.61784875392914	65.000000000000	0.00000000000000
27.200000762939	0.57355976104736	-0.61805832386017	65.000000000000	0.00000000000000
27.209999084473	0.57260268926620	-0.61826628446579	65.000000000000	0.00000000000000
27.219999313354	0.57164376974106	-0.61847263574600	65.000000000000	0.00000000000000
27.229999542236	0.57068276405334	-0.61867749691010	65.000000000000	0.00000000000000
27.239999771118	0.56971991062164	-0.61888080835342	65.000000000000	0.00000000000000
27.250000000000	0.56875520944595	-0.61908257007599	65.000000000000	0.00000000000000
27.260000228882	0.56778860092163	-0.61928260326385	65.000000000000	0.00000000000000
27.270000457764	0.56681990623474	-0.61948114633560	65.000000000000	0.00000000000000
27.280000686646	0.56584924459457	-0.61967808008194	65.000000000000	0.00000000000000
27.290000915527	0.56487685441971	-0.61987340450287	65.000000000000	0.00000000000000
27.299999237061	0.56390249729156	-0.62006717920303	65.000000000000	0.00000000000000
27.309999465942	0.56292611360550	-0.62025922536850	65.000000000000	0.00000000000000
27.319999694824	0.56194788217545	-0.62044966220856	65.000000000000	0.00000000000000
27.329999923706	0.56096780300140	-0.62063843011856	65.000000000000	0.00000000000000
