#Parameters = {d=0.27298994974875; l2=5.459798994975; lambda=10.91959798995; r=0.036788125628142}
#"Frequency / GHz"	"S1,1 (lambda=10.9196) [Re]"	"S1,1 (lambda=10.9196) [Im]"	"Ref.Imp. [Re]"	"Ref.Imp. [Im]"
#-----------------------------------------------------------------------------------------------------------
25.000000000000	0.022606913000345	0.069140337407589	65.000000000000	0.00000000000000
25.010000228882	0.023515725508332	0.071018874645233	65.000000000000	0.00000000000000
25.020000457764	0.024431297555566	0.072890542447567	65.000000000000	0.00000000000000
25.030000686646	0.025353539735079	0.074755296111107	65.000000000000	0.00000000000000
25.040000915527	0.026282399892807	0.076613105833530	65.000000000000	0.00000000000000
25.049999237061	0.027217822149396	0.078463964164257	65.000000000000	0.00000000000000
25.059999465942	0.028159745037556	0.080307833850384	65.000000000000	0.00000000000000
25.069999694824	0.029108107089996	0.082144692540169	65.000000000000	0.00000000000000
25.079999923706	0.030062846839428	0.083974540233612	65.000000000000	0.00000000000000
25.090000152588	0.031023928895593	0.085797317326069	65.000000000000	0.00000000000000
25.100000381470	0.031991247087717	0.087613031268120	65.000000000000	0.00000000000000
25.110000610352	0.032964807003736	0.089421637356281	65.000000000000	0.00000000000000
25.120000839233	0.033944483846426	0.091223135590553	65.000000000000	0.00000000000000
25.129999160767	0.034930225461721	0.093017496168613	65.000000000000	0.00000000000000
25.139999389648	0.035922039300203	0.094804711639881	65.000000000000	0.00000000000000
25.149999618530	0.036919791251421	0.096584737300873	65.000000000000	0.00000000000000
25.159999847412	0.037923488765955	0.098357573151588	65.000000000000	0.00000000000000
25.170000076294	0.038933005183935	0.10012320429087	65.000000000000	0.00000000000000
25.180000305176	0.039948321878910	0.10188160836697	65.000000000000	0.00000000000000
25.190000534058	0.040969371795654	0.10363277792931	65.000000000000	0.00000000000000
25.200000762939	0.041996084153652	0.10537667572498	65.000000000000	0.00000000000000
25.209999084473	0.043028414249420	0.10711327940226	65.000000000000	0.00000000000000
25.219999313354	0.044066295027733	0.10884261876345	65.000000000000	0.00000000000000
25.229999542236	0.045109696686268	0.11056464165449	65.000000000000	0.00000000000000
25.239999771118	0.046158548444510	0.11227934807539	65.000000000000	0.00000000000000
25.250000000000	0.047212719917297	0.11398671567440	65.000000000000	0.00000000000000
25.260000228882	0.048272274434566	0.11568672955036	65.000000000000	0.00000000000000
25.270000457764	0.049337077885866	0.11737939715385	65.000000000000	0.00000000000000
25.280000686646	0.050407078117132	0.11906468868256	65.000000000000	0.00000000000000
25.290000915527	0.051482249051332	0.12074258923531	65.000000000000	0.00000000000000
25.299999237061	0.052562464028597	0.12241309136152	65.000000000000	0.00000000000000
25.309999465942	0.053647767752409	0.12407619506121	65.000000000000	0.00000000000000
25.319999694824	0.054738044738770	0.12573188543320	65.000000000000	0.00000000000000
25.329999923706	0.055833224207163	0.12738013267517	65.000000000000	0.00000000000000
25.340000152588	0.056933235377073	0.12902095913887	65.000000000000	0.00000000000000
25.350000381470	0.058038108050823	0.13065433502197	65.000000000000	0.00000000000000
25.360000610352	0.059147693216801	0.13228029012680	65.000000000000	0.00000000000000
25.370000839233	0.060261987149715	0.13389874994755	65.000000000000	0.00000000000000
25.379999160767	0.061380915343761	0.13550975918770	65.000000000000	0.00000000000000
25.389999389648	0.062504418194294	0.13711327314377	65.000000000000	0.00000000000000
25.399999618530	0.063632458448410	0.13870932161808	65.000000000000	0.00000000000000
25.409999847412	0.064764924347401	0.14029787480831	65.000000000000	0.00000000000000
25.420000076294	0.065901830792427	0.14187894761562	65.000000000000	0.00000000000000
25.430000305176	0.067043073475361	0.14345252513885	65.000000000000	0.00000000000000
25.440000534058	0.068188644945621	0.14501857757568	65.000000000000	0.00000000000000
25.450000762939	0.069338440895081	0.14657714962959	65.000000000000	0.00000000000000
25.459999084473	0.070492424070835	0.14812819659710	65.000000000000	0.00000000000000
25.469999313354	0.071650557219982	0.14967173337936	65.000000000000	0.00000000000000
25.479999542236	0.072812728583813	0.15120774507523	65.000000000000	0.00000000000000
25.489999771118	0.073978982865810	0.15273624658585	65.000000000000	0.00000000000000
25.500000000000	0.075149156153202	0.15425723791122	65.000000000000	0.00000000000000
25.510000228882	0.076323270797729	0.15577068924904	65.000000000000	0.00000000000000
25.520000457764	0.077501222491264	0.15727661550045	65.000000000000	0.00000000000000
25.530000686646	0.078682988882065	0.15877501666546	65.000000000000	0.00000000000000
25.540000915527	0.079868502914906	0.16026592254639	65.000000000000	0.00000000000000
25.549999237061	0.081057772040367	0.16174924373627	65.000000000000	0.00000000000000
25.559999465942	0.082250587642193	0.16322509944439	65.000000000000	0.00000000000000
25.569999694824	0.083447068929672	0.16469341516495	65.000000000000	0.00000000000000
25.579999923706	0.084647081792355	0.16615419089794	65.000000000000	0.00000000000000
25.590000152588	0.085850566625595	0.16760744154453	65.000000000000	0.00000000000000
25.600000381470	0.087057471275330	0.16905318200588	65.000000000000	0.00000000000000
25.610000610352	0.088267810642719	0.17049141228199	65.000000000000	0.00000000000000
25.620000839233	0.089481428265572	0.17192211747169	65.000000000000	0.00000000000000
25.629999160767	0.090698316693306	0.17334532737732	65.000000000000	0.00000000000000
25.639999389648	0.091918453574181	0.17476101219654	65.000000000000	0.00000000000000
25.649999618530	0.093141771852970	0.17616920173168	65.000000000000	0.00000000000000
25.659999847412	0.094368182122707	0.17756986618042	65.000000000000	0.00000000000000
25.670000076294	0.095597758889198	0.17896305024624	65.000000000000	0.00000000000000
25.680000305176	0.096830248832703	0.18034875392914	65.000000000000	0.00000000000000
25.690000534058	0.098065763711929	0.18172696232796	65.000000000000	0.00000000000000
25.700000762939	0.099304184317589	0.18309770524502	65.000000000000	0.00000000000000
25.709999084473	0.10054548829794	0.18446093797684	65.000000000000	0.00000000000000
25.719999313354	0.10178962349892	0.18581674993038	65.000000000000	0.00000000000000
25.729999542236	0.10303650051355	0.18716506659985	65.000000000000	0.00000000000000
25.739999771118	0.10428610444069	0.18850593268871	65.000000000000	0.00000000000000
25.750000000000	0.10553842037916	0.18983934819698	65.000000000000	0.00000000000000
25.760000228882	0.10679333657026	0.19116532802582	65.000000000000	0.00000000000000
25.770000457764	0.10805080085993	0.19248387217522	65.000000000000	0.00000000000000
25.780000686646	0.10931081324816	0.19379499554634	65.000000000000	0.00000000000000
25.790000915527	0.11057325452566	0.19509877264500	65.000000000000	0.00000000000000
25.799999237061	0.11183831840754	0.19639499485493	65.000000000000	0.00000000000000
25.809999465942	0.11310558021069	0.19768393039703	65.000000000000	0.00000000000000
25.819999694824	0.11437525600195	0.19896541535854	65.000000000000	0.00000000000000
25.829999923706	0.11564719676971	0.20023953914642	65.000000000000	0.00000000000000
25.840000152588	0.11692134290934	0.20150634646416	65.000000000000	0.00000000000000
25.850000381470	0.11819783598185	0.20276568830013	65.000000000000	0.00000000000000
25.860000610352	0.11947630345821	0.20401780307293	65.000000000000	0.00000000000000
25.870000839233	0.12075690180063	0.20526254177094	65.000000000000	0.00000000000000
25.879999160767	0.12203957885504	0.20649994909763	65.000000000000	0.00000000000000
25.889999389648	0.12332434952259	0.20772998034954	65.000000000000	0.00000000000000
25.899999618530	0.12461099773645	0.20895276963711	65.000000000000	0.00000000000000
25.909999847412	0.12589974701405	0.21016818284988	65.000000000000	0.00000000000000
25.920000076294	0.12719023227692	0.21137638390064	65.000000000000	0.00000000000000
25.930000305176	0.12848243117332	0.21257738769054	65.000000000000	0.00000000000000
25.940000534058	0.12977656722069	0.21377107501030	65.000000000000	0.00000000000000
25.950000762939	0.13107247650623	0.21495749056339	65.000000000000	0.00000000000000
25.959999084473	0.13237002491951	0.21613667905331	65.000000000000	0.00000000000000
25.969999313354	0.13366915285587	0.21730874478817	65.000000000000	0.00000000000000
25.979999542236	0.13497002422810	0.21847350895405	65.000000000000	0.00000000000000
25.989999771118	0.13627249002457	0.21963112056255	65.000000000000	0.00000000000000
26.000000000000	0.13757635653019	0.22078157961369	65.000000000000	0.00000000000000
26.010000228882	0.13888183236122	0.22192484140396	65.000000000000	0.00000000000000
26.020000457764	0.14018882811069	0.22306090593338	65.000000000000	0.00000000000000
26.030000686646	0.14149710536003	0.22418989241123	65.000000000000	0.00000000000000
26.040000915527	0.14280670881271	0.22531183063984	65.000000000000	0.00000000000000
26.049999237061	0.14411759376526	0.22642666101456	65.000000000000	0.00000000000000
26.059999465942	0.14542981982231	0.22753438353539	65.000000000000	0.00000000000000
26.069999694824	0.14674347639084	0.22863495349884	65.000000000000	0.00000000000000
26.079999923706	0.14805802702904	0.22972860932350	65.000000000000	0.00000000000000
26.090000152588	0.14937400817871	0.23081509768963	65.000000000000	0.00000000000000
26.100000381470	0.15069092810154	0.23189467191696	65.000000000000	0.00000000000000
26.110000610352	0.15200895071030	0.23296722769737	65.000000000000	0.00000000000000
26.120000839233	0.15332815051079	0.23403270542622	65.000000000000	0.00000000000000
26.129999160767	0.15464825928211	0.23509128391743	65.000000000000	0.00000000000000
26.139999389648	0.15596933662891	0.23614290356636	65.000000000000	0.00000000000000
26.149999618530	0.15729136765003	0.23718759417534	65.000000000000	0.00000000000000
26.159999847412	0.15861412882805	0.23822543025017	65.000000000000	0.00000000000000
26.170000076294	0.15993799269199	0.23925621807575	65.000000000000	0.00000000000000
26.180000305176	0.16126252710819	0.24028022587299	65.000000000000	0.00000000000000
26.190000534058	0.16258780658245	0.24129736423492	65.000000000000	0.00000000000000
26.200000762939	0.16391392052174	0.24230761826038	65.000000000000	0.00000000000000
26.209999084473	0.16524071991444	0.24331106245518	65.000000000000	0.00000000000000
26.219999313354	0.16656808555126	0.24430775642395	65.000000000000	0.00000000000000
26.229999542236	0.16789615154266	0.24529759585857	65.000000000000	0.00000000000000
26.239999771118	0.16922479867935	0.24628067016602	65.000000000000	0.00000000000000
26.250000000000	0.17055404186249	0.24725699424744	65.000000000000	0.00000000000000
26.260000228882	0.17188379168510	0.24822658300400	65.000000000000	0.00000000000000
26.270000457764	0.17321401834488	0.24918945133686	65.000000000000	0.00000000000000
26.280000686646	0.17454469203949	0.25014564394951	65.000000000000	0.00000000000000
26.290000915527	0.17587576806545	0.25109517574310	65.000000000000	0.00000000000000
26.299999237061	0.17720727622509	0.25203803181648	65.000000000000	0.00000000000000
26.309999465942	0.17853909730911	0.25297424197197	65.000000000000	0.00000000000000
26.319999694824	0.17987127602100	0.25390383601189	65.000000000000	0.00000000000000
26.329999923706	0.18120370805264	0.25482687354088	65.000000000000	0.00000000000000
26.340000152588	0.18253639340401	0.25574329495430	65.000000000000	0.00000000000000
26.350000381470	0.18386925756931	0.25665318965912	65.000000000000	0.00000000000000
26.360000610352	0.18520231544971	0.25755652785301	65.000000000000	0.00000000000000
26.370000839233	0.18653556704521	0.25845333933830	65.000000000000	0.00000000000000
26.379999160767	0.18786890804768	0.25934368371964	65.000000000000	0.00000000000000
26.389999389648	0.18920241296291	0.26022753119469	65.000000000000	0.00000000000000
26.399999618530	0.19053588807583	0.26110494136810	65.000000000000	0.00000000000000
26.409999847412	0.19186942279339	0.26197594404221	65.000000000000	0.00000000000000
26.420000076294	0.19320298731327	0.26284050941467	65.000000000000	0.00000000000000
26.430000305176	0.19453640282154	0.26369869709015	65.000000000000	0.00000000000000
26.440000534058	0.19586981832981	0.26455050706863	65.000000000000	0.00000000000000
26.450000762939	0.19720315933228	0.26539596915245	65.000000000000	0.00000000000000
26.459999084473	0.19853630661964	0.26623511314392	65.000000000000	0.00000000000000
26.469999313354	0.19986937940121	0.26706799864769	65.000000000000	0.00000000000000
26.479999542236	0.20120222866535	0.26789453625679	65.000000000000	0.00000000000000
26.489999771118	0.20253489911556	0.26871484518051	65.000000000000	0.00000000000000
26.500000000000	0.20386725664139	0.26952892541885	65.000000000000	0.00000000000000
26.510000228882	0.20519936084747	0.27033677697182	65.000000000000	0.00000000000000
26.520000457764	0.20653119683266	0.27113845944405	65.000000000000	0.00000000000000
26.530000686646	0.20786269009113	0.27193391323090	65.000000000000	0.00000000000000
26.540000915527	0.20919379591942	0.27272325754166	65.000000000000	0.00000000000000
26.549999237061	0.21052457392216	0.27350649237633	65.000000000000	0.00000000000000
26.559999465942	0.21185493469238	0.27428361773491	65.000000000000	0.00000000000000
26.569999694824	0.21318477392197	0.27505463361740	65.000000000000	0.00000000000000
26.579999923706	0.21451419591904	0.27581962943077	65.000000000000	0.00000000000000
26.590000152588	0.21584314107895	0.27657854557037	65.000000000000	0.00000000000000
26.600000381470	0.21717162430286	0.27733147144318	65.000000000000	0.00000000000000
26.610000610352	0.21849943697453	0.27807840704918	65.000000000000	0.00000000000000
26.620000839233	0.21982675790787	0.27881938219070	65.000000000000	0.00000000000000
26.629999160767	0.22115345299244	0.27955442667007	65.000000000000	0.00000000000000
26.639999389648	0.22247955203056	0.28028351068497	65.000000000000	0.00000000000000
26.649999618530	0.22380495071411	0.28100669384003	65.000000000000	0.00000000000000
26.659999847412	0.22512975335121	0.28172406554222	65.000000000000	0.00000000000000
26.670000076294	0.22645378112793	0.28243550658226	65.000000000000	0.00000000000000
26.680000305176	0.22777713835239	0.28314116597176	65.000000000000	0.00000000000000
26.690000534058	0.22909979522228	0.28384101390839	65.000000000000	0.00000000000000
26.700000762939	0.23042163252831	0.28453502058983	65.000000000000	0.00000000000000
26.709999084473	0.23174269497395	0.28522333502769	65.000000000000	0.00000000000000
26.719999313354	0.23306292295456	0.28590586781502	65.000000000000	0.00000000000000
26.729999542236	0.23438231647015	0.28658270835876	65.000000000000	0.00000000000000
26.739999771118	0.23570086061954	0.28725385665894	65.000000000000	0.00000000000000
26.750000000000	0.23701852560043	0.28791934251785	65.000000000000	0.00000000000000
26.760000228882	0.23833529651165	0.28857922554016	65.000000000000	0.00000000000000
26.770000457764	0.23965111374855	0.28923341631889	65.000000000000	0.00000000000000
26.780000686646	0.24096599221230	0.28988200426102	65.000000000000	0.00000000000000
26.790000915527	0.24227988719940	0.29052507877350	65.000000000000	0.00000000000000
26.799999237061	0.24359278380871	0.29116255044937	65.000000000000	0.00000000000000
26.809999465942	0.24490471184254	0.29179450869560	65.000000000000	0.00000000000000
26.819999694824	0.24621558189392	0.29242098331451	65.000000000000	0.00000000000000
26.829999923706	0.24752536416054	0.29304197430611	65.000000000000	0.00000000000000
26.840000152588	0.24883413314819	0.29365748167038	65.000000000000	0.00000000000000
26.850000381470	0.25014176964760	0.29426756501198	65.000000000000	0.00000000000000
26.860000610352	0.25144833326340	0.29487228393555	65.000000000000	0.00000000000000
26.870000839233	0.25275370478630	0.29547154903412	65.000000000000	0.00000000000000
26.879999160767	0.25405791401863	0.29606547951698	65.000000000000	0.00000000000000
26.889999389648	0.25536105036736	0.29665407538414	65.000000000000	0.00000000000000
26.899999618530	0.25666287541389	0.29723736643791	65.000000000000	0.00000000000000
26.909999847412	0.25796347856522	0.29781535267830	65.000000000000	0.00000000000000
26.920000076294	0.25926291942596	0.29838806390762	65.000000000000	0.00000000000000
26.930000305176	0.26056110858917	0.29895555973053	65.000000000000	0.00000000000000
26.940000534058	0.26185804605484	0.29951781034470	65.000000000000	0.00000000000000
26.950000762939	0.26315361261368	0.30007484555244	65.000000000000	0.00000000000000
26.959999084473	0.26444798707962	0.30062672495842	65.000000000000	0.00000000000000
26.969999313354	0.26574099063873	0.30117347836494	65.000000000000	0.00000000000000
26.979999542236	0.26703262329102	0.30171504616737	65.000000000000	0.00000000000000
26.989999771118	0.26832300424576	0.30225157737732	65.000000000000	0.00000000000000
27.000000000000	0.26961192488670	0.30278298258781	65.000000000000	0.00000000000000
27.010000228882	0.27089947462082	0.30330935120583	65.000000000000	0.00000000000000
27.020000457764	0.27218562364578	0.30383065342903	65.000000000000	0.00000000000000
27.030000686646	0.27347034215927	0.30434700846672	65.000000000000	0.00000000000000
27.040000915527	0.27475365996361	0.30485835671425	65.000000000000	0.00000000000000
27.049999237061	0.27603548765182	0.30536472797394	65.000000000000	0.00000000000000
27.059999465942	0.27731582522392	0.30586615204811	65.000000000000	0.00000000000000
27.069999694824	0.27859467267990	0.30636265873909	65.000000000000	0.00000000000000
27.079999923706	0.27987208962440	0.30685430765152	65.000000000000	0.00000000000000
27.090000152588	0.28114792704582	0.30734106898308	65.000000000000	0.00000000000000
27.100000381470	0.28242227435112	0.30782297253609	65.000000000000	0.00000000000000
27.110000610352	0.28369504213333	0.30830007791519	65.000000000000	0.00000000000000
27.120000839233	0.28496626019478	0.30877235531807	65.000000000000	0.00000000000000
27.129999160767	0.28623595833778	0.30923986434937	65.000000000000	0.00000000000000
27.139999389648	0.28750401735306	0.30970266461372	65.000000000000	0.00000000000000
27.149999618530	0.28877046704292	0.31016069650650	65.000000000000	0.00000000000000
27.159999847412	0.29003530740738	0.31061401963234	65.000000000000	0.00000000000000
27.170000076294	0.29129856824875	0.31106266379356	65.000000000000	0.00000000000000
27.180000305176	0.29256013035774	0.31150665879250	65.000000000000	0.00000000000000
27.190000534058	0.29382008314133	0.31194603443146	65.000000000000	0.00000000000000
27.200000762939	0.29507827758789	0.31238073110580	65.000000000000	0.00000000000000
27.209999084473	0.29633495211601	0.31281089782715	65.000000000000	0.00000000000000
27.219999313354	0.29758980870247	0.31323647499084	65.000000000000	0.00000000000000
27.229999542236	0.29884293675423	0.31365749239922	65.000000000000	0.00000000000000
27.239999771118	0.30009439587593	0.31407403945923	65.000000000000	0.00000000000000
27.250000000000	0.30134418606758	0.31448602676392	65.000000000000	0.00000000000000
27.260000228882	0.30259215831757	0.31489357352257	65.000000000000	0.00000000000000
27.270000457764	0.30383840203285	0.31529670953751	65.000000000000	0.00000000000000
27.280000686646	0.30508288741112	0.31569531559944	65.000000000000	0.00000000000000
27.290000915527	0.30632555484772	0.31608957052231	65.000000000000	0.00000000000000
27.299999237061	0.30756643414497	0.31647944450378	65.000000000000	0.00000000000000
27.309999465942	0.30880552530289	0.31686493754387	65.000000000000	0.00000000000000
27.319999694824	0.31004285812378	0.31724610924721	65.000000000000	0.00000000000000
27.329999923706	0.31127840280533	0.31762295961380	65.000000000000	0.00000000000000
27.340000152588	0.31251201033592	0.31799548864365	65.000000000000	0.00000000000000
27.350000381470	0.31374379992485	0.31836378574371	65.000000000000	0.00000000000000
