#Parameters = {d=0.20314070351759; l2=4.0628140703517; lambda=8.1256281407035; r=0.02737524120603}
#"Frequency / GHz"	"S1,1 (lambda=8.12563) [Re]"	"S1,1 (lambda=8.12563) [Im]"	"Ref.Imp. [Re]"	"Ref.Imp. [Im]"
#-----------------------------------------------------------------------------------------------------------
25.000000000000	0.68735349178314	-0.57776379585266	65.000000000000	0.00000000000000
25.010000228882	0.68663442134857	-0.57812303304672	65.000000000000	0.00000000000000
25.020000457764	0.68591344356537	-0.57848191261292	65.000000000000	0.00000000000000
25.030000686646	0.68519061803818	-0.57884031534195	65.000000000000	0.00000000000000
25.040000915527	0.68446588516235	-0.57919824123383	65.000000000000	0.00000000000000
25.049999237061	0.68373912572861	-0.57955580949783	65.000000000000	0.00000000000000
25.059999465942	0.68301063776016	-0.57991290092468	65.000000000000	0.00000000000000
25.069999694824	0.68228012323380	-0.58026951551437	65.000000000000	0.00000000000000
25.079999923706	0.68154764175415	-0.58062571287155	65.000000000000	0.00000000000000
25.090000152588	0.68081319332123	-0.58098137378693	65.000000000000	0.00000000000000
25.100000381470	0.68007701635361	-0.58133661746979	65.000000000000	0.00000000000000
25.110000610352	0.67933875322342	-0.58169126510620	65.000000000000	0.00000000000000
25.120000839233	0.67859840393066	-0.58204543590546	65.000000000000	0.00000000000000
25.129999160767	0.67785626649857	-0.58239912986755	65.000000000000	0.00000000000000
25.139999389648	0.67711204290390	-0.58275234699249	65.000000000000	0.00000000000000
25.149999618530	0.67636591196060	-0.58310490846634	65.000000000000	0.00000000000000
25.159999847412	0.67561787366867	-0.58345699310303	65.000000000000	0.00000000000000
25.170000076294	0.67486780881882	-0.58380848169327	65.000000000000	0.00000000000000
25.180000305176	0.67411577701569	-0.58415937423706	65.000000000000	0.00000000000000
25.190000534058	0.67336177825928	-0.58450973033905	65.000000000000	0.00000000000000
25.200000762939	0.67260581254959	-0.58485949039459	65.000000000000	0.00000000000000
25.209999084473	0.67184776067734	-0.58520865440369	65.000000000000	0.00000000000000
25.219999313354	0.67108786106110	-0.58555722236633	65.000000000000	0.00000000000000
25.229999542236	0.67032587528229	-0.58590507507324	65.000000000000	0.00000000000000
25.239999771118	0.66956192255020	-0.58625233173370	65.000000000000	0.00000000000000
25.250000000000	0.66879582405090	-0.58659899234772	65.000000000000	0.00000000000000
25.260000228882	0.66802793741226	-0.58694493770599	65.000000000000	0.00000000000000
25.270000457764	0.66725796461105	-0.58729034662247	65.000000000000	0.00000000000000
25.280000686646	0.66648596525192	-0.58763492107391	65.000000000000	0.00000000000000
25.290000915527	0.66571187973022	-0.58797889947891	65.000000000000	0.00000000000000
25.299999237061	0.66493582725525	-0.58832210302353	65.000000000000	0.00000000000000
25.309999465942	0.66415780782700	-0.58866465091705	65.000000000000	0.00000000000000
25.319999694824	0.66337770223618	-0.58900642395020	65.000000000000	0.00000000000000
25.329999923706	0.66259562969208	-0.58934754133224	65.000000000000	0.00000000000000
25.340000152588	0.66181159019470	-0.58968788385391	65.000000000000	0.00000000000000
25.350000381470	0.66102534532547	-0.59002745151520	65.000000000000	0.00000000000000
25.360000610352	0.66023713350296	-0.59036630392075	65.000000000000	0.00000000000000
25.370000839233	0.65944695472717	-0.59070438146591	65.000000000000	0.00000000000000
25.379999160767	0.65865451097488	-0.59104168415070	65.000000000000	0.00000000000000
25.389999389648	0.65786033868790	-0.59137809276581	65.000000000000	0.00000000000000
25.399999618530	0.65706390142441	-0.59171378612518	65.000000000000	0.00000000000000
25.409999847412	0.65626555681229	-0.59204870462418	65.000000000000	0.00000000000000
25.420000076294	0.65546506643295	-0.59238272905350	65.000000000000	0.00000000000000
25.430000305176	0.65466254949570	-0.59271597862244	65.000000000000	0.00000000000000
25.440000534058	0.65385806560516	-0.59304827451706	65.000000000000	0.00000000000000
25.450000762939	0.65305143594742	-0.59337979555130	65.000000000000	0.00000000000000
25.459999084473	0.65224295854568	-0.59371042251587	65.000000000000	0.00000000000000
25.469999313354	0.65143203735352	-0.59404045343399	65.000000000000	0.00000000000000
25.479999542236	0.65061944723129	-0.59436911344528	65.000000000000	0.00000000000000
25.489999771118	0.64980465173721	-0.59469717741013	65.000000000000	0.00000000000000
25.500000000000	0.64898777008057	-0.59502410888672	65.000000000000	0.00000000000000
25.510000228882	0.64816874265671	-0.59535038471222	65.000000000000	0.00000000000000
25.520000457764	0.64734774827957	-0.59567564725876	65.000000000000	0.00000000000000
25.530000686646	0.64652484655380	-0.59599983692169	65.000000000000	0.00000000000000
25.540000915527	0.64569956064224	-0.59632331132889	65.000000000000	0.00000000000000
25.549999237061	0.64487272500992	-0.59664535522461	65.000000000000	0.00000000000000
25.559999465942	0.64404332637787	-0.59696704149246	65.000000000000	0.00000000000000
25.569999694824	0.64321190118790	-0.59728759527206	65.000000000000	0.00000000000000
25.579999923706	0.64237856864929	-0.59760701656342	65.000000000000	0.00000000000000
25.590000152588	0.64154320955276	-0.59792542457581	65.000000000000	0.00000000000000
25.600000381470	0.64070588350296	-0.59824264049530	65.000000000000	0.00000000000000
25.610000610352	0.63986605405807	-0.59855943918228	65.000000000000	0.00000000000000
25.620000839233	0.63902449607849	-0.59887468814850	65.000000000000	0.00000000000000
25.629999160767	0.63818043470383	-0.59918946027756	65.000000000000	0.00000000000000
25.639999389648	0.63733494281769	-0.59950250387192	65.000000000000	0.00000000000000
25.649999618530	0.63648724555969	-0.59981465339661	65.000000000000	0.00000000000000
25.659999847412	0.63563692569733	-0.60012620687485	65.000000000000	0.00000000000000
25.670000076294	0.63478523492813	-0.60043609142303	65.000000000000	0.00000000000000
25.680000305176	0.63393127918243	-0.60074496269226	65.000000000000	0.00000000000000
25.690000534058	0.63307511806488	-0.60105299949646	65.000000000000	0.00000000000000
25.700000762939	0.63221663236618	-0.60136014223099	65.000000000000	0.00000000000000
25.709999084473	0.63135647773743	-0.60166579484940	65.000000000000	0.00000000000000
25.719999313354	0.63049435615540	-0.60197013616562	65.000000000000	0.00000000000000
25.729999542236	0.62962990999222	-0.60227358341217	65.000000000000	0.00000000000000
25.739999771118	0.62876319885254	-0.60257607698441	65.000000000000	0.00000000000000
25.750000000000	0.62789458036423	-0.60287731885910	65.000000000000	0.00000000000000
25.760000228882	0.62702399492264	-0.60317730903625	65.000000000000	0.00000000000000
25.770000457764	0.62615144252777	-0.60347604751587	65.000000000000	0.00000000000000
25.780000686646	0.62527656555176	-0.60377377271652	65.000000000000	0.00000000000000
25.790000915527	0.62439960241318	-0.60407024621964	65.000000000000	0.00000000000000
25.799999237061	0.62352061271667	-0.60436546802521	65.000000000000	0.00000000000000
25.809999465942	0.62263977527618	-0.60465949773788	65.000000000000	0.00000000000000
25.819999694824	0.62175667285919	-0.60495233535767	65.000000000000	0.00000000000000
25.829999923706	0.62087148427963	-0.60524398088455	65.000000000000	0.00000000000000
25.840000152588	0.61998426914215	-0.60553437471390	65.000000000000	0.00000000000000
25.850000381470	0.61909496784210	-0.60582345724106	65.000000000000	0.00000000000000
25.860000610352	0.61820363998413	-0.60611128807068	65.000000000000	0.00000000000000
25.870000839233	0.61731016635895	-0.60639792680740	65.000000000000	0.00000000000000
25.879999160767	0.61641466617584	-0.60668325424194	65.000000000000	0.00000000000000
25.889999389648	0.61551719903946	-0.60696727037430	65.000000000000	0.00000000000000
25.899999618530	0.61461746692657	-0.60724997520447	65.000000000000	0.00000000000000
25.909999847412	0.61371582746506	-0.60753136873245	65.000000000000	0.00000000000000
25.920000076294	0.61281192302704	-0.60781157016754	65.000000000000	0.00000000000000
25.930000305176	0.61190611124039	-0.60809040069580	65.000000000000	0.00000000000000
25.940000534058	0.61099827289581	-0.60836780071259	65.000000000000	0.00000000000000
25.950000762939	0.61008810997009	-0.60864394903183	65.000000000000	0.00000000000000
25.959999084473	0.60917609930038	-0.60891866683960	65.000000000000	0.00000000000000
25.969999313354	0.60826212167740	-0.60919207334518	65.000000000000	0.00000000000000
25.979999542236	0.60734581947327	-0.60946416854858	65.000000000000	0.00000000000000
25.989999771118	0.60642766952515	-0.60973489284515	65.000000000000	0.00000000000000
26.000000000000	0.60550731420517	-0.61000418663025	65.000000000000	0.00000000000000
26.010000228882	0.60458487272263	-0.61027204990387	65.000000000000	0.00000000000000
26.020000457764	0.60366034507751	-0.61053854227066	65.000000000000	0.00000000000000
26.030000686646	0.60273385047913	-0.61080360412598	65.000000000000	0.00000000000000
26.040000915527	0.60180526971817	-0.61106723546982	65.000000000000	0.00000000000000
26.049999237061	0.60087454319000	-0.61132943630219	65.000000000000	0.00000000000000
26.059999465942	0.59994196891785	-0.61159026622772	65.000000000000	0.00000000000000
26.069999694824	0.59900707006454	-0.61184960603714	65.000000000000	0.00000000000000
26.079999923706	0.59807026386261	-0.61210745573044	65.000000000000	0.00000000000000
26.090000152588	0.59713131189346	-0.61236387491226	65.000000000000	0.00000000000000
26.100000381470	0.59619033336639	-0.61261874437332	65.000000000000	0.00000000000000
26.110000610352	0.59524732828140	-0.61287218332291	65.000000000000	0.00000000000000
26.120000839233	0.59430235624313	-0.61312413215637	65.000000000000	0.00000000000000
26.129999160767	0.59335505962372	-0.61337459087372	65.000000000000	0.00000000000000
26.139999389648	0.59240585565567	-0.61362349987030	65.000000000000	0.00000000000000
26.149999618530	0.59145456552505	-0.61387091875076	65.000000000000	0.00000000000000
26.159999847412	0.59050112962723	-0.61411678791046	65.000000000000	0.00000000000000
26.170000076294	0.58954584598541	-0.61436110734940	65.000000000000	0.00000000000000
26.180000305176	0.58858829736710	-0.61460387706757	65.000000000000	0.00000000000000
26.190000534058	0.58762884140015	-0.61484503746033	65.000000000000	0.00000000000000
26.200000762939	0.58666735887527	-0.61508476734161	65.000000000000	0.00000000000000
26.209999084473	0.58570373058319	-0.61532282829285	65.000000000000	0.00000000000000
26.219999313354	0.58473801612854	-0.61555933952332	65.000000000000	0.00000000000000
26.229999542236	0.58377027511597	-0.61579418182373	65.000000000000	0.00000000000000
26.239999771118	0.58280044794083	-0.61602753400803	65.000000000000	0.00000000000000
26.250000000000	0.58182877302170	-0.61625921726227	65.000000000000	0.00000000000000
26.260000228882	0.58085483312607	-0.61648929119110	65.000000000000	0.00000000000000
26.270000457764	0.57987880706787	-0.61671769618988	65.000000000000	0.00000000000000
26.280000686646	0.57890087366104	-0.61694449186325	65.000000000000	0.00000000000000
26.290000915527	0.57792073488235	-0.61716955900192	65.000000000000	0.00000000000000
26.299999237061	0.57693868875504	-0.61739301681519	65.000000000000	0.00000000000000
26.309999465942	0.57595449686050	-0.61761492490768	65.000000000000	0.00000000000000
26.319999694824	0.57496839761734	-0.61783504486084	65.000000000000	0.00000000000000
26.329999923706	0.57398021221161	-0.61805343627930	65.000000000000	0.00000000000000
26.340000152588	0.57298982143402	-0.61827021837234	65.000000000000	0.00000000000000
26.350000381470	0.57199734449387	-0.61848527193069	65.000000000000	0.00000000000000
26.360000610352	0.57100284099579	-0.61869859695435	65.000000000000	0.00000000000000
26.370000839233	0.57000654935837	-0.61891025304794	65.000000000000	0.00000000000000
26.379999160767	0.56900799274445	-0.61912006139755	65.000000000000	0.00000000000000
26.389999389648	0.56800752878189	-0.61932820081711	65.000000000000	0.00000000000000
26.399999618530	0.56700497865677	-0.61953455209732	65.000000000000	0.00000000000000
26.409999847412	0.56600028276443	-0.61973911523819	65.000000000000	0.00000000000000
26.420000076294	0.56499361991882	-0.61994194984436	65.000000000000	0.00000000000000
26.430000305176	0.56398499011993	-0.62014305591583	65.000000000000	0.00000000000000
26.440000534058	0.56297421455383	-0.62034237384796	65.000000000000	0.00000000000000
26.450000762939	0.56196135282516	-0.62053984403610	65.000000000000	0.00000000000000
26.459999084473	0.56094658374786	-0.62073552608490	65.000000000000	0.00000000000000
26.469999313354	0.55992960929871	-0.62092930078506	65.000000000000	0.00000000000000
26.479999542236	0.55891072750092	-0.62112128734589	65.000000000000	0.00000000000000
26.489999771118	0.55788975954056	-0.62131148576736	65.000000000000	0.00000000000000
26.500000000000	0.55686682462692	-0.62149983644485	65.000000000000	0.00000000000000
26.510000228882	0.55584168434143	-0.62168633937836	65.000000000000	0.00000000000000
26.520000457764	0.55481469631195	-0.62187093496323	65.000000000000	0.00000000000000
26.530000686646	0.55378562211990	-0.62205362319946	65.000000000000	0.00000000000000
26.540000915527	0.55275434255600	-0.62223446369171	65.000000000000	0.00000000000000
26.549999237061	0.55172127485275	-0.62241345643997	65.000000000000	0.00000000000000
26.559999465942	0.55068594217300	-0.62259048223495	65.000000000000	0.00000000000000
26.569999694824	0.54964870214462	-0.62276560068130	65.000000000000	0.00000000000000
26.579999923706	0.54860955476761	-0.62293881177902	65.000000000000	0.00000000000000
26.590000152588	0.54756814241409	-0.62311005592346	65.000000000000	0.00000000000000
26.600000381470	0.54652482271194	-0.62327939271927	65.000000000000	0.00000000000000
26.610000610352	0.54547947645187	-0.62344676256180	65.000000000000	0.00000000000000
26.620000839233	0.54443204402924	-0.62361222505569	65.000000000000	0.00000000000000
26.629999160767	0.54338264465332	-0.62377566099167	65.000000000000	0.00000000000000
26.639999389648	0.54233109951019	-0.62393701076508	65.000000000000	0.00000000000000
26.649999618530	0.54127758741379	-0.62409651279449	65.000000000000	0.00000000000000
26.659999847412	0.54022210836411	-0.62425392866135	65.000000000000	0.00000000000000
26.670000076294	0.53916454315186	-0.62440937757492	65.000000000000	0.00000000000000
26.680000305176	0.53810501098633	-0.62456274032593	65.000000000000	0.00000000000000
26.690000534058	0.53704357147217	-0.62471407651901	65.000000000000	0.00000000000000
26.700000762939	0.53597992658615	-0.62486338615417	65.000000000000	0.00000000000000
26.709999084473	0.53491425514221	-0.62501060962677	65.000000000000	0.00000000000000
26.719999313354	0.53384661674500	-0.62515580654144	65.000000000000	0.00000000000000
26.729999542236	0.53277689218521	-0.62529891729355	65.000000000000	0.00000000000000
26.739999771118	0.53170526027679	-0.62543994188309	65.000000000000	0.00000000000000
26.750000000000	0.53063154220581	-0.62557888031006	65.000000000000	0.00000000000000
26.760000228882	0.52955579757690	-0.62571567296982	65.000000000000	0.00000000000000
26.770000457764	0.52847808599472	-0.62585031986237	65.000000000000	0.00000000000000
26.780000686646	0.52739834785461	-0.62598288059235	65.000000000000	0.00000000000000
26.790000915527	0.52631646394730	-0.62611323595047	65.000000000000	0.00000000000000
26.799999237061	0.52523285150528	-0.62624156475067	65.000000000000	0.00000000000000
26.809999465942	0.52414703369141	-0.62636762857437	65.000000000000	0.00000000000000
26.819999694824	0.52305912971497	-0.62649154663086	65.000000000000	0.00000000000000
26.829999923706	0.52196943759918	-0.62661319971085	65.000000000000	0.00000000000000
26.840000152588	0.52087754011154	-0.62673282623291	65.000000000000	0.00000000000000
26.850000381470	0.51978385448456	-0.62685006856918	65.000000000000	0.00000000000000
26.860000610352	0.51868784427643	-0.62696510553360	65.000000000000	0.00000000000000
26.870000839233	0.51759010553360	-0.62707799673080	65.000000000000	0.00000000000000
26.879999160767	0.51649034023285	-0.62718862295151	65.000000000000	0.00000000000000
26.889999389648	0.51538848876953	-0.62729698419571	65.000000000000	0.00000000000000
26.899999618530	0.51428467035294	-0.62740308046341	65.000000000000	0.00000000000000
26.909999847412	0.51317894458771	-0.62750691175461	65.000000000000	0.00000000000000
26.920000076294	0.51207113265991	-0.62760841846466	65.000000000000	0.00000000000000
26.930000305176	0.51096123456955	-0.62770760059357	65.000000000000	0.00000000000000
26.940000534058	0.50984942913055	-0.62780457735062	65.000000000000	0.00000000000000
26.950000762939	0.50873565673828	-0.62789922952652	65.000000000000	0.00000000000000
26.959999084473	0.50761997699738	-0.62799137830734	65.000000000000	0.00000000000000
26.969999313354	0.50650209188461	-0.62808132171631	65.000000000000	0.00000000000000
26.979999542236	0.50538253784180	-0.62816894054413	65.000000000000	0.00000000000000
26.989999771118	0.50426065921783	-0.62825405597687	65.000000000000	0.00000000000000
27.000000000000	0.50313699245453	-0.62833684682846	65.000000000000	0.00000000000000
27.010000228882	0.50201135873795	-0.62841725349426	65.000000000000	0.00000000000000
27.020000457764	0.50088375806808	-0.62849527597427	65.000000000000	0.00000000000000
27.030000686646	0.49975413084030	-0.62857085466385	65.000000000000	0.00000000000000
27.040000915527	0.49862250685692	-0.62864398956299	65.000000000000	0.00000000000000
27.049999237061	0.49748900532722	-0.62871468067169	65.000000000000	0.00000000000000
27.059999465942	0.49635344743729	-0.62878298759460	65.000000000000	0.00000000000000
27.069999694824	0.49521583318710	-0.62884879112244	65.000000000000	0.00000000000000
27.079999923706	0.49407637119293	-0.62891203165054	65.000000000000	0.00000000000000
27.090000152588	0.49293503165245	-0.62897282838821	65.000000000000	0.00000000000000
27.100000381470	0.49179154634476	-0.62903118133545	65.000000000000	0.00000000000000
27.110000610352	0.49064624309540	-0.62908697128296	65.000000000000	0.00000000000000
27.120000839233	0.48949900269508	-0.62914019823074	65.000000000000	0.00000000000000
27.129999160767	0.48834970593452	-0.62919092178345	65.000000000000	0.00000000000000
27.139999389648	0.48719850182533	-0.62923914194107	65.000000000000	0.00000000000000
27.149999618530	0.48604550957680	-0.62928473949432	65.000000000000	0.00000000000000
27.159999847412	0.48489043116570	-0.62932777404785	65.000000000000	0.00000000000000
27.170000076294	0.48373344540596	-0.62936818599701	65.000000000000	0.00000000000000
27.180000305176	0.48257437348366	-0.62940591573715	65.000000000000	0.00000000000000
27.190000534058	0.48141342401505	-0.62944120168686	65.000000000000	0.00000000000000
27.200000762939	0.48025071620941	-0.62947368621826	65.000000000000	0.00000000000000
27.209999084473	0.47908598184586	-0.62950366735458	65.000000000000	0.00000000000000
27.219999313354	0.47791922092438	-0.62953096628189	65.000000000000	0.00000000000000
27.229999542236	0.47675070166588	-0.62955552339554	65.000000000000	0.00000000000000
27.239999771118	0.47558030486107	-0.62957739830017	65.000000000000	0.00000000000000
27.250000000000	0.47440785169601	-0.62959665060043	65.000000000000	0.00000000000000
27.260000228882	0.47323346138000	-0.62961316108704	65.000000000000	0.00000000000000
27.270000457764	0.47205731272697	-0.62962692975998	65.000000000000	0.00000000000000
27.280000686646	0.47087916731834	-0.62963801622391	65.000000000000	0.00000000000000
27.290000915527	0.46969914436340	-0.62964624166489	65.000000000000	0.00000000000000
27.299999237061	0.46851715445518	-0.62965184450150	65.000000000000	0.00000000000000
27.309999465942	0.46733334660530	-0.62965458631516	65.000000000000	0.00000000000000
27.319999694824	0.46614766120911	-0.62965452671051	65.000000000000	0.00000000000000
27.329999923706	0.46496006846428	-0.62965166568756	65.000000000000	0.00000000000000
