#Parameters = {d=0.21168341708543; l2=4.2336683417086; lambda=8.4673366834171; r=0.028526457286432}
#"Frequency / GHz"	"S1,1 (lambda=8.46734) [Re]"	"S1,1 (lambda=8.46734) [Im]"	"Ref.Imp. [Re]"	"Ref.Imp. [Im]"
#-----------------------------------------------------------------------------------------------------------
25.000000000000	0.60208964347839	-0.61063051223755	65.000000000000	0.00000000000000
25.010000228882	0.60112404823303	-0.61091440916061	65.000000000000	0.00000000000000
25.020000457764	0.60015583038330	-0.61119663715363	65.000000000000	0.00000000000000
25.030000686646	0.59918528795242	-0.61147737503052	65.000000000000	0.00000000000000
25.040000915527	0.59821194410324	-0.61175650358200	65.000000000000	0.00000000000000
25.049999237061	0.59723639488220	-0.61203396320343	65.000000000000	0.00000000000000
25.059999465942	0.59625828266144	-0.61230981349945	65.000000000000	0.00000000000000
25.069999694824	0.59527766704559	-0.61258393526077	65.000000000000	0.00000000000000
25.079999923706	0.59429460763931	-0.61285644769669	65.000000000000	0.00000000000000
25.090000152588	0.59330904483795	-0.61312723159790	65.000000000000	0.00000000000000
25.100000381470	0.59232097864151	-0.61339640617371	65.000000000000	0.00000000000000
25.110000610352	0.59133052825928	-0.61366379261017	65.000000000000	0.00000000000000
25.120000839233	0.59033739566803	-0.61392951011658	65.000000000000	0.00000000000000
25.129999160767	0.58934211730957	-0.61419337987900	65.000000000000	0.00000000000000
25.139999389648	0.58834421634674	-0.61445558071136	65.000000000000	0.00000000000000
25.149999618530	0.58734381198883	-0.61471593379974	65.000000000000	0.00000000000000
25.159999847412	0.58634102344513	-0.61497461795807	65.000000000000	0.00000000000000
25.170000076294	0.58533579111099	-0.61523133516312	65.000000000000	0.00000000000000
25.180000305176	0.58432817459106	-0.61548638343811	65.000000000000	0.00000000000000
25.190000534058	0.58331799507141	-0.61573946475983	65.000000000000	0.00000000000000
25.200000762939	0.58230555057526	-0.61599081754684	65.000000000000	0.00000000000000
25.209999084473	0.58129066228867	-0.61624026298523	65.000000000000	0.00000000000000
25.219999313354	0.58027327060699	-0.61648780107498	65.000000000000	0.00000000000000
25.229999542236	0.57925349473953	-0.61673355102539	65.000000000000	0.00000000000000
25.239999771118	0.57823127508163	-0.61697733402252	65.000000000000	0.00000000000000
25.250000000000	0.57720673084259	-0.61721926927567	65.000000000000	0.00000000000000
25.260000228882	0.57617956399918	-0.61745923757553	65.000000000000	0.00000000000000
25.270000457764	0.57515025138855	-0.61769723892212	65.000000000000	0.00000000000000
25.280000686646	0.57411849498749	-0.61793333292007	65.000000000000	0.00000000000000
25.290000915527	0.57308441400528	-0.61816740036011	65.000000000000	0.00000000000000
25.299999237061	0.57204777002335	-0.61839956045151	65.000000000000	0.00000000000000
25.309999465942	0.57100886106491	-0.61862975358963	65.000000000000	0.00000000000000
25.319999694824	0.56996762752533	-0.61885786056519	65.000000000000	0.00000000000000
25.329999923706	0.56892389059067	-0.61908394098282	65.000000000000	0.00000000000000
25.340000152588	0.56787794828415	-0.61930811405182	65.000000000000	0.00000000000000
25.350000381470	0.56682944297791	-0.61953014135361	65.000000000000	0.00000000000000
25.360000610352	0.56577885150909	-0.61975008249283	65.000000000000	0.00000000000000
25.370000839233	0.56472563743591	-0.61996817588806	65.000000000000	0.00000000000000
25.379999160767	0.56367027759552	-0.62018394470215	65.000000000000	0.00000000000000
25.389999389648	0.56261253356934	-0.62039780616760	65.000000000000	0.00000000000000
25.399999618530	0.56155240535736	-0.62060946226120	65.000000000000	0.00000000000000
25.409999847412	0.56049025058746	-0.62081885337830	65.000000000000	0.00000000000000
25.420000076294	0.55942541360855	-0.62102639675140	65.000000000000	0.00000000000000
25.430000305176	0.55835825204849	-0.62123185396194	65.000000000000	0.00000000000000
25.440000534058	0.55728900432587	-0.62143486738205	65.000000000000	0.00000000000000
25.450000762939	0.55621713399887	-0.62163615226746	65.000000000000	0.00000000000000
25.459999084473	0.55514317750931	-0.62183493375778	65.000000000000	0.00000000000000
25.469999313354	0.55406689643860	-0.62203156948090	65.000000000000	0.00000000000000
25.479999542236	0.55298852920532	-0.62222582101822	65.000000000000	0.00000000000000
25.489999771118	0.55190736055374	-0.62241840362549	65.000000000000	0.00000000000000
25.500000000000	0.55082440376282	-0.62260824441910	65.000000000000	0.00000000000000
25.510000228882	0.54973906278610	-0.62279593944550	65.000000000000	0.00000000000000
25.520000457764	0.54865145683289	-0.62298136949539	65.000000000000	0.00000000000000
25.530000686646	0.54756122827530	-0.62316495180130	65.000000000000	0.00000000000000
25.540000915527	0.54646933078766	-0.62334573268890	65.000000000000	0.00000000000000
25.549999237061	0.54537445306778	-0.62352484464645	65.000000000000	0.00000000000000
25.559999465942	0.54427802562714	-0.62370109558105	65.000000000000	0.00000000000000
25.569999694824	0.54317891597748	-0.62387537956238	65.000000000000	0.00000000000000
25.579999923706	0.54207748174667	-0.62404733896255	65.000000000000	0.00000000000000
25.590000152588	0.54097408056259	-0.62421679496765	65.000000000000	0.00000000000000
25.600000381470	0.53986847400665	-0.62438398599625	65.000000000000	0.00000000000000
25.610000610352	0.53876054286957	-0.62454885244370	65.000000000000	0.00000000000000
25.620000839233	0.53765070438385	-0.62471115589142	65.000000000000	0.00000000000000
25.629999160767	0.53653794527054	-0.62487161159515	65.000000000000	0.00000000000000
25.639999389648	0.53542363643646	-0.62502914667130	65.000000000000	0.00000000000000
25.649999618530	0.53430670499802	-0.62518465518951	65.000000000000	0.00000000000000
25.659999847412	0.53318756818771	-0.62533783912659	65.000000000000	0.00000000000000
25.670000076294	0.53206646442413	-0.62548828125000	65.000000000000	0.00000000000000
25.680000305176	0.53094309568405	-0.62563633918762	65.000000000000	0.00000000000000
25.690000534058	0.52981734275818	-0.62578231096268	65.000000000000	0.00000000000000
25.700000762939	0.52868956327438	-0.62592560052872	65.000000000000	0.00000000000000
25.709999084473	0.52755957841873	-0.62606638669968	65.000000000000	0.00000000000000
25.719999313354	0.52642744779587	-0.62620472908020	65.000000000000	0.00000000000000
25.729999542236	0.52529305219650	-0.62634068727493	65.000000000000	0.00000000000000
25.739999771118	0.52415621280670	-0.62647444009781	65.000000000000	0.00000000000000
25.750000000000	0.52301776409149	-0.62660515308380	65.000000000000	0.00000000000000
25.760000228882	0.52187716960907	-0.62673336267471	65.000000000000	0.00000000000000
25.770000457764	0.52073377370834	-0.62685960531235	65.000000000000	0.00000000000000
25.780000686646	0.51958876848221	-0.62698280811310	65.000000000000	0.00000000000000
25.790000915527	0.51844137907028	-0.62710368633270	65.000000000000	0.00000000000000
25.799999237061	0.51729196310043	-0.62722200155258	65.000000000000	0.00000000000000
25.809999465942	0.51614040136337	-0.62733769416809	65.000000000000	0.00000000000000
25.819999694824	0.51498651504517	-0.62745088338852	65.000000000000	0.00000000000000
25.829999923706	0.51383060216904	-0.62756145000458	65.000000000000	0.00000000000000
25.840000152588	0.51267266273499	-0.62766939401627	65.000000000000	0.00000000000000
25.850000381470	0.51151251792908	-0.62777477502823	65.000000000000	0.00000000000000
25.860000610352	0.51035034656525	-0.62787759304047	65.000000000000	0.00000000000000
25.870000839233	0.50918596982956	-0.62797766923904	65.000000000000	0.00000000000000
25.879999160767	0.50801950693130	-0.62807518243790	65.000000000000	0.00000000000000
25.889999389648	0.50685077905655	-0.62816995382309	65.000000000000	0.00000000000000
25.899999618530	0.50568032264709	-0.62826216220856	65.000000000000	0.00000000000000
25.909999847412	0.50450742244720	-0.62835162878036	65.000000000000	0.00000000000000
25.920000076294	0.50333249568939	-0.62843853235245	65.000000000000	0.00000000000000
25.930000305176	0.50215548276901	-0.62852263450623	65.000000000000	0.00000000000000
25.940000534058	0.50097656250000	-0.62860405445099	65.000000000000	0.00000000000000
25.950000762939	0.49979540705681	-0.62868273258209	65.000000000000	0.00000000000000
25.959999084473	0.49861219525337	-0.62875866889954	65.000000000000	0.00000000000000
25.969999313354	0.49742677807808	-0.62883192300797	65.000000000000	0.00000000000000
25.979999542236	0.49623951315880	-0.62890231609344	65.000000000000	0.00000000000000
25.989999771118	0.49505016207695	-0.62897008657455	65.000000000000	0.00000000000000
26.000000000000	0.49385866522789	-0.62903493642807	65.000000000000	0.00000000000000
26.010000228882	0.49266505241394	-0.62909710407257	65.000000000000	0.00000000000000
26.020000457764	0.49146947264671	-0.62915641069412	65.000000000000	0.00000000000000
26.030000686646	0.49027180671692	-0.62921297550201	65.000000000000	0.00000000000000
26.040000915527	0.48907211422920	-0.62926667928696	65.000000000000	0.00000000000000
26.049999237061	0.48787042498589	-0.62931752204895	65.000000000000	0.00000000000000
26.059999465942	0.48666661977768	-0.62936556339264	65.000000000000	0.00000000000000
26.069999694824	0.48546084761620	-0.62941074371338	65.000000000000	0.00000000000000
26.079999923706	0.48425292968750	-0.62945300340652	65.000000000000	0.00000000000000
26.090000152588	0.48304307460785	-0.62949240207672	65.000000000000	0.00000000000000
26.100000381470	0.48183122277260	-0.62952888011932	65.000000000000	0.00000000000000
26.110000610352	0.48061743378639	-0.62956249713898	65.000000000000	0.00000000000000
26.120000839233	0.47940143942833	-0.62959313392639	65.000000000000	0.00000000000000
26.129999160767	0.47818347811699	-0.62962090969086	65.000000000000	0.00000000000000
26.139999389648	0.47696375846863	-0.62964564561844	65.000000000000	0.00000000000000
26.149999618530	0.47574177384377	-0.62966752052307	65.000000000000	0.00000000000000
26.159999847412	0.47451785206795	-0.62968635559082	65.000000000000	0.00000000000000
26.170000076294	0.47329196333885	-0.62970227003098	65.000000000000	0.00000000000000
26.180000305176	0.47206410765648	-0.62971514463425	65.000000000000	0.00000000000000
26.190000534058	0.47083425521851	-0.62972503900528	65.000000000000	0.00000000000000
26.200000762939	0.46960237622261	-0.62973195314407	65.000000000000	0.00000000000000
26.209999084473	0.46836858987808	-0.62973576784134	65.000000000000	0.00000000000000
26.219999313354	0.46713289618492	-0.62973642349243	65.000000000000	0.00000000000000
26.229999542236	0.46589511632919	-0.62973427772522	65.000000000000	0.00000000000000
26.239999771118	0.46465545892715	-0.62972885370255	65.000000000000	0.00000000000000
26.250000000000	0.46341377496719	-0.62972038984299	65.000000000000	0.00000000000000
26.260000228882	0.46217024326324	-0.62970888614655	65.000000000000	0.00000000000000
26.270000457764	0.46092474460602	-0.62969422340393	65.000000000000	0.00000000000000
26.280000686646	0.45967718958855	-0.62967646121979	65.000000000000	0.00000000000000
26.290000915527	0.45842775702477	-0.62965553998947	65.000000000000	0.00000000000000
26.299999237061	0.45717653632164	-0.62963145971298	65.000000000000	0.00000000000000
26.309999465942	0.45592316985130	-0.62960416078568	65.000000000000	0.00000000000000
26.319999694824	0.45466807484627	-0.62957376241684	65.000000000000	0.00000000000000
26.329999923706	0.45341104269028	-0.62954014539719	65.000000000000	0.00000000000000
26.340000152588	0.45215207338333	-0.62950336933136	65.000000000000	0.00000000000000
26.350000381470	0.45089113712311	-0.62946331501007	65.000000000000	0.00000000000000
26.360000610352	0.44962835311890	-0.62942004203796	65.000000000000	0.00000000000000
26.370000839233	0.44836378097534	-0.62937349081039	65.000000000000	0.00000000000000
26.379999160767	0.44709718227386	-0.62932372093201	65.000000000000	0.00000000000000
26.389999389648	0.44582873582840	-0.62927067279816	65.000000000000	0.00000000000000
26.399999618530	0.44455850124359	-0.62921434640884	65.000000000000	0.00000000000000
26.409999847412	0.44328629970551	-0.62915462255478	65.000000000000	0.00000000000000
26.420000076294	0.44201222062111	-0.62909162044525	65.000000000000	0.00000000000000
26.430000305176	0.44073629379272	-0.62902534008026	65.000000000000	0.00000000000000
26.440000534058	0.43945851922035	-0.62895566225052	65.000000000000	0.00000000000000
26.450000762939	0.43817892670631	-0.62888264656067	65.000000000000	0.00000000000000
26.459999084473	0.43689748644829	-0.62880623340607	65.000000000000	0.00000000000000
26.469999313354	0.43561428785324	-0.62872642278671	65.000000000000	0.00000000000000
26.479999542236	0.43432924151421	-0.62864327430725	65.000000000000	0.00000000000000
26.489999771118	0.43304222822189	-0.62855660915375	65.000000000000	0.00000000000000
26.500000000000	0.43175360560417	-0.62846654653549	65.000000000000	0.00000000000000
26.510000228882	0.43046307563782	-0.62837308645248	65.000000000000	0.00000000000000
26.520000457764	0.42917075753212	-0.62827605009079	65.000000000000	0.00000000000000
26.530000686646	0.42787650227547	-0.62817561626434	65.000000000000	0.00000000000000
26.540000915527	0.42658069729805	-0.62807166576385	65.000000000000	0.00000000000000
26.549999237061	0.42528298497200	-0.62796413898468	65.000000000000	0.00000000000000
26.559999465942	0.42398354411125	-0.62785315513611	65.000000000000	0.00000000000000
26.569999694824	0.42268225550652	-0.62773865461349	65.000000000000	0.00000000000000
26.579999923706	0.42137932777405	-0.62762051820755	65.000000000000	0.00000000000000
26.590000152588	0.42007464170456	-0.62749886512756	65.000000000000	0.00000000000000
26.600000381470	0.41876801848412	-0.62737357616425	65.000000000000	0.00000000000000
26.610000610352	0.41745975613594	-0.62724471092224	65.000000000000	0.00000000000000
26.620000839233	0.41614988446236	-0.62711226940155	65.000000000000	0.00000000000000
26.629999160767	0.41483813524246	-0.62697619199753	65.000000000000	0.00000000000000
26.639999389648	0.41352474689484	-0.62683641910553	65.000000000000	0.00000000000000
26.649999618530	0.41220971941948	-0.62669295072556	65.000000000000	0.00000000000000
26.659999847412	0.41089293360710	-0.62654578685760	65.000000000000	0.00000000000000
26.670000076294	0.40957432985306	-0.62639504671097	65.000000000000	0.00000000000000
26.680000305176	0.40825429558754	-0.62624049186707	65.000000000000	0.00000000000000
26.690000534058	0.40693238377571	-0.62608224153519	65.000000000000	0.00000000000000
26.700000762939	0.40560886263847	-0.62592023611069	65.000000000000	0.00000000000000
26.709999084473	0.40428379178047	-0.62575441598892	65.000000000000	0.00000000000000
26.719999313354	0.40295699238777	-0.62558490037918	65.000000000000	0.00000000000000
26.729999542236	0.40162846446037	-0.62541151046753	65.000000000000	0.00000000000000
26.739999771118	0.40029838681221	-0.62523436546326	65.000000000000	0.00000000000000
26.750000000000	0.39896667003632	-0.62505340576172	65.000000000000	0.00000000000000
26.760000228882	0.39763340353966	-0.62486857175827	65.000000000000	0.00000000000000
26.770000457764	0.39629846811295	-0.62467986345291	65.000000000000	0.00000000000000
26.780000686646	0.39496210217476	-0.62448728084564	65.000000000000	0.00000000000000
26.790000915527	0.39362400770187	-0.62429082393646	65.000000000000	0.00000000000000
26.799999237061	0.39228436350822	-0.62409049272537	65.000000000000	0.00000000000000
26.809999465942	0.39094308018684	-0.62388616800308	65.000000000000	0.00000000000000
26.819999694824	0.38960036635399	-0.62367802858353	65.000000000000	0.00000000000000
26.829999923706	0.38825601339340	-0.62346583604813	65.000000000000	0.00000000000000
26.840000152588	0.38691028952599	-0.62324965000153	65.000000000000	0.00000000000000
26.850000381470	0.38556298613548	-0.62302947044373	65.000000000000	0.00000000000000
26.860000610352	0.38421413302422	-0.62280535697937	65.000000000000	0.00000000000000
26.870000839233	0.38286375999451	-0.62257713079453	65.000000000000	0.00000000000000
26.879999160767	0.38151180744171	-0.62234491109848	65.000000000000	0.00000000000000
26.889999389648	0.38015866279602	-0.62210857868195	65.000000000000	0.00000000000000
26.899999618530	0.37880375981331	-0.62186819314957	65.000000000000	0.00000000000000
26.909999847412	0.37744760513306	-0.62162369489670	65.000000000000	0.00000000000000
26.920000076294	0.37609001994133	-0.62137520313263	65.000000000000	0.00000000000000
26.930000305176	0.37473079562187	-0.62112253904343	65.000000000000	0.00000000000000
26.940000534058	0.37337028980255	-0.62086564302444	65.000000000000	0.00000000000000
26.950000762939	0.37200832366943	-0.62060463428497	65.000000000000	0.00000000000000
26.959999084473	0.37064513564110	-0.62033945322037	65.000000000000	0.00000000000000
26.969999313354	0.36928039789200	-0.62007009983063	65.000000000000	0.00000000000000
26.979999542236	0.36791422963142	-0.61979657411575	65.000000000000	0.00000000000000
26.989999771118	0.36654695868492	-0.61951869726181	65.000000000000	0.00000000000000
27.000000000000	0.36517804861069	-0.61923664808273	65.000000000000	0.00000000000000
27.010000228882	0.36380809545517	-0.61895042657852	65.000000000000	0.00000000000000
27.020000457764	0.36243665218353	-0.61865973472595	65.000000000000	0.00000000000000
27.030000686646	0.36106392741203	-0.61836493015289	65.000000000000	0.00000000000000
27.040000915527	0.35968998074532	-0.61806565523148	65.000000000000	0.00000000000000
27.049999237061	0.35831475257874	-0.61776214838028	65.000000000000	0.00000000000000
27.059999465942	0.35693821310997	-0.61745423078537	65.000000000000	0.00000000000000
27.069999694824	0.35556033253670	-0.61714208126068	65.000000000000	0.00000000000000
27.079999923706	0.35418146848679	-0.61682540178299	65.000000000000	0.00000000000000
27.090000152588	0.35280108451843	-0.61650449037552	65.000000000000	0.00000000000000
27.100000381470	0.35141974687576	-0.61617898941040	65.000000000000	0.00000000000000
27.110000610352	0.35003709793091	-0.61584913730621	65.000000000000	0.00000000000000
27.120000839233	0.34865325689316	-0.61551481485367	65.000000000000	0.00000000000000
27.129999160767	0.34726822376251	-0.61517608165741	65.000000000000	0.00000000000000
27.139999389648	0.34588220715523	-0.61483287811279	65.000000000000	0.00000000000000
27.149999618530	0.34449502825737	-0.61448508501053	65.000000000000	0.00000000000000
27.159999847412	0.34310659766197	-0.61413288116455	65.000000000000	0.00000000000000
27.170000076294	0.34171733260155	-0.61377608776093	65.000000000000	0.00000000000000
27.180000305176	0.34032669663429	-0.61341476440430	65.000000000000	0.00000000000000
27.190000534058	0.33893525600433	-0.61304879188538	65.000000000000	0.00000000000000
27.200000762939	0.33754247426987	-0.61267834901810	65.000000000000	0.00000000000000
27.209999084473	0.33614897727966	-0.61230325698853	65.000000000000	0.00000000000000
27.219999313354	0.33475425839424	-0.61192351579666	65.000000000000	0.00000000000000
27.229999542236	0.33335855603218	-0.61153924465179	65.000000000000	0.00000000000000
27.239999771118	0.33196201920509	-0.61115020513535	65.000000000000	0.00000000000000
27.250000000000	0.33056432008743	-0.61075663566589	65.000000000000	0.00000000000000
27.260000228882	0.32916569709778	-0.61035829782486	65.000000000000	0.00000000000000
27.270000457764	0.32776626944542	-0.60995531082153	65.000000000000	0.00000000000000
27.280000686646	0.32636591792107	-0.60954755544662	65.000000000000	0.00000000000000
27.290000915527	0.32496470212936	-0.60913509130478	65.000000000000	0.00000000000000
27.299999237061	0.32356241345406	-0.60871791839600	65.000000000000	0.00000000000000
27.309999465942	0.32215940952301	-0.60829591751099	65.000000000000	0.00000000000000
27.319999694824	0.32075557112694	-0.60786920785904	65.000000000000	0.00000000000000
27.329999923706	0.31935086846352	-0.60743767023087	65.000000000000	0.00000000000000
