#Parameters = {d=0.23680904522613; l2=4.7361809045226; lambda=9.4723618090452; r=0.031912386934673}
#"Frequency / GHz"	"S1,1 (lambda=9.47236) [Re]"	"S1,1 (lambda=9.47236) [Im]"	"Ref.Imp. [Re]"	"Ref.Imp. [Im]"
#-----------------------------------------------------------------------------------------------------------
25.000000000000	0.23373900353909	-0.57062625885010	65.000000000000	0.00000000000000
25.010000228882	0.23218134045601	-0.56979537010193	65.000000000000	0.00000000000000
25.020000457764	0.23062407970428	-0.56895810365677	65.000000000000	0.00000000000000
25.030000686646	0.22906734049320	-0.56811416149139	65.000000000000	0.00000000000000
25.040000915527	0.22751130163670	-0.56726366281509	65.000000000000	0.00000000000000
25.049999237061	0.22595590353012	-0.56640660762787	65.000000000000	0.00000000000000
25.059999465942	0.22440099716187	-0.56554299592972	65.000000000000	0.00000000000000
25.069999694824	0.22284688055515	-0.56467270851135	65.000000000000	0.00000000000000
25.079999923706	0.22129347920418	-0.56379574537277	65.000000000000	0.00000000000000
25.090000152588	0.21974098682404	-0.56291216611862	65.000000000000	0.00000000000000
25.100000381470	0.21818923950195	-0.56202185153961	65.000000000000	0.00000000000000
25.110000610352	0.21663820743561	-0.56112486124039	65.000000000000	0.00000000000000
25.120000839233	0.21508811414242	-0.56022113561630	65.000000000000	0.00000000000000
25.129999160767	0.21353892982006	-0.55931073427200	65.000000000000	0.00000000000000
25.139999389648	0.21199065446854	-0.55839347839355	65.000000000000	0.00000000000000
25.149999618530	0.21044348180294	-0.55746942758560	65.000000000000	0.00000000000000
25.159999847412	0.20889715850353	-0.55653858184814	65.000000000000	0.00000000000000
25.170000076294	0.20735211670399	-0.55560094118118	65.000000000000	0.00000000000000
25.180000305176	0.20580816268921	-0.55465650558472	65.000000000000	0.00000000000000
25.190000534058	0.20426528155804	-0.55370515584946	65.000000000000	0.00000000000000
25.200000762939	0.20272357761860	-0.55274695158005	65.000000000000	0.00000000000000
25.209999084473	0.20118302106857	-0.55178189277649	65.000000000000	0.00000000000000
25.219999313354	0.19964392483234	-0.55080986022949	65.000000000000	0.00000000000000
25.229999542236	0.19810612499714	-0.54983103275299	65.000000000000	0.00000000000000
25.239999771118	0.19656960666180	-0.54884517192841	65.000000000000	0.00000000000000
25.250000000000	0.19503465294838	-0.54785233736038	65.000000000000	0.00000000000000
25.260000228882	0.19350081682205	-0.54685264825821	65.000000000000	0.00000000000000
25.270000457764	0.19196890294552	-0.54584586620331	65.000000000000	0.00000000000000
25.280000686646	0.19043791294098	-0.54483222961426	65.000000000000	0.00000000000000
25.290000915527	0.18890891969204	-0.54381150007248	65.000000000000	0.00000000000000
25.299999237061	0.18738146126270	-0.54278373718262	65.000000000000	0.00000000000000
25.309999465942	0.18585556745529	-0.54174894094467	65.000000000000	0.00000000000000
25.319999694824	0.18433125317097	-0.54070723056793	65.000000000000	0.00000000000000
25.329999923706	0.18280938267708	-0.53965818881989	65.000000000000	0.00000000000000
25.340000152588	0.18128865957260	-0.53860229253769	65.000000000000	0.00000000000000
25.350000381470	0.17976969480515	-0.53753942251205	65.000000000000	0.00000000000000
25.360000610352	0.17825298011303	-0.53646928071976	65.000000000000	0.00000000000000
25.370000839233	0.17673806846142	-0.53539216518402	65.000000000000	0.00000000000000
25.379999160767	0.17522527277470	-0.53430783748627	65.000000000000	0.00000000000000
25.389999389648	0.17371438443661	-0.53321641683578	65.000000000000	0.00000000000000
25.399999618530	0.17220565676689	-0.53211790323257	65.000000000000	0.00000000000000
25.409999847412	0.17069862782955	-0.53101235628128	65.000000000000	0.00000000000000
25.420000076294	0.16919443011284	-0.52989947795868	65.000000000000	0.00000000000000
25.430000305176	0.16769200563431	-0.52877962589264	65.000000000000	0.00000000000000
25.440000534058	0.16619217395782	-0.52765238285065	65.000000000000	0.00000000000000
25.450000762939	0.16469450294971	-0.52651816606522	65.000000000000	0.00000000000000
25.459999084473	0.16319900751114	-0.52537685632706	65.000000000000	0.00000000000000
25.469999313354	0.16170600056648	-0.52422833442688	65.000000000000	0.00000000000000
25.479999542236	0.16021552681923	-0.52307260036469	65.000000000000	0.00000000000000
25.489999771118	0.15872760117054	-0.52190965414047	65.000000000000	0.00000000000000
25.500000000000	0.15724226832390	-0.52073949575424	65.000000000000	0.00000000000000
25.510000228882	0.15575960278511	-0.51956224441528	65.000000000000	0.00000000000000
25.520000457764	0.15427938103676	-0.51837778091431	65.000000000000	0.00000000000000
25.530000686646	0.15280216932297	-0.51718610525131	65.000000000000	0.00000000000000
25.540000915527	0.15132746100426	-0.51598727703094	65.000000000000	0.00000000000000
25.549999237061	0.14985558390617	-0.51478129625320	65.000000000000	0.00000000000000
25.559999465942	0.14838680624962	-0.51356798410416	65.000000000000	0.00000000000000
25.569999694824	0.14692069590092	-0.51234757900238	65.000000000000	0.00000000000000
25.579999923706	0.14545781910419	-0.51111990213394	65.000000000000	0.00000000000000
25.590000152588	0.14399743080139	-0.50988525152206	65.000000000000	0.00000000000000
25.600000381470	0.14254081249237	-0.50864315032959	65.000000000000	0.00000000000000
25.610000610352	0.14108680188656	-0.50739401578903	65.000000000000	0.00000000000000
25.620000839233	0.13963642716408	-0.50613760948181	65.000000000000	0.00000000000000
25.629999160767	0.13818873465061	-0.50487416982651	65.000000000000	0.00000000000000
25.639999389648	0.13674475252628	-0.50360345840454	65.000000000000	0.00000000000000
25.649999618530	0.13530378043652	-0.50232559442520	65.000000000000	0.00000000000000
25.659999847412	0.13386660814285	-0.50104045867920	65.000000000000	0.00000000000000
25.670000076294	0.13243253529072	-0.49974828958511	65.000000000000	0.00000000000000
25.680000305176	0.13100188970566	-0.49844896793365	65.000000000000	0.00000000000000
25.690000534058	0.12957516312599	-0.49714237451553	65.000000000000	0.00000000000000
25.700000762939	0.12815167009830	-0.49582874774933	65.000000000000	0.00000000000000
25.709999084473	0.12673197686672	-0.49450799822807	65.000000000000	0.00000000000000
25.719999313354	0.12531608343124	-0.49318009614944	65.000000000000	0.00000000000000
25.729999542236	0.12390382587910	-0.49184501171112	65.000000000000	0.00000000000000
25.739999771118	0.12249547243118	-0.49050289392471	65.000000000000	0.00000000000000
25.750000000000	0.12109059840441	-0.48915371298790	65.000000000000	0.00000000000000
25.760000228882	0.11969017982483	-0.48779729008675	65.000000000000	0.00000000000000
25.770000457764	0.11829335242510	-0.48643395304680	65.000000000000	0.00000000000000
25.780000686646	0.11690059304237	-0.48506346344948	65.000000000000	0.00000000000000
25.790000915527	0.11551195383072	-0.48368588089943	65.000000000000	0.00000000000000
25.799999237061	0.11412750929594	-0.48230129480362	65.000000000000	0.00000000000000
25.809999465942	0.11274717003107	-0.48090976476669	65.000000000000	0.00000000000000
25.819999694824	0.11137108504772	-0.47951111197472	65.000000000000	0.00000000000000
25.829999923706	0.10999919474125	-0.47810548543930	65.000000000000	0.00000000000000
25.840000152588	0.10863177478313	-0.47669282555580	65.000000000000	0.00000000000000
25.850000381470	0.10726875811815	-0.47527328133583	65.000000000000	0.00000000000000
25.860000610352	0.10591006278992	-0.47384676337242	65.000000000000	0.00000000000000
25.870000839233	0.10455586016178	-0.47241330146790	65.000000000000	0.00000000000000
25.879999160767	0.10320617258549	-0.47097289562225	65.000000000000	0.00000000000000
25.889999389648	0.10186118632555	-0.46952557563782	65.000000000000	0.00000000000000
25.899999618530	0.10052081942558	-0.46807140111923	65.000000000000	0.00000000000000
25.909999847412	0.099185116589069	-0.46661034226418	65.000000000000	0.00000000000000
25.920000076294	0.097854115068913	-0.46514242887497	65.000000000000	0.00000000000000
25.930000305176	0.096527986228466	-0.46366766095161	65.000000000000	0.00000000000000
25.940000534058	0.095206655561924	-0.46218612790108	65.000000000000	0.00000000000000
25.950000762939	0.093890383839607	-0.46069779992104	65.000000000000	0.00000000000000
25.959999084473	0.092579007148743	-0.45920270681381	65.000000000000	0.00000000000000
25.969999313354	0.091272547841072	-0.45770081877708	65.000000000000	0.00000000000000
25.979999542236	0.089971289038658	-0.45619228482246	65.000000000000	0.00000000000000
25.989999771118	0.088674940168858	-0.45467698574066	65.000000000000	0.00000000000000
26.000000000000	0.087383858859539	-0.45315507054329	65.000000000000	0.00000000000000
26.010000228882	0.086097992956638	-0.45162642002106	65.000000000000	0.00000000000000
26.020000457764	0.084817498922348	-0.45009118318558	65.000000000000	0.00000000000000
26.030000686646	0.083542190492153	-0.44854933023453	65.000000000000	0.00000000000000
26.040000915527	0.082272231578827	-0.44700092077255	65.000000000000	0.00000000000000
26.049999237061	0.081007756292820	-0.44544589519501	65.000000000000	0.00000000000000
26.059999465942	0.079748719930649	-0.44388440251350	65.000000000000	0.00000000000000
26.069999694824	0.078495152294636	-0.44231638312340	65.000000000000	0.00000000000000
26.079999923706	0.077247194945812	-0.44074186682701	65.000000000000	0.00000000000000
26.090000152588	0.076004795730114	-0.43916094303131	65.000000000000	0.00000000000000
26.100000381470	0.074768207967281	-0.43757361173630	65.000000000000	0.00000000000000
26.110000610352	0.073537260293961	-0.43597984313965	65.000000000000	0.00000000000000
26.120000839233	0.072311997413635	-0.43437975645065	65.000000000000	0.00000000000000
26.129999160767	0.071092657744884	-0.43277335166931	65.000000000000	0.00000000000000
26.139999389648	0.069878987967968	-0.43116062879562	65.000000000000	0.00000000000000
26.149999618530	0.068671435117722	-0.42954161763191	65.000000000000	0.00000000000000
26.159999847412	0.067469730973244	-0.42791637778282	65.000000000000	0.00000000000000
26.170000076294	0.066274009644985	-0.42628493905067	65.000000000000	0.00000000000000
26.180000305176	0.065084427595139	-0.42464730143547	65.000000000000	0.00000000000000
26.190000534058	0.063900820910931	-0.42300355434418	65.000000000000	0.00000000000000
26.200000762939	0.062723428010941	-0.42135369777679	65.000000000000	0.00000000000000
26.209999084473	0.061552185565233	-0.41969776153564	65.000000000000	0.00000000000000
26.219999313354	0.060387242585421	-0.41803577542305	65.000000000000	0.00000000000000
26.229999542236	0.059228431433439	-0.41636782884598	65.000000000000	0.00000000000000
26.239999771118	0.058076087385416	-0.41469386219978	65.000000000000	0.00000000000000
26.250000000000	0.056930053979158	-0.41301393508911	65.000000000000	0.00000000000000
26.260000228882	0.055790480226278	-0.41132819652557	65.000000000000	0.00000000000000
26.270000457764	0.054657287895679	-0.40963652729988	65.000000000000	0.00000000000000
26.280000686646	0.053530625998974	-0.40793904662132	65.000000000000	0.00000000000000
26.290000915527	0.052410528063774	-0.40623578429222	65.000000000000	0.00000000000000
26.299999237061	0.051296941936016	-0.40452679991722	65.000000000000	0.00000000000000
26.309999465942	0.050190180540085	-0.40281203389168	65.000000000000	0.00000000000000
26.319999694824	0.049089904874563	-0.40109163522720	65.000000000000	0.00000000000000
26.329999923706	0.047996450215578	-0.39936563372612	65.000000000000	0.00000000000000
26.340000152588	0.046909742057323	-0.39763393998146	65.000000000000	0.00000000000000
26.350000381470	0.045829728245735	-0.39589679241180	65.000000000000	0.00000000000000
26.360000610352	0.044756632298231	-0.39415407180786	65.000000000000	0.00000000000000
26.370000839233	0.043690498918295	-0.39240589737892	65.000000000000	0.00000000000000
26.379999160767	0.042631167918444	-0.39065226912498	65.000000000000	0.00000000000000
26.389999389648	0.041578955948353	-0.38889324665070	65.000000000000	0.00000000000000
26.399999618530	0.040533620864153	-0.38712888956070	65.000000000000	0.00000000000000
26.409999847412	0.039495475590229	-0.38535916805267	65.000000000000	0.00000000000000
26.420000076294	0.038464281708002	-0.38358426094055	65.000000000000	0.00000000000000
26.430000305176	0.037440251559019	-0.38180407881737	65.000000000000	0.00000000000000
26.440000534058	0.036423329263926	-0.38001871109009	65.000000000000	0.00000000000000
26.450000762939	0.035413645207882	-0.37822821736336	65.000000000000	0.00000000000000
26.459999084473	0.034411322325468	-0.37643262743950	65.000000000000	0.00000000000000
26.469999313354	0.033416118472815	-0.37463197112083	65.000000000000	0.00000000000000
26.479999542236	0.032428249716759	-0.37282630801201	65.000000000000	0.00000000000000
26.489999771118	0.031447838991880	-0.37101569771767	65.000000000000	0.00000000000000
26.500000000000	0.030474647879601	-0.36920017004013	65.000000000000	0.00000000000000
26.510000228882	0.029508987441659	-0.36737981438637	65.000000000000	0.00000000000000
26.520000457764	0.028550781309605	-0.36555457115173	65.000000000000	0.00000000000000
26.530000686646	0.027600079774857	-0.36372455954552	65.000000000000	0.00000000000000
26.540000915527	0.026656903326511	-0.36188983917236	65.000000000000	0.00000000000000
26.549999237061	0.025721291080117	-0.36005041003227	65.000000000000	0.00000000000000
26.559999465942	0.024793265387416	-0.35820633172989	65.000000000000	0.00000000000000
26.569999694824	0.023872859776020	-0.35635769367218	65.000000000000	0.00000000000000
26.579999923706	0.022960109636188	-0.35450449585915	65.000000000000	0.00000000000000
26.590000152588	0.022055126726627	-0.35264682769775	65.000000000000	0.00000000000000
26.600000381470	0.021157853305340	-0.35078465938568	65.000000000000	0.00000000000000
26.610000610352	0.020268239080906	-0.34891813993454	65.000000000000	0.00000000000000
26.620000839233	0.019386561587453	-0.34704723954201	65.000000000000	0.00000000000000
26.629999160767	0.018512601032853	-0.34517204761505	65.000000000000	0.00000000000000
26.639999389648	0.017646469175816	-0.34329259395599	65.000000000000	0.00000000000000
26.649999618530	0.016788275912404	-0.34140896797180	65.000000000000	0.00000000000000
26.659999847412	0.015937970951200	-0.33952116966248	65.000000000000	0.00000000000000
26.670000076294	0.015095657669008	-0.33762928843498	65.000000000000	0.00000000000000
26.680000305176	0.014261282980442	-0.33573335409164	65.000000000000	0.00000000000000
26.690000534058	0.013434958644211	-0.33383336663246	65.000000000000	0.00000000000000
26.700000762939	0.012616549618542	-0.33192950487137	65.000000000000	0.00000000000000
26.709999084473	0.011806240305305	-0.33002167940140	65.000000000000	0.00000000000000
26.719999313354	0.011004057712853	-0.32811000943184	65.000000000000	0.00000000000000
26.729999542236	0.010209873318672	-0.32619461417198	65.000000000000	0.00000000000000
26.739999771118	0.0094239423051476	-0.32427537441254	65.000000000000	0.00000000000000
26.750000000000	0.0086461370810866	-0.32235249876976	65.000000000000	0.00000000000000
26.760000228882	0.0078764827921987	-0.32042595744133	65.000000000000	0.00000000000000
26.770000457764	0.0071150050498545	-0.31849586963654	65.000000000000	0.00000000000000
26.780000686646	0.0063618035055697	-0.31656220555305	65.000000000000	0.00000000000000
26.790000915527	0.0056168274022639	-0.31462508440018	65.000000000000	0.00000000000000
26.799999237061	0.0048801749944687	-0.31268450617790	65.000000000000	0.00000000000000
26.809999465942	0.0041517950594425	-0.31074059009552	65.000000000000	0.00000000000000
26.819999694824	0.0034317120444030	-0.30879330635071	65.000000000000	0.00000000000000
26.829999923706	0.0027200221084058	-0.30684277415276	65.000000000000	0.00000000000000
26.840000152588	0.0020166747272015	-0.30488902330399	65.000000000000	0.00000000000000
26.850000381470	0.0013216927181929	-0.30293208360672	65.000000000000	0.00000000000000
26.860000610352	0.00063509872416034	-0.30097207427025	65.000000000000	0.00000000000000
26.870000839233	-4.3013584217988e-05	-0.29900896549225	65.000000000000	0.00000000000000
26.879999160767	-0.00071269448380917	-0.29704287648201	65.000000000000	0.00000000000000
26.889999389648	-0.0013739221030846	-0.29507383704185	65.000000000000	0.00000000000000
26.899999618530	-0.0020266750361770	-0.29310190677643	65.000000000000	0.00000000000000
26.909999847412	-0.0026709325611591	-0.29112714529037	65.000000000000	0.00000000000000
26.920000076294	-0.0033066039904952	-0.28914958238602	65.000000000000	0.00000000000000
26.930000305176	-0.0039338083006442	-0.28716930747032	65.000000000000	0.00000000000000
26.940000534058	-0.0045524551533163	-0.28518635034561	65.000000000000	0.00000000000000
26.950000762939	-0.0051624574698508	-0.28320074081421	65.000000000000	0.00000000000000
26.959999084473	-0.0057639987207949	-0.28121262788773	65.000000000000	0.00000000000000
26.969999313354	-0.0063569229096174	-0.27922195196152	65.000000000000	0.00000000000000
26.979999542236	-0.0069411452859640	-0.27722886204720	65.000000000000	0.00000000000000
26.989999771118	-0.0075168451294303	-0.27523335814476	65.000000000000	0.00000000000000
27.000000000000	-0.0080838724970818	-0.27323549985886	65.000000000000	0.00000000000000
27.010000228882	-0.0086422068998218	-0.27123534679413	65.000000000000	0.00000000000000
27.020000457764	-0.0091918986290693	-0.26923298835754	65.000000000000	0.00000000000000
27.030000686646	-0.0097328610718250	-0.26722845435143	65.000000000000	0.00000000000000
27.040000915527	-0.010265270248055	-0.26522177457809	65.000000000000	0.00000000000000
27.049999237061	-0.010788914747536	-0.26321300864220	65.000000000000	0.00000000000000
27.059999465942	-0.011303780600429	-0.26120230555534	65.000000000000	0.00000000000000
27.069999694824	-0.011809973046184	-0.25918960571289	65.000000000000	0.00000000000000
27.079999923706	-0.012307475320995	-0.25717499852180	65.000000000000	0.00000000000000
27.090000152588	-0.012796145863831	-0.25515854358673	65.000000000000	0.00000000000000
27.100000381470	-0.013276151381433	-0.25314030051231	65.000000000000	0.00000000000000
27.110000610352	-0.013747413642704	-0.25112035870552	65.000000000000	0.00000000000000
27.120000839233	-0.014209855347872	-0.24909873306751	65.000000000000	0.00000000000000
27.129999160767	-0.014663519337773	-0.24707546830177	65.000000000000	0.00000000000000
27.139999389648	-0.015108391642570	-0.24505063891411	65.000000000000	0.00000000000000
27.149999618530	-0.015544511377811	-0.24302431941032	65.000000000000	0.00000000000000
27.159999847412	-0.015971861779690	-0.24099655449390	65.000000000000	0.00000000000000
27.170000076294	-0.016390370205045	-0.23896738886833	65.000000000000	0.00000000000000
27.180000305176	-0.016800073906779	-0.23693686723709	65.000000000000	0.00000000000000
27.190000534058	-0.017201015725732	-0.23490507900715	65.000000000000	0.00000000000000
27.200000762939	-0.017593123018742	-0.23287206888199	65.000000000000	0.00000000000000
27.209999084473	-0.017976379022002	-0.23083786666393	65.000000000000	0.00000000000000
27.219999313354	-0.018350878730416	-0.22880257666111	65.000000000000	0.00000000000000
27.229999542236	-0.018716495484114	-0.22676619887352	65.000000000000	0.00000000000000
27.239999771118	-0.019073318690062	-0.22472882270813	65.000000000000	0.00000000000000
27.250000000000	-0.019421333447099	-0.22269050776958	65.000000000000	0.00000000000000
27.260000228882	-0.019760524854064	-0.22065129876137	65.000000000000	0.00000000000000
27.270000457764	-0.020090820267797	-0.21861125528812	65.000000000000	0.00000000000000
27.280000686646	-0.020412310957909	-0.21657042205334	65.000000000000	0.00000000000000
27.290000915527	-0.020725032314658	-0.21452887356281	65.000000000000	0.00000000000000
27.299999237061	-0.021028907969594	-0.21248665452003	65.000000000000	0.00000000000000
