#Parameters = {d=0.253391959799; l2=5.06783919598; lambda=10.13567839196; r=0.034147100502513}
#"Frequency / GHz"	"S1,1 (lambda=10.1357) [Re]"	"S1,1 (lambda=10.1357) [Im]"	"Ref.Imp. [Re]"	"Ref.Imp. [Im]"
#-----------------------------------------------------------------------------------------------------------
25.000000000000	0.010984591208398	-0.32594746351242	65.000000000000	0.00000000000000
25.010000228882	0.010134116746485	-0.32390514016151	65.000000000000	0.00000000000000
25.020000457764	0.0092929499223828	-0.32185840606689	65.000000000000	0.00000000000000
25.030000686646	0.0084611251950264	-0.31980723142624	65.000000000000	0.00000000000000
25.040000915527	0.0076384483836591	-0.31775179505348	65.000000000000	0.00000000000000
25.049999237061	0.0068252547644079	-0.31569203734398	65.000000000000	0.00000000000000
25.059999465942	0.0060213524848223	-0.31362813711166	65.000000000000	0.00000000000000
25.069999694824	0.0052269240841269	-0.31156006455421	65.000000000000	0.00000000000000
25.079999923706	0.0044419271871448	-0.30948793888092	65.000000000000	0.00000000000000
25.090000152588	0.0036664744839072	-0.30741181969643	65.000000000000	0.00000000000000
25.100000381470	0.0029005098622292	-0.30533179640770	65.000000000000	0.00000000000000
25.110000610352	0.0021439264528453	-0.30324789881706	65.000000000000	0.00000000000000
25.120000839233	0.0013970460277051	-0.30116021633148	65.000000000000	0.00000000000000
25.129999160767	0.00065989641007036	-0.29906877875328	65.000000000000	0.00000000000000
25.139999389648	-6.7919965658803e-05	-0.29697370529175	65.000000000000	0.00000000000000
25.149999618530	-0.00078608607873321	-0.29487502574921	65.000000000000	0.00000000000000
25.159999847412	-0.0014942932175472	-0.29277282953262	65.000000000000	0.00000000000000
25.170000076294	-0.0021930728107691	-0.29066714644432	65.000000000000	0.00000000000000
25.180000305176	-0.0028819777071476	-0.28855812549591	65.000000000000	0.00000000000000
25.190000534058	-0.0035611183848232	-0.28644573688507	65.000000000000	0.00000000000000
25.200000762939	-0.0042306035757065	-0.28433012962341	65.000000000000	0.00000000000000
25.209999084473	-0.0048901340924203	-0.28221136331558	65.000000000000	0.00000000000000
25.219999313354	-0.0055400854907930	-0.28008943796158	65.000000000000	0.00000000000000
25.229999542236	-0.0061800288967788	-0.27796450257301	65.000000000000	0.00000000000000
25.239999771118	-0.0068100714124739	-0.27583658695221	65.000000000000	0.00000000000000
25.250000000000	-0.0074301892891526	-0.27370578050613	65.000000000000	0.00000000000000
25.260000228882	-0.0080406153574586	-0.27157211303711	65.000000000000	0.00000000000000
25.270000457764	-0.0086409328505397	-0.26943570375443	65.000000000000	0.00000000000000
25.280000686646	-0.0092313755303621	-0.26729655265808	65.000000000000	0.00000000000000
25.290000915527	-0.0098119182512164	-0.26515483856201	65.000000000000	0.00000000000000
25.299999237061	-0.010382533073425	-0.26301059126854	65.000000000000	0.00000000000000
25.309999465942	-0.010942945256829	-0.26086378097534	65.000000000000	0.00000000000000
25.319999694824	-0.011493504978716	-0.25871461629868	65.000000000000	0.00000000000000
25.329999923706	-0.012034065090120	-0.25656312704086	65.000000000000	0.00000000000000
25.340000152588	-0.012564473785460	-0.25440934300423	65.000000000000	0.00000000000000
25.350000381470	-0.013084835372865	-0.25225335359573	65.000000000000	0.00000000000000
25.360000610352	-0.013595363125205	-0.25009527802467	65.000000000000	0.00000000000000
25.370000839233	-0.014095553196967	-0.24793510138988	65.000000000000	0.00000000000000
25.379999160767	-0.014585741795599	-0.24577294290066	65.000000000000	0.00000000000000
25.389999389648	-0.015065903775394	-0.24360886216164	65.000000000000	0.00000000000000
25.399999618530	-0.015536013990641	-0.24144297838211	65.000000000000	0.00000000000000
25.409999847412	-0.015995819121599	-0.23927530646324	65.000000000000	0.00000000000000
25.420000076294	-0.016445640474558	-0.23710592091084	65.000000000000	0.00000000000000
25.430000305176	-0.016885340213776	-0.23493491113186	65.000000000000	0.00000000000000
25.440000534058	-0.017314892262220	-0.23276233673096	65.000000000000	0.00000000000000
25.450000762939	-0.017734276130795	-0.23058825731277	65.000000000000	0.00000000000000
25.459999084473	-0.018143579363823	-0.22841279208660	65.000000000000	0.00000000000000
25.469999313354	-0.018542667850852	-0.22623597085476	65.000000000000	0.00000000000000
25.479999542236	-0.018931521102786	-0.22405785322189	65.000000000000	0.00000000000000
25.489999771118	-0.019310221076012	-0.22187857329845	65.000000000000	0.00000000000000
25.500000000000	-0.019678853452206	-0.21969811618328	65.000000000000	0.00000000000000
25.510000228882	-0.020037390291691	-0.21751661598682	65.000000000000	0.00000000000000
25.520000457764	-0.020385701209307	-0.21533411741257	65.000000000000	0.00000000000000
25.530000686646	-0.020723767578602	-0.21315069496632	65.000000000000	0.00000000000000
25.540000915527	-0.021051667630672	-0.21096643805504	65.000000000000	0.00000000000000
25.549999237061	-0.021369572728872	-0.20878134667873	65.000000000000	0.00000000000000
25.559999465942	-0.021677061915398	-0.20659559965134	65.000000000000	0.00000000000000
25.569999694824	-0.021974505856633	-0.20440918207169	65.000000000000	0.00000000000000
25.579999923706	-0.022261781617999	-0.20222219824791	65.000000000000	0.00000000000000
25.590000152588	-0.022538958117366	-0.20003473758698	65.000000000000	0.00000000000000
25.600000381470	-0.022805912420154	-0.19784681499004	65.000000000000	0.00000000000000
25.610000610352	-0.023062713444233	-0.19565853476524	65.000000000000	0.00000000000000
25.620000839233	-0.023309426382184	-0.19346997141838	65.000000000000	0.00000000000000
25.629999160767	-0.023545926436782	-0.19128118455410	65.000000000000	0.00000000000000
25.639999389648	-0.023772284388542	-0.18909221887589	65.000000000000	0.00000000000000
25.649999618530	-0.023988556116819	-0.18690320849419	65.000000000000	0.00000000000000
25.659999847412	-0.024194624274969	-0.18471416831017	65.000000000000	0.00000000000000
25.670000076294	-0.024390630424023	-0.18252517282963	65.000000000000	0.00000000000000
25.680000305176	-0.024576548486948	-0.18033631145954	65.000000000000	0.00000000000000
25.690000534058	-0.024752423167229	-0.17814761400223	65.000000000000	0.00000000000000
25.700000762939	-0.024918140843511	-0.17595919966698	65.000000000000	0.00000000000000
25.709999084473	-0.025073746219277	-0.17377109825611	65.000000000000	0.00000000000000
25.719999313354	-0.025219373404980	-0.17158339917660	65.000000000000	0.00000000000000
25.729999542236	-0.025354893878102	-0.16939614713192	65.000000000000	0.00000000000000
25.739999771118	-0.025480279698968	-0.16720943152905	65.000000000000	0.00000000000000
25.750000000000	-0.025595804676414	-0.16502331197262	65.000000000000	0.00000000000000
25.760000228882	-0.025701265782118	-0.16283783316612	65.000000000000	0.00000000000000
25.770000457764	-0.025796622037888	-0.16065311431885	65.000000000000	0.00000000000000
25.780000686646	-0.025882059708238	-0.15846920013428	65.000000000000	0.00000000000000
25.790000915527	-0.025957606732845	-0.15628612041473	65.000000000000	0.00000000000000
25.799999237061	-0.026023091748357	-0.15410396456718	65.000000000000	0.00000000000000
25.809999465942	-0.026078652590513	-0.15192282199860	65.000000000000	0.00000000000000
25.819999694824	-0.026124270632863	-0.14974272251129	65.000000000000	0.00000000000000
25.829999923706	-0.026159998029470	-0.14756375551224	65.000000000000	0.00000000000000
25.840000152588	-0.026185847818851	-0.14538598060608	65.000000000000	0.00000000000000
25.850000381470	-0.026201849803329	-0.14320942759514	65.000000000000	0.00000000000000
25.860000610352	-0.026207985356450	-0.14103423058987	65.000000000000	0.00000000000000
25.870000839233	-0.026204245164990	-0.13886038959026	65.000000000000	0.00000000000000
25.879999160767	-0.026190688833594	-0.13668800890446	65.000000000000	0.00000000000000
25.889999389648	-0.026167346164584	-0.13451714813709	65.000000000000	0.00000000000000
25.899999618530	-0.026134259998798	-0.13234782218933	65.000000000000	0.00000000000000
25.909999847412	-0.026091404259205	-0.13018015027046	65.000000000000	0.00000000000000
25.920000076294	-0.026038823649287	-0.12801417708397	65.000000000000	0.00000000000000
25.930000305176	-0.025976538658142	-0.12584996223450	65.000000000000	0.00000000000000
25.940000534058	-0.025904539972544	-0.12368756532669	65.000000000000	0.00000000000000
25.950000762939	-0.025822905823588	-0.12152706086636	65.000000000000	0.00000000000000
25.959999084473	-0.025731636211276	-0.11936848610640	65.000000000000	0.00000000000000
25.969999313354	-0.025630727410316	-0.11721191555262	65.000000000000	0.00000000000000
25.979999542236	-0.025520253926516	-0.11505741626024	65.000000000000	0.00000000000000
25.989999771118	-0.025400219485164	-0.11290504038334	65.000000000000	0.00000000000000
26.000000000000	-0.025270618498325	-0.11075485497713	65.000000000000	0.00000000000000
26.010000228882	-0.025131544098258	-0.10860691219568	65.000000000000	0.00000000000000
26.020000457764	-0.024982934817672	-0.10646126419306	65.000000000000	0.00000000000000
26.030000686646	-0.024824908003211	-0.10431799292564	65.000000000000	0.00000000000000
26.040000915527	-0.024657454341650	-0.10217712819576	65.000000000000	0.00000000000000
26.049999237061	-0.024480558931828	-0.10003875941038	65.000000000000	0.00000000000000
26.059999465942	-0.024294326081872	-0.097902916371822	65.000000000000	0.00000000000000
26.069999694824	-0.024098725989461	-0.095769681036472	65.000000000000	0.00000000000000
26.079999923706	-0.023893844336271	-0.093639083206654	65.000000000000	0.00000000000000
26.090000152588	-0.023679658770561	-0.091511197388172	65.000000000000	0.00000000000000
26.100000381470	-0.023456204682589	-0.089386083185673	65.000000000000	0.00000000000000
26.110000610352	-0.023223543539643	-0.087263785302639	65.000000000000	0.00000000000000
26.120000839233	-0.022981654852629	-0.085144363343716	65.000000000000	0.00000000000000
26.129999160767	-0.022730618715286	-0.083027869462967	65.000000000000	0.00000000000000
26.139999389648	-0.022470477968454	-0.080914370715618	65.000000000000	0.00000000000000
26.149999618530	-0.022201228886843	-0.078803911805153	65.000000000000	0.00000000000000
26.159999847412	-0.021922908723354	-0.076696537435055	65.000000000000	0.00000000000000
26.170000076294	-0.021635549142957	-0.074592322111130	65.000000000000	0.00000000000000
26.180000305176	-0.021339181810617	-0.072491303086281	65.000000000000	0.00000000000000
26.190000534058	-0.021033847704530	-0.070393539965153	65.000000000000	0.00000000000000
26.200000762939	-0.020719595253468	-0.068299077451229	65.000000000000	0.00000000000000
26.209999084473	-0.020396435633302	-0.066207982599735	65.000000000000	0.00000000000000
26.219999313354	-0.020064428448677	-0.064120292663574	65.000000000000	0.00000000000000
26.229999542236	-0.019723575562239	-0.062036063522100	65.000000000000	0.00000000000000
26.239999771118	-0.019373942166567	-0.059955347329378	65.000000000000	0.00000000000000
26.250000000000	-0.019015546888113	-0.057878199964762	65.000000000000	0.00000000000000
26.260000228882	-0.018648425117135	-0.055804662406445	65.000000000000	0.00000000000000
26.270000457764	-0.018272632732987	-0.053734786808491	65.000000000000	0.00000000000000
26.280000686646	-0.017888180911541	-0.051668621599674	65.000000000000	0.00000000000000
26.290000915527	-0.017495112493634	-0.049606218934059	65.000000000000	0.00000000000000
26.299999237061	-0.017093485221267	-0.047547623515129	65.000000000000	0.00000000000000
26.309999465942	-0.016683319583535	-0.045492880046368	65.000000000000	0.00000000000000
26.319999694824	-0.016264641657472	-0.043442044407129	65.000000000000	0.00000000000000
26.329999923706	-0.015837511047721	-0.041395157575607	65.000000000000	0.00000000000000
26.340000152588	-0.015401975251734	-0.039352271705866	65.000000000000	0.00000000000000
26.350000381470	-0.014958040788770	-0.037313427776098	65.000000000000	0.00000000000000
26.360000610352	-0.014505766332150	-0.035278674215078	65.000000000000	0.00000000000000
26.370000839233	-0.014045192860067	-0.033248052000999	65.000000000000	0.00000000000000
26.379999160767	-0.013576353900135	-0.031221613287926	65.000000000000	0.00000000000000
26.389999389648	-0.013099292293191	-0.029199393466115	65.000000000000	0.00000000000000
26.399999618530	-0.012614036910236	-0.027181442826986	65.000000000000	0.00000000000000
26.409999847412	-0.012120650149882	-0.025167806074023	65.000000000000	0.00000000000000
26.420000076294	-0.011619156226516	-0.023158524185419	65.000000000000	0.00000000000000
26.430000305176	-0.011109596118331	-0.021153638139367	65.000000000000	0.00000000000000
26.440000534058	-0.010592023842037	-0.019153194501996	65.000000000000	0.00000000000000
26.450000762939	-0.010066466405988	-0.017157230526209	65.000000000000	0.00000000000000
26.459999084473	-0.0095329694449902	-0.015165788121521	65.000000000000	0.00000000000000
26.469999313354	-0.0089915879070759	-0.013178910128772	65.000000000000	0.00000000000000
26.479999542236	-0.0084423441439867	-0.011196636594832	65.000000000000	0.00000000000000
26.489999771118	-0.0078852940350771	-0.0092190075665712	65.000000000000	0.00000000000000
26.500000000000	-0.0073204701766372	-0.0072460630908608	65.000000000000	0.00000000000000
26.510000228882	-0.0067479265853763	-0.0052778399549425	65.000000000000	0.00000000000000
26.520000457764	-0.0061676963232458	-0.0033143809996545	65.000000000000	0.00000000000000
26.530000686646	-0.0055798282846808	-0.0013557218480855	65.000000000000	0.00000000000000
26.540000915527	-0.0049843634478748	0.00059810088714585	65.000000000000	0.00000000000000
26.549999237061	-0.0043813455849886	0.0025470459368080	65.000000000000	0.00000000000000
26.559999465942	-0.0037708166055381	0.0044910805299878	65.000000000000	0.00000000000000
26.569999694824	-0.0031528240069747	0.0064301639795303	65.000000000000	0.00000000000000
26.579999923706	-0.0025274113286287	0.0083642629906535	65.000000000000	0.00000000000000
26.590000152588	-0.0018946196651086	0.010293341241777	65.000000000000	0.00000000000000
26.600000381470	-0.0012544974451885	0.012217363342643	65.000000000000	0.00000000000000
26.610000610352	-0.00060708512319252	0.014136293902993	65.000000000000	0.00000000000000
26.620000839233	4.7567722504027e-05	0.016050100326538	65.000000000000	0.00000000000000
26.629999160767	0.00070942082675174	0.017958747223020	65.000000000000	0.00000000000000
26.639999389648	0.0013784316834062	0.019862202927470	65.000000000000	0.00000000000000
26.649999618530	0.0020545523148030	0.021760430186987	65.000000000000	0.00000000000000
26.659999847412	0.0027377263177186	0.023653402924538	65.000000000000	0.00000000000000
26.670000076294	0.0034279238898307	0.025541083887219	65.000000000000	0.00000000000000
26.680000305176	0.0041250959038734	0.027423443272710	65.000000000000	0.00000000000000
26.690000534058	0.0048291943967342	0.029300449416041	65.000000000000	0.00000000000000
26.700000762939	0.0055401707068086	0.031172072514892	65.000000000000	0.00000000000000
26.709999084473	0.0062579819932580	0.033038280904293	65.000000000000	0.00000000000000
26.719999313354	0.0069825919345021	0.034899041056633	65.000000000000	0.00000000000000
26.729999542236	0.0077139316126704	0.036754336208105	65.000000000000	0.00000000000000
26.739999771118	0.0084519814699888	0.038604125380516	65.000000000000	0.00000000000000
26.750000000000	0.0091966856271029	0.040448378771544	65.000000000000	0.00000000000000
26.760000228882	0.0099479863420129	0.042287074029446	65.000000000000	0.00000000000000
26.770000457764	0.010705831460655	0.044120185077190	65.000000000000	0.00000000000000
26.780000686646	0.011470203287899	0.045947678387165	65.000000000000	0.00000000000000
26.790000915527	0.012241037562490	0.047769535332918	65.000000000000	0.00000000000000
26.799999237061	0.013018297031522	0.049585718661547	65.000000000000	0.00000000000000
26.809999465942	0.013801922090352	0.051396213471889	65.000000000000	0.00000000000000
26.819999694824	0.014591873623431	0.053200986236334	65.000000000000	0.00000000000000
26.829999923706	0.015388112515211	0.055000010877848	65.000000000000	0.00000000000000
26.840000152588	0.016190569847822	0.056793272495270	65.000000000000	0.00000000000000
26.850000381470	0.016999213024974	0.058580737560987	65.000000000000	0.00000000000000
26.860000610352	0.017814012244344	0.060362383723259	65.000000000000	0.00000000000000
26.870000839233	0.018634872511029	0.062138188630342	65.000000000000	0.00000000000000
26.879999160767	0.019461805000901	0.063908137381077	65.000000000000	0.00000000000000
26.889999389648	0.020294709131122	0.065672188997269	65.000000000000	0.00000000000000
26.899999618530	0.021133571863174	0.067430339753628	65.000000000000	0.00000000000000
26.909999847412	0.021978337317705	0.069182559847832	65.000000000000	0.00000000000000
26.920000076294	0.022828953340650	0.070928819477558	65.000000000000	0.00000000000000
26.930000305176	0.023685395717621	0.072669111192226	65.000000000000	0.00000000000000
26.940000534058	0.024547588080168	0.074403412640095	65.000000000000	0.00000000000000
26.950000762939	0.025415478274226	0.076131694018841	65.000000000000	0.00000000000000
26.959999084473	0.026289047673345	0.077853962779045	65.000000000000	0.00000000000000
26.969999313354	0.027168242260814	0.079570151865482	65.000000000000	0.00000000000000
26.979999542236	0.028053013607860	0.081280276179314	65.000000000000	0.00000000000000
26.989999771118	0.028943281620741	0.082984320819378	65.000000000000	0.00000000000000
27.000000000000	0.029839051887393	0.084682248532772	65.000000000000	0.00000000000000
27.010000228882	0.030740227550268	0.086374066770077	65.000000000000	0.00000000000000
27.020000457764	0.031646810472012	0.088059723377228	65.000000000000	0.00000000000000
27.030000686646	0.032558701932430	0.089739218354225	65.000000000000	0.00000000000000
27.040000915527	0.033475920557976	0.091412551701069	65.000000000000	0.00000000000000
27.049999237061	0.034398354589939	0.093079678714275	65.000000000000	0.00000000000000
27.059999465942	0.035325970500708	0.094740629196167	65.000000000000	0.00000000000000
27.069999694824	0.036258764564991	0.096395321190357	65.000000000000	0.00000000000000
27.079999923706	0.037196666002274	0.098043784499168	65.000000000000	0.00000000000000
27.090000152588	0.038139559328556	0.099686011672020	65.000000000000	0.00000000000000
27.100000381470	0.039087519049644	0.10132195055485	65.000000000000	0.00000000000000
27.110000610352	0.040040411055088	0.10295163094997	65.000000000000	0.00000000000000
27.120000839233	0.040998205542564	0.10457499325275	65.000000000000	0.00000000000000
27.129999160767	0.041960887610912	0.10619206726551	65.000000000000	0.00000000000000
27.139999389648	0.042928382754326	0.10780280828476	65.000000000000	0.00000000000000
27.149999618530	0.043900661170483	0.10940723121166	65.000000000000	0.00000000000000
27.159999847412	0.044877618551254	0.11100531369448	65.000000000000	0.00000000000000
27.170000076294	0.045859292149544	0.11259704083204	65.000000000000	0.00000000000000
27.180000305176	0.046845585107803	0.11418239027262	65.000000000000	0.00000000000000
27.190000534058	0.047836482524872	0.11576136946678	65.000000000000	0.00000000000000
27.200000762939	0.048831921070814	0.11733395606279	65.000000000000	0.00000000000000
27.209999084473	0.049831848591566	0.11890015751123	65.000000000000	0.00000000000000
27.219999313354	0.050836179405451	0.12045995891094	65.000000000000	0.00000000000000
27.229999542236	0.051844950765371	0.12201333791018	65.000000000000	0.00000000000000
27.239999771118	0.052858039736748	0.12356028705835	65.000000000000	0.00000000000000
27.250000000000	0.053875491023064	0.12510080635548	65.000000000000	0.00000000000000
27.260000228882	0.054897163063288	0.12663488090038	65.000000000000	0.00000000000000
27.270000457764	0.055923063308001	0.12816251814365	65.000000000000	0.00000000000000
