#Parameters = {d=0.2036432160804; l2=4.072864321608; lambda=8.1457286432161; r=0.027442959798995}
#"Frequency / GHz"	"S1,1 (lambda=8.14573) [Re]"	"S1,1 (lambda=8.14573) [Im]"	"Ref.Imp. [Re]"	"Ref.Imp. [Im]"
#-----------------------------------------------------------------------------------------------------------
25.000000000000	0.68289721012115	-0.57992213964462	65.000000000000	0.00000000000000
25.010000228882	0.68216556310654	-0.58027940988541	65.000000000000	0.00000000000000
25.020000457764	0.68143177032471	-0.58063626289368	65.000000000000	0.00000000000000
25.030000686646	0.68069618940353	-0.58099257946014	65.000000000000	0.00000000000000
25.040000915527	0.67995846271515	-0.58134853839874	65.000000000000	0.00000000000000
25.049999237061	0.67921888828278	-0.58170390129089	65.000000000000	0.00000000000000
25.059999465942	0.67847728729248	-0.58205872774124	65.000000000000	0.00000000000000
25.069999694824	0.67773377895355	-0.58241313695908	65.000000000000	0.00000000000000
25.079999923706	0.67698830366135	-0.58276700973511	65.000000000000	0.00000000000000
25.090000152588	0.67624080181122	-0.58312034606934	65.000000000000	0.00000000000000
25.100000381470	0.67549139261246	-0.58347314596176	65.000000000000	0.00000000000000
25.110000610352	0.67473995685577	-0.58382546901703	65.000000000000	0.00000000000000
25.120000839233	0.67398655414581	-0.58417713642120	65.000000000000	0.00000000000000
25.129999160767	0.67323106527328	-0.58452826738358	65.000000000000	0.00000000000000
25.139999389648	0.67247354984283	-0.58487886190414	65.000000000000	0.00000000000000
25.149999618530	0.67171418666840	-0.58522874116898	65.000000000000	0.00000000000000
25.159999847412	0.67095267772675	-0.58557814359665	65.000000000000	0.00000000000000
25.170000076294	0.67018920183182	-0.58592689037323	65.000000000000	0.00000000000000
25.180000305176	0.66942369937897	-0.58627498149872	65.000000000000	0.00000000000000
25.190000534058	0.66865622997284	-0.58662241697311	65.000000000000	0.00000000000000
25.200000762939	0.66788667440414	-0.58696931600571	65.000000000000	0.00000000000000
25.209999084473	0.66711497306824	-0.58731538057327	65.000000000000	0.00000000000000
25.219999313354	0.66634142398834	-0.58766090869904	65.000000000000	0.00000000000000
25.229999542236	0.66556572914124	-0.58800572156906	65.000000000000	0.00000000000000
25.239999771118	0.66478812694550	-0.58834987878799	65.000000000000	0.00000000000000
25.250000000000	0.66400837898254	-0.58869332075119	65.000000000000	0.00000000000000
25.260000228882	0.66322672367096	-0.58903598785400	65.000000000000	0.00000000000000
25.270000457764	0.66244286298752	-0.58937793970108	65.000000000000	0.00000000000000
25.280000686646	0.66165703535080	-0.58971911668777	65.000000000000	0.00000000000000
25.290000915527	0.66086924076080	-0.59005969762802	65.000000000000	0.00000000000000
25.299999237061	0.66007924079895	-0.59039938449860	65.000000000000	0.00000000000000
25.309999465942	0.65928709506989	-0.59073835611343	65.000000000000	0.00000000000000
25.319999694824	0.65849316120148	-0.59107667207718	65.000000000000	0.00000000000000
25.329999923706	0.65769690275192	-0.59141397476196	65.000000000000	0.00000000000000
25.340000152588	0.65689879655838	-0.59175062179565	65.000000000000	0.00000000000000
25.350000381470	0.65609848499298	-0.59208637475967	65.000000000000	0.00000000000000
25.360000610352	0.65529614686966	-0.59242141246796	65.000000000000	0.00000000000000
25.370000839233	0.65449178218842	-0.59275555610657	65.000000000000	0.00000000000000
25.379999160767	0.65368539094925	-0.59308886528015	65.000000000000	0.00000000000000
25.389999389648	0.65287679433823	-0.59342133998871	65.000000000000	0.00000000000000
25.399999618530	0.65206623077393	-0.59375286102295	65.000000000000	0.00000000000000
25.409999847412	0.65125358104706	-0.59408360719681	65.000000000000	0.00000000000000
25.420000076294	0.65043884515762	-0.59441345930099	65.000000000000	0.00000000000000
25.430000305176	0.64962202310562	-0.59474229812622	65.000000000000	0.00000000000000
25.440000534058	0.64880305528641	-0.59507036209106	65.000000000000	0.00000000000000
25.450000762939	0.64798206090927	-0.59539765119553	65.000000000000	0.00000000000000
25.459999084473	0.64715909957886	-0.59572368860245	65.000000000000	0.00000000000000
25.469999313354	0.64633387327194	-0.59604901075363	65.000000000000	0.00000000000000
25.479999542236	0.64550668001175	-0.59637326002121	65.000000000000	0.00000000000000
25.489999771118	0.64467751979828	-0.59669643640518	65.000000000000	0.00000000000000
25.500000000000	0.64384609460831	-0.59701883792877	65.000000000000	0.00000000000000
25.510000228882	0.64301264286041	-0.59734016656876	65.000000000000	0.00000000000000
25.520000457764	0.64217692613602	-0.59766060113907	65.000000000000	0.00000000000000
25.530000686646	0.64133936166763	-0.59798008203506	65.000000000000	0.00000000000000
25.540000915527	0.64049941301346	-0.59829860925674	65.000000000000	0.00000000000000
25.549999237061	0.63965785503387	-0.59861570596695	65.000000000000	0.00000000000000
25.559999465942	0.63881361484528	-0.59893226623535	65.000000000000	0.00000000000000
25.569999694824	0.63796776533127	-0.59924739599228	65.000000000000	0.00000000000000
25.579999923706	0.63711959123611	-0.59956169128418	65.000000000000	0.00000000000000
25.590000152588	0.63626950979233	-0.59987473487854	65.000000000000	0.00000000000000
25.600000381470	0.63541716337204	-0.60018694400787	65.000000000000	0.00000000000000
25.610000610352	0.63456279039383	-0.60049796104431	65.000000000000	0.00000000000000
25.620000839233	0.63370639085770	-0.60080778598785	65.000000000000	0.00000000000000
25.629999160767	0.63284778594971	-0.60111665725708	65.000000000000	0.00000000000000
25.639999389648	0.63198715448380	-0.60142433643341	65.000000000000	0.00000000000000
25.649999618530	0.63112455606461	-0.60173082351685	65.000000000000	0.00000000000000
25.659999847412	0.63025969266891	-0.60203623771667	65.000000000000	0.00000000000000
25.670000076294	0.62939244508743	-0.60234075784683	65.000000000000	0.00000000000000
25.680000305176	0.62852334976196	-0.60264408588409	65.000000000000	0.00000000000000
25.690000534058	0.62765252590179	-0.60294580459595	65.000000000000	0.00000000000000
25.700000762939	0.62677943706512	-0.60324651002884	65.000000000000	0.00000000000000
25.709999084473	0.62590402364731	-0.60354626178741	65.000000000000	0.00000000000000
25.719999313354	0.62502634525299	-0.60384500026703	65.000000000000	0.00000000000000
25.729999542236	0.62414699792862	-0.60414212942123	65.000000000000	0.00000000000000
25.739999771118	0.62326538562775	-0.60443818569183	65.000000000000	0.00000000000000
25.750000000000	0.62238204479218	-0.60473269224167	65.000000000000	0.00000000000000
25.760000228882	0.62149620056152	-0.60502642393112	65.000000000000	0.00000000000000
25.770000457764	0.62060827016830	-0.60531878471375	65.000000000000	0.00000000000000
25.780000686646	0.61971843242645	-0.60560977458954	65.000000000000	0.00000000000000
25.790000915527	0.61882615089417	-0.60589975118637	65.000000000000	0.00000000000000
25.799999237061	0.61793202161789	-0.60618835687637	65.000000000000	0.00000000000000
25.809999465942	0.61703580617905	-0.60647565126419	65.000000000000	0.00000000000000
25.819999694824	0.61613744497299	-0.60676175355911	65.000000000000	0.00000000000000
25.829999923706	0.61523705720901	-0.60704642534256	65.000000000000	0.00000000000000
25.840000152588	0.61433458328247	-0.60732984542847	65.000000000000	0.00000000000000
25.850000381470	0.61343002319336	-0.60761195421219	65.000000000000	0.00000000000000
25.860000610352	0.61252331733704	-0.60789269208908	65.000000000000	0.00000000000000
25.870000839233	0.61161458492279	-0.60817211866379	65.000000000000	0.00000000000000
25.879999160767	0.61070382595062	-0.60845023393631	65.000000000000	0.00000000000000
25.889999389648	0.60979086160660	-0.60872697830200	65.000000000000	0.00000000000000
25.899999618530	0.60887581110001	-0.60900235176086	65.000000000000	0.00000000000000
25.909999847412	0.60795879364014	-0.60927635431290	65.000000000000	0.00000000000000
25.920000076294	0.60703951120377	-0.60954898595810	65.000000000000	0.00000000000000
25.930000305176	0.60611820220947	-0.60982012748718	65.000000000000	0.00000000000000
25.940000534058	0.60519498586655	-0.61009001731873	65.000000000000	0.00000000000000
25.950000762939	0.60426950454712	-0.61035853624344	65.000000000000	0.00000000000000
25.959999084473	0.60334205627441	-0.61062544584274	65.000000000000	0.00000000000000
25.969999313354	0.60241240262985	-0.61089104413986	65.000000000000	0.00000000000000
25.979999542236	0.60148066282272	-0.61115515232086	65.000000000000	0.00000000000000
25.989999771118	0.60054689645767	-0.61141788959503	65.000000000000	0.00000000000000
26.000000000000	0.59961116313934	-0.61167913675308	65.000000000000	0.00000000000000
26.010000228882	0.59867316484451	-0.61193889379501	65.000000000000	0.00000000000000
26.020000457764	0.59773319959641	-0.61219716072083	65.000000000000	0.00000000000000
26.030000686646	0.59679120779037	-0.61245399713516	65.000000000000	0.00000000000000
26.040000915527	0.59584701061249	-0.61270934343338	65.000000000000	0.00000000000000
26.049999237061	0.59490072727203	-0.61296314001083	65.000000000000	0.00000000000000
26.059999465942	0.59395241737366	-0.61321550607681	65.000000000000	0.00000000000000
26.069999694824	0.59300196170807	-0.61346626281738	65.000000000000	0.00000000000000
26.079999923706	0.59204959869385	-0.61371546983719	65.000000000000	0.00000000000000
26.090000152588	0.59109503030777	-0.61396324634552	65.000000000000	0.00000000000000
26.100000381470	0.59013837575912	-0.61420947313309	65.000000000000	0.00000000000000
26.110000610352	0.58917981386185	-0.61445403099060	65.000000000000	0.00000000000000
26.120000839233	0.58821904659271	-0.61469709873199	65.000000000000	0.00000000000000
26.129999160767	0.58725607395172	-0.61493861675262	65.000000000000	0.00000000000000
26.139999389648	0.58629131317139	-0.61517846584320	65.000000000000	0.00000000000000
26.149999618530	0.58532428741455	-0.61541676521301	65.000000000000	0.00000000000000
26.159999847412	0.58435517549515	-0.61565345525742	65.000000000000	0.00000000000000
26.170000076294	0.58338421583176	-0.61588853597641	65.000000000000	0.00000000000000
26.180000305176	0.58241099119186	-0.61612200737000	65.000000000000	0.00000000000000
26.190000534058	0.58143579959869	-0.61635380983353	65.000000000000	0.00000000000000
26.200000762939	0.58045840263367	-0.61658400297165	65.000000000000	0.00000000000000
26.209999084473	0.57947909832001	-0.61681252717972	65.000000000000	0.00000000000000
26.219999313354	0.57849758863449	-0.61703950166702	65.000000000000	0.00000000000000
26.229999542236	0.57751411199570	-0.61726462841034	65.000000000000	0.00000000000000
26.239999771118	0.57652848958969	-0.61748820543289	65.000000000000	0.00000000000000
26.250000000000	0.57554090023041	-0.61771011352539	65.000000000000	0.00000000000000
26.260000228882	0.57455116510391	-0.61793023347855	65.000000000000	0.00000000000000
26.270000457764	0.57355952262878	-0.61814874410629	65.000000000000	0.00000000000000
26.280000686646	0.57256573438644	-0.61836540699005	65.000000000000	0.00000000000000
26.290000915527	0.57156985998154	-0.61858046054840	65.000000000000	0.00000000000000
26.299999237061	0.57057183980942	-0.61879378557205	65.000000000000	0.00000000000000
26.309999465942	0.56957197189331	-0.61900526285172	65.000000000000	0.00000000000000
26.319999694824	0.56856983900070	-0.61921507120132	65.000000000000	0.00000000000000
26.329999923706	0.56756573915482	-0.61942309141159	65.000000000000	0.00000000000000
26.340000152588	0.56655961275101	-0.61962938308716	65.000000000000	0.00000000000000
26.350000381470	0.56555145978928	-0.61983388662338	65.000000000000	0.00000000000000
26.360000610352	0.56454104185104	-0.62003654241562	65.000000000000	0.00000000000000
26.370000839233	0.56352877616882	-0.62023746967316	65.000000000000	0.00000000000000
26.379999160767	0.56251430511475	-0.62043654918671	65.000000000000	0.00000000000000
26.389999389648	0.56149804592133	-0.62063378095627	65.000000000000	0.00000000000000
26.399999618530	0.56047952175140	-0.62082922458649	65.000000000000	0.00000000000000
26.409999847412	0.55945903062820	-0.62102282047272	65.000000000000	0.00000000000000
26.420000076294	0.55843633413315	-0.62121462821960	65.000000000000	0.00000000000000
26.430000305176	0.55741178989410	-0.62140452861786	65.000000000000	0.00000000000000
26.440000534058	0.55638504028320	-0.62159252166748	65.000000000000	0.00000000000000
26.450000762939	0.55535638332367	-0.62177872657776	65.000000000000	0.00000000000000
26.459999084473	0.55432558059692	-0.62196296453476	65.000000000000	0.00000000000000
26.469999313354	0.55329269170761	-0.62214541435242	65.000000000000	0.00000000000000
26.479999542236	0.55225777626038	-0.62232583761215	65.000000000000	0.00000000000000
26.489999771118	0.55122095346451	-0.62250435352325	65.000000000000	0.00000000000000
26.500000000000	0.55018198490143	-0.62268102169037	65.000000000000	0.00000000000000
26.510000228882	0.54914098978043	-0.62285578250885	65.000000000000	0.00000000000000
26.520000457764	0.54809796810150	-0.62302845716476	65.000000000000	0.00000000000000
26.530000686646	0.54705297946930	-0.62319928407669	65.000000000000	0.00000000000000
26.540000915527	0.54600578546524	-0.62336808443069	65.000000000000	0.00000000000000
26.549999237061	0.54495656490326	-0.62353497743607	65.000000000000	0.00000000000000
26.559999465942	0.54390537738800	-0.62369990348816	65.000000000000	0.00000000000000
26.569999694824	0.54285222291946	-0.62386280298233	65.000000000000	0.00000000000000
26.579999923706	0.54179692268372	-0.62402361631393	65.000000000000	0.00000000000000
26.590000152588	0.54073965549469	-0.62418252229691	65.000000000000	0.00000000000000
26.600000381470	0.53968030214310	-0.62433934211731	65.000000000000	0.00000000000000
26.610000610352	0.53861892223358	-0.62449407577515	65.000000000000	0.00000000000000
26.620000839233	0.53755551576614	-0.62464690208435	65.000000000000	0.00000000000000
26.629999160767	0.53649008274078	-0.62479758262634	65.000000000000	0.00000000000000
26.639999389648	0.53542262315750	-0.62494617700577	65.000000000000	0.00000000000000
26.649999618530	0.53435307741165	-0.62509274482727	65.000000000000	0.00000000000000
26.659999847412	0.53328156471252	-0.62523722648621	65.000000000000	0.00000000000000
26.670000076294	0.53220796585083	-0.62537956237793	65.000000000000	0.00000000000000
26.680000305176	0.53113245964050	-0.62551981210709	65.000000000000	0.00000000000000
26.690000534058	0.53005486726761	-0.62565791606903	65.000000000000	0.00000000000000
26.700000762939	0.52897530794144	-0.62579387426376	65.000000000000	0.00000000000000
26.709999084473	0.52789372205734	-0.62592780590057	65.000000000000	0.00000000000000
26.719999313354	0.52680999040604	-0.62605953216553	65.000000000000	0.00000000000000
26.729999542236	0.52572441101074	-0.62618905305862	65.000000000000	0.00000000000000
26.739999771118	0.52463668584824	-0.62631642818451	65.000000000000	0.00000000000000
26.750000000000	0.52354687452316	-0.62644159793854	65.000000000000	0.00000000000000
26.760000228882	0.52245521545410	-0.62656462192535	65.000000000000	0.00000000000000
26.770000457764	0.52136152982712	-0.62668538093567	65.000000000000	0.00000000000000
26.780000686646	0.52026563882828	-0.62680393457413	65.000000000000	0.00000000000000
26.790000915527	0.51916801929474	-0.62692028284073	65.000000000000	0.00000000000000
26.799999237061	0.51806807518005	-0.62703436613083	65.000000000000	0.00000000000000
26.809999465942	0.51696628332138	-0.62714624404907	65.000000000000	0.00000000000000
26.819999694824	0.51586246490479	-0.62725585699081	65.000000000000	0.00000000000000
26.829999923706	0.51475673913956	-0.62736314535141	65.000000000000	0.00000000000000
26.840000152588	0.51364898681641	-0.62746816873550	65.000000000000	0.00000000000000
26.850000381470	0.51253920793533	-0.62757086753845	65.000000000000	0.00000000000000
26.860000610352	0.51142734289169	-0.62767130136490	65.000000000000	0.00000000000000
26.870000839233	0.51031357049942	-0.62776935100555	65.000000000000	0.00000000000000
26.879999160767	0.50919771194458	-0.62786513566971	65.000000000000	0.00000000000000
26.889999389648	0.50808000564575	-0.62795853614807	65.000000000000	0.00000000000000
26.899999618530	0.50696009397507	-0.62804955244064	65.000000000000	0.00000000000000
26.909999847412	0.50583833456039	-0.62813830375671	65.000000000000	0.00000000000000
26.920000076294	0.50471448898315	-0.62822467088699	65.000000000000	0.00000000000000
26.930000305176	0.50358891487122	-0.62830853462219	65.000000000000	0.00000000000000
26.940000534058	0.50246107578278	-0.62839001417160	65.000000000000	0.00000000000000
26.950000762939	0.50133138895035	-0.62846916913986	65.000000000000	0.00000000000000
26.959999084473	0.50019961595535	-0.62854582071304	65.000000000000	0.00000000000000
26.969999313354	0.49906599521637	-0.62862008810043	65.000000000000	0.00000000000000
26.979999542236	0.49793034791946	-0.62869185209274	65.000000000000	0.00000000000000
26.989999771118	0.49679273366928	-0.62876123189926	65.000000000000	0.00000000000000
27.000000000000	0.49565315246582	-0.62882810831070	65.000000000000	0.00000000000000
27.010000228882	0.49451148509979	-0.62889242172241	65.000000000000	0.00000000000000
27.020000457764	0.49336796998978	-0.62895429134369	65.000000000000	0.00000000000000
27.030000686646	0.49222251772881	-0.62901365756989	65.000000000000	0.00000000000000
27.040000915527	0.49107494950294	-0.62907046079636	65.000000000000	0.00000000000000
27.049999237061	0.48992547392845	-0.62912476062775	65.000000000000	0.00000000000000
27.059999465942	0.48877418041229	-0.62917649745941	65.000000000000	0.00000000000000
27.069999694824	0.48762083053589	-0.62922567129135	65.000000000000	0.00000000000000
27.079999923706	0.48646551370621	-0.62927228212357	65.000000000000	0.00000000000000
27.090000152588	0.48530817031860	-0.62931632995605	65.000000000000	0.00000000000000
27.100000381470	0.48414906859398	-0.62935769557953	65.000000000000	0.00000000000000
27.110000610352	0.48298785090446	-0.62939655780792	65.000000000000	0.00000000000000
27.120000839233	0.48182490468025	-0.62943267822266	65.000000000000	0.00000000000000
27.129999160767	0.48065990209579	-0.62946623563766	65.000000000000	0.00000000000000
27.139999389648	0.47949284315109	-0.62949705123901	65.000000000000	0.00000000000000
27.149999618530	0.47832387685776	-0.62952536344528	65.000000000000	0.00000000000000
27.159999847412	0.47715324163437	-0.62955081462860	65.000000000000	0.00000000000000
27.170000076294	0.47598034143448	-0.62957376241684	65.000000000000	0.00000000000000
27.180000305176	0.47480577230453	-0.62959384918213	65.000000000000	0.00000000000000
27.190000534058	0.47362932562828	-0.62961125373840	65.000000000000	0.00000000000000
27.200000762939	0.47245070338249	-0.62962597608566	65.000000000000	0.00000000000000
27.209999084473	0.47127038240433	-0.62963789701462	65.000000000000	0.00000000000000
27.219999313354	0.47008803486824	-0.62964713573456	65.000000000000	0.00000000000000
27.229999542236	0.46890383958817	-0.62965351343155	65.000000000000	0.00000000000000
27.239999771118	0.46771764755249	-0.62965714931488	65.000000000000	0.00000000000000
27.250000000000	0.46652981638908	-0.62965798377991	65.000000000000	0.00000000000000
27.260000228882	0.46533983945847	-0.62965601682663	65.000000000000	0.00000000000000
27.270000457764	0.46414804458618	-0.62965118885040	65.000000000000	0.00000000000000
27.280000686646	0.46295443177223	-0.62964355945587	65.000000000000	0.00000000000000
27.290000915527	0.46175885200500	-0.62963306903839	65.000000000000	0.00000000000000
27.299999237061	0.46056142449379	-0.62961965799332	65.000000000000	0.00000000000000
27.309999465942	0.45936223864555	-0.62960338592529	65.000000000000	0.00000000000000
27.319999694824	0.45816090703011	-0.62958425283432	65.000000000000	0.00000000000000
27.329999923706	0.45695802569389	-0.62956219911575	65.000000000000	0.00000000000000
