#Parameters = {d=0.25238693467337; l2=5.0477386934675; lambda=10.095477386935; r=0.034011663316584}
#"Frequency / GHz"	"S1,1 (lambda=10.0955) [Re]"	"S1,1 (lambda=10.0955) [Im]"	"Ref.Imp. [Re]"	"Ref.Imp. [Im]"
#-----------------------------------------------------------------------------------------------------------
25.000000000000	0.019685005769134	-0.34575182199478	65.000000000000	0.00000000000000
25.010000228882	0.018750436604023	-0.34376266598701	65.000000000000	0.00000000000000
25.020000457764	0.017824750393629	-0.34176850318909	65.000000000000	0.00000000000000
25.030000686646	0.016907906159759	-0.33976942300797	65.000000000000	0.00000000000000
25.040000915527	0.015999857336283	-0.33776542544365	65.000000000000	0.00000000000000
25.049999237061	0.015100883319974	-0.33575662970543	65.000000000000	0.00000000000000
25.059999465942	0.014210860244930	-0.33374309539795	65.000000000000	0.00000000000000
25.069999694824	0.013329743407667	-0.33172485232353	65.000000000000	0.00000000000000
25.079999923706	0.012457728385925	-0.32970198988914	65.000000000000	0.00000000000000
25.090000152588	0.011594848707318	-0.32767456769943	65.000000000000	0.00000000000000
25.100000381470	0.010740992613137	-0.32564264535904	65.000000000000	0.00000000000000
25.110000610352	0.0098964096978307	-0.32360622286797	65.000000000000	0.00000000000000
25.120000839233	0.0090608345344663	-0.32156547904015	65.000000000000	0.00000000000000
25.129999160767	0.0082346079871058	-0.31952041387558	65.000000000000	0.00000000000000
25.139999389648	0.0074177607893944	-0.31747108697891	65.000000000000	0.00000000000000
25.149999618530	0.0066100233234465	-0.31541755795479	65.000000000000	0.00000000000000
25.159999847412	0.0058117294684052	-0.31335994601250	65.000000000000	0.00000000000000
25.170000076294	0.0050226119346917	-0.31129825115204	65.000000000000	0.00000000000000
25.180000305176	0.0042430018074811	-0.30923253297806	65.000000000000	0.00000000000000
25.190000534058	0.0034729272592813	-0.30716294050217	65.000000000000	0.00000000000000
25.200000762939	0.0027121254242957	-0.30508944392204	65.000000000000	0.00000000000000
25.209999084473	0.0019606309942901	-0.30301219224930	65.000000000000	0.00000000000000
25.219999313354	0.0012190508423373	-0.30093121528625	65.000000000000	0.00000000000000
25.229999542236	0.00048669404350221	-0.29884651303291	65.000000000000	0.00000000000000
25.239999771118	-0.00023597913968842	-0.29675829410553	65.000000000000	0.00000000000000
25.250000000000	-0.00094922335119918	-0.29466649889946	65.000000000000	0.00000000000000
25.260000228882	-0.0016525881364942	-0.29257124662399	65.000000000000	0.00000000000000
25.270000457764	-0.0023466050624847	-0.29047259688377	65.000000000000	0.00000000000000
25.280000686646	-0.0030306894332170	-0.28837063908577	65.000000000000	0.00000000000000
25.290000915527	-0.0037052303086966	-0.28626543283463	65.000000000000	0.00000000000000
25.299999237061	-0.0043700602836907	-0.28415697813034	65.000000000000	0.00000000000000
25.309999465942	-0.0050252885557711	-0.28204545378685	65.000000000000	0.00000000000000
25.319999694824	-0.0056706178002059	-0.27993085980415	65.000000000000	0.00000000000000
25.329999923706	-0.0063061569817364	-0.27781328558922	65.000000000000	0.00000000000000
25.340000152588	-0.0069320127367973	-0.27569276094437	65.000000000000	0.00000000000000
25.350000381470	-0.0075480262748897	-0.27356943488121	65.000000000000	0.00000000000000
25.360000610352	-0.0081543028354645	-0.27144327759743	65.000000000000	0.00000000000000
25.370000839233	-0.0087505560368299	-0.26931443810463	65.000000000000	0.00000000000000
25.379999160767	-0.0093370229005814	-0.26718294620514	65.000000000000	0.00000000000000
25.389999389648	-0.0099135497584939	-0.26504892110825	65.000000000000	0.00000000000000
25.399999618530	-0.010480362921953	-0.26291236281395	65.000000000000	0.00000000000000
25.409999847412	-0.011037060990930	-0.26077336072922	65.000000000000	0.00000000000000
25.420000076294	-0.011583872139454	-0.25863200426102	65.000000000000	0.00000000000000
25.430000305176	-0.012120894156396	-0.25648838281631	65.000000000000	0.00000000000000
25.440000534058	-0.012647735886276	-0.25434249639511	65.000000000000	0.00000000000000
25.450000762939	-0.013164739124477	-0.25219443440437	65.000000000000	0.00000000000000
25.459999084473	-0.013671876862645	-0.25004431605339	65.000000000000	0.00000000000000
25.469999313354	-0.014168891124427	-0.24789218604565	65.000000000000	0.00000000000000
25.479999542236	-0.014655992388725	-0.24573808908463	65.000000000000	0.00000000000000
25.489999771118	-0.015133040957153	-0.24358212947845	65.000000000000	0.00000000000000
25.500000000000	-0.015600013546646	-0.24142435193062	65.000000000000	0.00000000000000
25.510000228882	-0.016057007014751	-0.23926487565041	65.000000000000	0.00000000000000
25.520000457764	-0.016503991559148	-0.23710367083549	65.000000000000	0.00000000000000
25.530000686646	-0.016940947622061	-0.23494090139866	65.000000000000	0.00000000000000
25.540000915527	-0.017367741093040	-0.23277659714222	65.000000000000	0.00000000000000
25.549999237061	-0.017784573137760	-0.23061086237431	65.000000000000	0.00000000000000
25.559999465942	-0.018191307783127	-0.22844371199608	65.000000000000	0.00000000000000
25.569999694824	-0.018588034436107	-0.22627523541451	65.000000000000	0.00000000000000
25.579999923706	-0.018974615260959	-0.22410553693771	65.000000000000	0.00000000000000
25.590000152588	-0.019351249560714	-0.22193463146687	65.000000000000	0.00000000000000
25.600000381470	-0.019717693328857	-0.21976262331009	65.000000000000	0.00000000000000
25.610000610352	-0.020074039697647	-0.21758957207203	65.000000000000	0.00000000000000
25.620000839233	-0.020420361310244	-0.21541555225849	65.000000000000	0.00000000000000
25.629999160767	-0.020756635814905	-0.21324065327644	65.000000000000	0.00000000000000
25.639999389648	-0.021082738414407	-0.21106491982937	65.000000000000	0.00000000000000
25.649999618530	-0.021398946642876	-0.20888839662075	65.000000000000	0.00000000000000
25.659999847412	-0.021704835817218	-0.20671120285988	65.000000000000	0.00000000000000
25.670000076294	-0.022000780329108	-0.20453335344791	65.000000000000	0.00000000000000
25.680000305176	-0.022286651656032	-0.20235496759415	65.000000000000	0.00000000000000
25.690000534058	-0.022562429308891	-0.20017611980438	65.000000000000	0.00000000000000
25.700000762939	-0.022828083485365	-0.19799682497978	65.000000000000	0.00000000000000
25.709999084473	-0.023083778098226	-0.19581717252731	65.000000000000	0.00000000000000
25.719999313354	-0.023329392075539	-0.19363725185394	65.000000000000	0.00000000000000
25.729999542236	-0.023564988747239	-0.19145712256432	65.000000000000	0.00000000000000
25.739999771118	-0.023790357634425	-0.18927682936192	65.000000000000	0.00000000000000
25.750000000000	-0.024005923420191	-0.18709647655487	65.000000000000	0.00000000000000
25.760000228882	-0.024211298674345	-0.18491610884666	65.000000000000	0.00000000000000
25.770000457764	-0.024406710639596	-0.18273578584194	65.000000000000	0.00000000000000
25.780000686646	-0.024592138826847	-0.18055558204651	65.000000000000	0.00000000000000
25.790000915527	-0.024767462164164	-0.17837561666965	65.000000000000	0.00000000000000
25.799999237061	-0.024932848289609	-0.17619585990906	65.000000000000	0.00000000000000
25.809999465942	-0.025088232010603	-0.17401646077633	65.000000000000	0.00000000000000
25.819999694824	-0.025233656167984	-0.17183744907379	65.000000000000	0.00000000000000
25.829999923706	-0.025369081646204	-0.16965889930725	65.000000000000	0.00000000000000
25.840000152588	-0.025494594126940	-0.16748085618019	65.000000000000	0.00000000000000
25.850000381470	-0.025610115379095	-0.16530340909958	65.000000000000	0.00000000000000
25.860000610352	-0.025715759024024	-0.16312661767006	65.000000000000	0.00000000000000
25.870000839233	-0.025811480358243	-0.16095055639744	65.000000000000	0.00000000000000
25.879999160767	-0.025897234678268	-0.15877528488636	65.000000000000	0.00000000000000
25.889999389648	-0.025973128154874	-0.15660086274147	65.000000000000	0.00000000000000
25.899999618530	-0.026039190590382	-0.15442736446857	65.000000000000	0.00000000000000
25.909999847412	-0.026095364242792	-0.15225484967232	65.000000000000	0.00000000000000
25.920000076294	-0.026141742244363	-0.15008337795734	65.000000000000	0.00000000000000
25.930000305176	-0.026178268715739	-0.14791300892830	65.000000000000	0.00000000000000
25.940000534058	-0.026204988360405	-0.14574381709099	65.000000000000	0.00000000000000
25.950000762939	-0.026221951469779	-0.14357587695122	65.000000000000	0.00000000000000
25.959999084473	-0.026229087263346	-0.14140923321247	65.000000000000	0.00000000000000
25.969999313354	-0.026226501911879	-0.13924396038055	65.000000000000	0.00000000000000
25.979999542236	-0.026214184239507	-0.13708008825779	65.000000000000	0.00000000000000
25.989999771118	-0.026192164048553	-0.13491773605347	65.000000000000	0.00000000000000
26.000000000000	-0.026160486042500	-0.13275691866875	65.000000000000	0.00000000000000
26.010000228882	-0.026119103655219	-0.13059771060944	65.000000000000	0.00000000000000
26.020000457764	-0.026068050414324	-0.12844020128250	65.000000000000	0.00000000000000
26.030000686646	-0.026007419452071	-0.12628442049026	65.000000000000	0.00000000000000
26.040000915527	-0.025937177240849	-0.12413042038679	65.000000000000	0.00000000000000
26.049999237061	-0.025857333093882	-0.12197829037905	65.000000000000	0.00000000000000
26.059999465942	-0.025767931714654	-0.11982808262110	65.000000000000	0.00000000000000
26.069999694824	-0.025668997317553	-0.11767984926701	65.000000000000	0.00000000000000
26.079999923706	-0.025560578331351	-0.11553364992142	65.000000000000	0.00000000000000
26.090000152588	-0.025442656129599	-0.11338955163956	65.000000000000	0.00000000000000
26.100000381470	-0.025315308943391	-0.11124762147665	65.000000000000	0.00000000000000
26.110000610352	-0.025178497657180	-0.10910788923502	65.000000000000	0.00000000000000
26.120000839233	-0.025032280012965	-0.10697043687105	65.000000000000	0.00000000000000
26.129999160767	-0.024876693263650	-0.10483531653881	65.000000000000	0.00000000000000
26.139999389648	-0.024711742997169	-0.10270258784294	65.000000000000	0.00000000000000
26.149999618530	-0.024537486955523	-0.10057231783867	65.000000000000	0.00000000000000
26.159999847412	-0.024353915825486	-0.098444536328316	65.000000000000	0.00000000000000
26.170000076294	-0.024161102250218	-0.096319310367107	65.000000000000	0.00000000000000
26.180000305176	-0.023958984762430	-0.094196721911430	65.000000000000	0.00000000000000
26.190000534058	-0.023747703060508	-0.092076793313026	65.000000000000	0.00000000000000
26.200000762939	-0.023527259007096	-0.089959584176540	65.000000000000	0.00000000000000
26.209999084473	-0.023297637701035	-0.087845169007778	65.000000000000	0.00000000000000
26.219999313354	-0.023058896884322	-0.085733592510223	65.000000000000	0.00000000000000
26.229999542236	-0.022811062633991	-0.083624906837940	65.000000000000	0.00000000000000
26.239999771118	-0.022554174065590	-0.081519171595573	65.000000000000	0.00000000000000
26.250000000000	-0.022288266569376	-0.079416424036026	65.000000000000	0.00000000000000
26.260000228882	-0.022013356909156	-0.077316753566265	65.000000000000	0.00000000000000
26.270000457764	-0.021729474887252	-0.075220175087452	65.000000000000	0.00000000000000
26.280000686646	-0.021436672657728	-0.073126755654812	65.000000000000	0.00000000000000
26.290000915527	-0.021134948357940	-0.071036539971828	65.000000000000	0.00000000000000
26.299999237061	-0.020824382081628	-0.068949602544308	65.000000000000	0.00000000000000
26.309999465942	-0.020504986867309	-0.066865965723991	65.000000000000	0.00000000000000
26.319999694824	-0.020176790654659	-0.064785711467266	65.000000000000	0.00000000000000
26.329999923706	-0.019839836284518	-0.062708862125874	65.000000000000	0.00000000000000
26.340000152588	-0.019494153559208	-0.060635473579168	65.000000000000	0.00000000000000
26.350000381470	-0.019139772281051	-0.058565616607666	65.000000000000	0.00000000000000
26.360000610352	-0.018776735290885	-0.056499313563108	65.000000000000	0.00000000000000
26.370000839233	-0.018405079841614	-0.054436631500721	65.000000000000	0.00000000000000
26.379999160767	-0.018024826422334	-0.052377607673407	65.000000000000	0.00000000000000
26.389999389648	-0.017636036500335	-0.050322297960520	65.000000000000	0.00000000000000
26.399999618530	-0.017238730564713	-0.048270743340254	65.000000000000	0.00000000000000
26.409999847412	-0.016832945868373	-0.046223003417253	65.000000000000	0.00000000000000
26.420000076294	-0.016418736428022	-0.044179107993841	65.000000000000	0.00000000000000
26.430000305176	-0.015996107831597	-0.042139116674662	65.000000000000	0.00000000000000
26.440000534058	-0.015565128996968	-0.040103070437908	65.000000000000	0.00000000000000
26.450000762939	-0.015125821344554	-0.038071013987064	65.000000000000	0.00000000000000
26.459999084473	-0.014678225852549	-0.036043003201485	65.000000000000	0.00000000000000
26.469999313354	-0.014222393743694	-0.034019067883492	65.000000000000	0.00000000000000
26.479999542236	-0.013758339919150	-0.031999256461859	65.000000000000	0.00000000000000
26.489999771118	-0.013286121189594	-0.029983617365360	65.000000000000	0.00000000000000
26.500000000000	-0.012805772945285	-0.027972191572189	65.000000000000	0.00000000000000
26.510000228882	-0.012317337095737	-0.025965023785830	65.000000000000	0.00000000000000
26.520000457764	-0.011820844374597	-0.023962158709764	65.000000000000	0.00000000000000
26.530000686646	-0.011316341347992	-0.021963631734252	65.000000000000	0.00000000000000
26.540000915527	-0.010803875513375	-0.019969487562776	65.000000000000	0.00000000000000
26.549999237061	-0.010283476673067	-0.017979772761464	65.000000000000	0.00000000000000
26.559999465942	-0.0097551904618740	-0.015994524583220	65.000000000000	0.00000000000000
26.569999694824	-0.0092190597206354	-0.014013782143593	65.000000000000	0.00000000000000
26.579999923706	-0.0086751217022538	-0.012037586420774	65.000000000000	0.00000000000000
26.590000152588	-0.0081234183162451	-0.010065980255604	65.000000000000	0.00000000000000
26.600000381470	-0.0075639965943992	-0.0080989981070161	65.000000000000	0.00000000000000
26.610000610352	-0.0069968923926353	-0.0061366823501885	65.000000000000	0.00000000000000
26.620000839233	-0.0064221518114209	-0.0041790693067014	65.000000000000	0.00000000000000
26.629999160767	-0.0058398135006428	-0.0022261980921030	65.000000000000	0.00000000000000
26.639999389648	-0.0052499235607684	-0.00027810825849883	65.000000000000	0.00000000000000
26.649999618530	-0.0046525225043297	0.0016651665791869	65.000000000000	0.00000000000000
26.659999847412	-0.0040476545691490	0.0036035866942257	65.000000000000	0.00000000000000
26.670000076294	-0.0034353618975729	0.0055371187627316	65.000000000000	0.00000000000000
26.680000305176	-0.0028156894259155	0.0074657252989709	65.000000000000	0.00000000000000
26.690000534058	-0.0021886788308620	0.0093893697485328	65.000000000000	0.00000000000000
26.700000762939	-0.0015543757472187	0.011308019049466	65.000000000000	0.00000000000000
26.709999084473	-0.00091281987261027	0.013221637345850	65.000000000000	0.00000000000000
26.719999313354	-0.00026405861717649	0.015130191110075	65.000000000000	0.00000000000000
26.729999542236	0.00039185772766359	0.017033645883203	65.000000000000	0.00000000000000
26.739999771118	0.0010549048893154	0.018931968137622	65.000000000000	0.00000000000000
26.750000000000	0.0017250137170777	0.020825129002333	65.000000000000	0.00000000000000
26.760000228882	0.0024021577555686	0.022713089361787	65.000000000000	0.00000000000000
26.770000457764	0.0030862826388329	0.024595823138952	65.000000000000	0.00000000000000
26.780000686646	0.0037773475050926	0.026473294943571	65.000000000000	0.00000000000000
26.790000915527	0.0044753085821867	0.028345476835966	65.000000000000	0.00000000000000
26.799999237061	0.0051801241934299	0.030212331563234	65.000000000000	0.00000000000000
26.809999465942	0.0058917314745486	0.032073836773634	65.000000000000	0.00000000000000
26.819999694824	0.0066101104021072	0.033929962664843	65.000000000000	0.00000000000000
26.829999923706	0.0073351999744773	0.035780671983957	65.000000000000	0.00000000000000
26.840000152588	0.0080669531598687	0.037625942379236	65.000000000000	0.00000000000000
26.850000381470	0.0088053401559591	0.039465747773647	65.000000000000	0.00000000000000
26.860000610352	0.0095502948388457	0.041300050914288	65.000000000000	0.00000000000000
26.870000839233	0.010301779955626	0.043128829449415	65.000000000000	0.00000000000000
26.879999160767	0.011059760116041	0.044952057301998	65.000000000000	0.00000000000000
26.889999389648	0.011824171990156	0.046769700944424	65.000000000000	0.00000000000000
26.899999618530	0.012594975531101	0.048581741750240	65.000000000000	0.00000000000000
26.909999847412	0.013372135348618	0.050388157367706	65.000000000000	0.00000000000000
26.920000076294	0.014155598357320	0.052188906818628	65.000000000000	0.00000000000000
26.930000305176	0.014945319853723	0.053983971476555	65.000000000000	0.00000000000000
26.940000534058	0.015741238370538	0.055773336440325	65.000000000000	0.00000000000000
26.950000762939	0.016543332487345	0.057556968182325	65.000000000000	0.00000000000000
26.959999084473	0.017351530492306	0.059334840625525	65.000000000000	0.00000000000000
26.969999313354	0.018165815621614	0.061106938868761	65.000000000000	0.00000000000000
26.979999542236	0.018986120820045	0.062873229384422	65.000000000000	0.00000000000000
26.989999771118	0.019812408834696	0.064633704721928	65.000000000000	0.00000000000000
27.000000000000	0.020644608885050	0.066388316452503	65.000000000000	0.00000000000000
27.010000228882	0.021482706069946	0.068137079477310	65.000000000000	0.00000000000000
27.020000457764	0.022326638922095	0.069879941642284	65.000000000000	0.00000000000000
27.030000686646	0.023176355287433	0.071616895496845	65.000000000000	0.00000000000000
27.040000915527	0.024031832814217	0.073347911238670	65.000000000000	0.00000000000000
27.049999237061	0.024892998859286	0.075072981417179	65.000000000000	0.00000000000000
27.059999465942	0.025759819895029	0.076792083680630	65.000000000000	0.00000000000000
27.069999694824	0.026632258668542	0.078505180776119	65.000000000000	0.00000000000000
27.079999923706	0.027510246261954	0.080212280154228	65.000000000000	0.00000000000000
27.090000152588	0.028393745422363	0.081913352012634	65.000000000000	0.00000000000000
27.100000381470	0.029282711446285	0.083608366549015	65.000000000000	0.00000000000000
27.110000610352	0.030177094042301	0.085297323763371	65.000000000000	0.00000000000000
27.120000839233	0.031076839193702	0.086980186402798	65.000000000000	0.00000000000000
27.129999160767	0.031981933861971	0.088656976819038	65.000000000000	0.00000000000000
27.139999389648	0.032892283052206	0.090327620506287	65.000000000000	0.00000000000000
27.149999618530	0.033807870000601	0.091992162168026	65.000000000000	0.00000000000000
27.159999847412	0.034728661179543	0.093650534749031	65.000000000000	0.00000000000000
27.170000076294	0.035654570907354	0.095302753150463	65.000000000000	0.00000000000000
27.180000305176	0.036585595458746	0.096948787570000	65.000000000000	0.00000000000000
27.190000534058	0.037521652877331	0.098588638007641	65.000000000000	0.00000000000000
27.200000762939	0.038462728261948	0.10022226721048	65.000000000000	0.00000000000000
27.209999084473	0.039408732205629	0.10184969007969	65.000000000000	0.00000000000000
27.219999313354	0.040359642356634	0.10347085446119	65.000000000000	0.00000000000000
27.229999542236	0.041315451264381	0.10508579760790	65.000000000000	0.00000000000000
27.239999771118	0.042276032269001	0.10669446736574	65.000000000000	0.00000000000000
27.250000000000	0.043241403996944	0.10829686373472	65.000000000000	0.00000000000000
27.260000228882	0.044211458414793	0.10989298671484	65.000000000000	0.00000000000000
27.270000457764	0.045186229050159	0.11148280650377	65.000000000000	0.00000000000000
