#Parameters = {d=0.22022613065327; l2=4.4045226130653; lambda=8.8090452261307; r=0.029677673366834}
#"Frequency / GHz"	"S1,1 (lambda=8.80905) [Re]"	"S1,1 (lambda=8.80905) [Im]"	"Ref.Imp. [Re]"	"Ref.Imp. [Im]"
#-----------------------------------------------------------------------------------------------------------
25.000000000000	0.49429643154144	-0.62904578447342	65.000000000000	0.00000000000000
25.010000228882	0.49304801225662	-0.62911677360535	65.000000000000	0.00000000000000
25.020000457764	0.49179723858833	-0.62918448448181	65.000000000000	0.00000000000000
25.030000686646	0.49054405093193	-0.62924891710281	65.000000000000	0.00000000000000
25.040000915527	0.48928874731064	-0.62931007146835	65.000000000000	0.00000000000000
25.049999237061	0.48803117871284	-0.62936794757843	65.000000000000	0.00000000000000
25.059999465942	0.48677140474319	-0.62942260503769	65.000000000000	0.00000000000000
25.069999694824	0.48550951480865	-0.62947380542755	65.000000000000	0.00000000000000
25.079999923706	0.48424512147903	-0.62952172756195	65.000000000000	0.00000000000000
25.090000152588	0.48297882080078	-0.62956625223160	65.000000000000	0.00000000000000
25.100000381470	0.48171019554138	-0.62960749864578	65.000000000000	0.00000000000000
25.110000610352	0.48043939471245	-0.62964534759521	65.000000000000	0.00000000000000
25.120000839233	0.47916650772095	-0.62967985868454	65.000000000000	0.00000000000000
25.129999160767	0.47789132595062	-0.62971091270447	65.000000000000	0.00000000000000
25.139999389648	0.47661411762238	-0.62973856925964	65.000000000000	0.00000000000000
25.149999618530	0.47533467411995	-0.62976282835007	65.000000000000	0.00000000000000
25.159999847412	0.47405308485031	-0.62978368997574	65.000000000000	0.00000000000000
25.170000076294	0.47276943922043	-0.62980109453201	65.000000000000	0.00000000000000
25.180000305176	0.47148379683495	-0.62981510162354	65.000000000000	0.00000000000000
25.190000534058	0.47019580006599	-0.62982553243637	65.000000000000	0.00000000000000
25.200000762939	0.46890583634377	-0.62983256578445	65.000000000000	0.00000000000000
25.209999084473	0.46761390566826	-0.62983614206314	65.000000000000	0.00000000000000
25.219999313354	0.46631976962090	-0.62983614206314	65.000000000000	0.00000000000000
25.229999542236	0.46502360701561	-0.62983268499374	65.000000000000	0.00000000000000
25.239999771118	0.46372526884079	-0.62982565164566	65.000000000000	0.00000000000000
25.250000000000	0.46242505311966	-0.62981516122818	65.000000000000	0.00000000000000
25.260000228882	0.46112272143364	-0.62980109453201	65.000000000000	0.00000000000000
25.270000457764	0.45981836318970	-0.62978345155716	65.000000000000	0.00000000000000
25.280000686646	0.45851194858551	-0.62976235151291	65.000000000000	0.00000000000000
25.290000915527	0.45720356702805	-0.62973755598068	65.000000000000	0.00000000000000
25.299999237061	0.45589321851730	-0.62970918416977	65.000000000000	0.00000000000000
25.309999465942	0.45458087325096	-0.62967723608017	65.000000000000	0.00000000000000
25.319999694824	0.45326641201973	-0.62964171171188	65.000000000000	0.00000000000000
25.329999923706	0.45195007324219	-0.62960249185562	65.000000000000	0.00000000000000
25.340000152588	0.45063179731369	-0.62955963611603	65.000000000000	0.00000000000000
25.350000381470	0.44931143522263	-0.62951314449310	65.000000000000	0.00000000000000
25.360000610352	0.44798931479454	-0.62946313619614	65.000000000000	0.00000000000000
25.370000839233	0.44666534662247	-0.62940919399261	65.000000000000	0.00000000000000
25.379999160767	0.44533899426460	-0.62935191392899	65.000000000000	0.00000000000000
25.389999389648	0.44401118159294	-0.62929052114487	65.000000000000	0.00000000000000
25.399999618530	0.44268128275871	-0.62922561168671	65.000000000000	0.00000000000000
25.409999847412	0.44134965538979	-0.62915682792664	65.000000000000	0.00000000000000
25.420000076294	0.44001561403275	-0.62908464670181	65.000000000000	0.00000000000000
25.430000305176	0.43868026137352	-0.62900835275650	65.000000000000	0.00000000000000
25.440000534058	0.43734252452850	-0.62892866134644	65.000000000000	0.00000000000000
25.450000762939	0.43600308895111	-0.62884503602982	65.000000000000	0.00000000000000
25.459999084473	0.43466198444366	-0.62875747680664	65.000000000000	0.00000000000000
25.469999313354	0.43331891298294	-0.62866628170013	65.000000000000	0.00000000000000
25.479999542236	0.43197411298752	-0.62857109308243	65.000000000000	0.00000000000000
25.489999771118	0.43062740564346	-0.62847220897675	65.000000000000	0.00000000000000
25.500000000000	0.42927870154381	-0.62836951017380	65.000000000000	0.00000000000000
25.510000228882	0.42792841792107	-0.62826281785965	65.000000000000	0.00000000000000
25.520000457764	0.42657619714737	-0.62815243005753	65.000000000000	0.00000000000000
25.530000686646	0.42522206902504	-0.62803816795349	65.000000000000	0.00000000000000
25.540000915527	0.42386636137962	-0.62791985273361	65.000000000000	0.00000000000000
25.549999237061	0.42250880599022	-0.62779772281647	65.000000000000	0.00000000000000
25.559999465942	0.42114931344986	-0.62767171859741	65.000000000000	0.00000000000000
25.569999694824	0.41978830099106	-0.62754166126251	65.000000000000	0.00000000000000
25.579999923706	0.41842547059059	-0.62740772962570	65.000000000000	0.00000000000000
25.590000152588	0.41706079244614	-0.62726992368698	65.000000000000	0.00000000000000
25.600000381470	0.41569453477859	-0.62712788581848	65.000000000000	0.00000000000000
25.610000610352	0.41432622075081	-0.62698221206665	65.000000000000	0.00000000000000
25.620000839233	0.41295674443245	-0.62683212757111	65.000000000000	0.00000000000000
25.629999160767	0.41158518195152	-0.62667828798294	65.000000000000	0.00000000000000
25.639999389648	0.41021177172661	-0.62652045488358	65.000000000000	0.00000000000000
25.649999618530	0.40883702039719	-0.62635838985443	65.000000000000	0.00000000000000
25.659999847412	0.40746048092842	-0.62619239091873	65.000000000000	0.00000000000000
25.670000076294	0.40608191490173	-0.62602251768112	65.000000000000	0.00000000000000
25.680000305176	0.40470194816589	-0.62584829330444	65.000000000000	0.00000000000000
25.690000534058	0.40332055091858	-0.62566989660263	65.000000000000	0.00000000000000
25.700000762939	0.40193718671799	-0.62548750638962	65.000000000000	0.00000000000000
25.709999084473	0.40055215358734	-0.62530112266541	65.000000000000	0.00000000000000
25.719999313354	0.39916571974754	-0.62511038780212	65.000000000000	0.00000000000000
25.729999542236	0.39777770638466	-0.62491548061371	65.000000000000	0.00000000000000
25.739999771118	0.39638802409172	-0.62471640110016	65.000000000000	0.00000000000000
25.750000000000	0.39499673247337	-0.62451320886612	65.000000000000	0.00000000000000
25.760000228882	0.39360386133194	-0.62430572509766	65.000000000000	0.00000000000000
25.770000457764	0.39220938086510	-0.62409406900406	65.000000000000	0.00000000000000
25.780000686646	0.39081299304962	-0.62387835979462	65.000000000000	0.00000000000000
25.790000915527	0.38941553235054	-0.62365812063217	65.000000000000	0.00000000000000
25.799999237061	0.38801634311676	-0.62343364953995	65.000000000000	0.00000000000000
25.809999465942	0.38661566376686	-0.62320500612259	65.000000000000	0.00000000000000
25.819999694824	0.38521355390549	-0.62297195196152	65.000000000000	0.00000000000000
25.829999923706	0.38380986452103	-0.62273460626602	65.000000000000	0.00000000000000
25.840000152588	0.38240459561348	-0.62249296903610	65.000000000000	0.00000000000000
25.850000381470	0.38099792599678	-0.62224692106247	65.000000000000	0.00000000000000
25.860000610352	0.37958973646164	-0.62199652194977	65.000000000000	0.00000000000000
25.870000839233	0.37818011641502	-0.62174171209335	65.000000000000	0.00000000000000
25.879999160767	0.37676894664764	-0.62148255109787	65.000000000000	0.00000000000000
25.889999389648	0.37535631656647	-0.62121897935867	65.000000000000	0.00000000000000
25.899999618530	0.37394246459007	-0.62095099687576	65.000000000000	0.00000000000000
25.909999847412	0.37252694368362	-0.62067854404449	65.000000000000	0.00000000000000
25.920000076294	0.37111029028893	-0.62040156126022	65.000000000000	0.00000000000000
25.930000305176	0.36969199776649	-0.62012016773224	65.000000000000	0.00000000000000
25.940000534058	0.36827242374420	-0.61983424425125	65.000000000000	0.00000000000000
25.950000762939	0.36685147881508	-0.61954385042191	65.000000000000	0.00000000000000
25.959999084473	0.36542919278145	-0.61924886703491	65.000000000000	0.00000000000000
25.969999313354	0.36400550603867	-0.61894935369492	65.000000000000	0.00000000000000
25.979999542236	0.36258053779602	-0.61864531040192	65.000000000000	0.00000000000000
25.989999771118	0.36115416884422	-0.61833661794662	65.000000000000	0.00000000000000
26.000000000000	0.35972651839256	-0.61802339553833	65.000000000000	0.00000000000000
26.010000228882	0.35829764604568	-0.61770552396774	65.000000000000	0.00000000000000
26.020000457764	0.35686755180359	-0.61738300323486	65.000000000000	0.00000000000000
26.030000686646	0.35543602705002	-0.61705583333969	65.000000000000	0.00000000000000
26.040000915527	0.35400328040123	-0.61672407388687	65.000000000000	0.00000000000000
26.049999237061	0.35256934165955	-0.61638754606247	65.000000000000	0.00000000000000
26.059999465942	0.35113427042961	-0.61604624986649	65.000000000000	0.00000000000000
26.069999694824	0.34969794750214	-0.61570030450821	65.000000000000	0.00000000000000
26.079999923706	0.34826034307480	-0.61534965038300	65.000000000000	0.00000000000000
26.090000152588	0.34682163596153	-0.61499422788620	65.000000000000	0.00000000000000
26.100000381470	0.34538173675537	-0.61463403701782	65.000000000000	0.00000000000000
26.110000610352	0.34394058585167	-0.61426901817322	65.000000000000	0.00000000000000
26.120000839233	0.34249857068062	-0.61389923095703	65.000000000000	0.00000000000000
26.129999160767	0.34105518460274	-0.61352455615997	65.000000000000	0.00000000000000
26.139999389648	0.33961084485054	-0.61314517259598	65.000000000000	0.00000000000000
26.149999618530	0.33816534280777	-0.61276078224182	65.000000000000	0.00000000000000
26.159999847412	0.33671873807907	-0.61237162351608	65.000000000000	0.00000000000000
26.170000076294	0.33527129888535	-0.61197745800018	65.000000000000	0.00000000000000
26.180000305176	0.33382260799408	-0.61157846450806	65.000000000000	0.00000000000000
26.190000534058	0.33237290382385	-0.61117452383041	65.000000000000	0.00000000000000
26.200000762939	0.33092227578163	-0.61076563596725	65.000000000000	0.00000000000000
26.209999084473	0.32947063446045	-0.61035174131393	65.000000000000	0.00000000000000
26.219999313354	0.32801812887192	-0.60993283987045	65.000000000000	0.00000000000000
26.229999542236	0.32656449079514	-0.60950905084610	65.000000000000	0.00000000000000
26.239999771118	0.32511004805565	-0.60908019542694	65.000000000000	0.00000000000000
26.250000000000	0.32365462183952	-0.60864627361298	65.000000000000	0.00000000000000
26.260000228882	0.32219839096069	-0.60820728540421	65.000000000000	0.00000000000000
26.270000457764	0.32074114680290	-0.60776329040527	65.000000000000	0.00000000000000
26.280000686646	0.31928312778473	-0.60731410980225	65.000000000000	0.00000000000000
26.290000915527	0.31782427430153	-0.60685992240906	65.000000000000	0.00000000000000
26.299999237061	0.31636455655098	-0.60640054941177	65.000000000000	0.00000000000000
26.309999465942	0.31490415334702	-0.60593605041504	65.000000000000	0.00000000000000
26.319999694824	0.31344294548035	-0.60546636581421	65.000000000000	0.00000000000000
26.329999923706	0.31198075413704	-0.60499161481857	65.000000000000	0.00000000000000
26.340000152588	0.31051796674728	-0.60451149940491	65.000000000000	0.00000000000000
26.350000381470	0.30905461311340	-0.60402631759644	65.000000000000	0.00000000000000
26.360000610352	0.30759033560753	-0.60353577136993	65.000000000000	0.00000000000000
26.370000839233	0.30612552165985	-0.60304009914398	65.000000000000	0.00000000000000
26.379999160767	0.30465987324715	-0.60253906250000	65.000000000000	0.00000000000000
26.389999389648	0.30319371819496	-0.60203284025192	65.000000000000	0.00000000000000
26.399999618530	0.30172705650330	-0.60152125358582	65.000000000000	0.00000000000000
26.409999847412	0.30025964975357	-0.60100442171097	65.000000000000	0.00000000000000
26.420000076294	0.29879161715508	-0.60048216581345	65.000000000000	0.00000000000000
26.430000305176	0.29732316732407	-0.59995460510254	65.000000000000	0.00000000000000
26.440000534058	0.29585418105125	-0.59942167997360	65.000000000000	0.00000000000000
26.450000762939	0.29438447952271	-0.59888339042664	65.000000000000	0.00000000000000
26.459999084473	0.29291442036629	-0.59833961725235	65.000000000000	0.00000000000000
26.469999313354	0.29144406318665	-0.59779047966003	65.000000000000	0.00000000000000
26.479999542236	0.28997305035591	-0.59723597764969	65.000000000000	0.00000000000000
26.489999771118	0.28850176930428	-0.59667593240738	65.000000000000	0.00000000000000
26.500000000000	0.28702992200851	-0.59611040353775	65.000000000000	0.00000000000000
26.510000228882	0.28555783629417	-0.59553956985474	65.000000000000	0.00000000000000
26.520000457764	0.28408548235893	-0.59496301412582	65.000000000000	0.00000000000000
26.530000686646	0.28261268138885	-0.59438109397888	65.000000000000	0.00000000000000
26.540000915527	0.28113970160484	-0.59379357099533	65.000000000000	0.00000000000000
26.549999237061	0.27966624498367	-0.59320044517517	65.000000000000	0.00000000000000
26.559999465942	0.27819269895554	-0.59260189533234	65.000000000000	0.00000000000000
26.569999694824	0.27671903371811	-0.59199762344360	65.000000000000	0.00000000000000
26.579999923706	0.27524501085281	-0.59138780832291	65.000000000000	0.00000000000000
26.590000152588	0.27377092838287	-0.59077244997025	65.000000000000	0.00000000000000
26.600000381470	0.27229648828506	-0.59015136957169	65.000000000000	0.00000000000000
26.610000610352	0.27082207798958	-0.58952468633652	65.000000000000	0.00000000000000
26.620000839233	0.26934754848480	-0.58889240026474	65.000000000000	0.00000000000000
26.629999160767	0.26787304878235	-0.58825439214706	65.000000000000	0.00000000000000
26.639999389648	0.26639845967293	-0.58761066198349	65.000000000000	0.00000000000000
26.649999618530	0.26492372155190	-0.58696132898331	65.000000000000	0.00000000000000
26.659999847412	0.26344919204712	-0.58630615472794	65.000000000000	0.00000000000000
26.670000076294	0.26197454333305	-0.58564537763596	65.000000000000	0.00000000000000
26.680000305176	0.26050007343292	-0.58497875928879	65.000000000000	0.00000000000000
26.690000534058	0.25902581214905	-0.58430641889572	65.000000000000	0.00000000000000
26.700000762939	0.25755149126053	-0.58362829685211	65.000000000000	0.00000000000000
26.709999084473	0.25607737898827	-0.58294439315796	65.000000000000	0.00000000000000
26.719999313354	0.25460344552994	-0.58225470781326	65.000000000000	0.00000000000000
26.729999542236	0.25312981009483	-0.58155918121338	65.000000000000	0.00000000000000
26.739999771118	0.25165620446205	-0.58085781335831	65.000000000000	0.00000000000000
26.750000000000	0.25018295645714	-0.58015066385269	65.000000000000	0.00000000000000
26.760000228882	0.24871011078358	-0.57943761348724	65.000000000000	0.00000000000000
26.770000457764	0.24723765254021	-0.57871866226196	65.000000000000	0.00000000000000
26.780000686646	0.24576537311077	-0.57799386978149	65.000000000000	0.00000000000000
26.790000915527	0.24429354071617	-0.57726323604584	65.000000000000	0.00000000000000
26.799999237061	0.24282221496105	-0.57652658224106	65.000000000000	0.00000000000000
26.809999465942	0.24135112762451	-0.57578408718109	65.000000000000	0.00000000000000
26.819999694824	0.23988074064255	-0.57503563165665	65.000000000000	0.00000000000000
26.829999923706	0.23841090500355	-0.57428121566772	65.000000000000	0.00000000000000
26.840000152588	0.23694141209126	-0.57352089881897	65.000000000000	0.00000000000000
26.850000381470	0.23547254502773	-0.57275462150574	65.000000000000	0.00000000000000
26.860000610352	0.23400422930717	-0.57198238372803	65.000000000000	0.00000000000000
26.870000839233	0.23253659904003	-0.57120412588120	65.000000000000	0.00000000000000
26.879999160767	0.23106966912746	-0.57041978836060	65.000000000000	0.00000000000000
26.889999389648	0.22960351407528	-0.56962954998016	65.000000000000	0.00000000000000
26.899999618530	0.22813798487186	-0.56883329153061	65.000000000000	0.00000000000000
26.909999847412	0.22667327523232	-0.56803095340729	65.000000000000	0.00000000000000
26.920000076294	0.22520925104618	-0.56722259521484	65.000000000000	0.00000000000000
26.930000305176	0.22374610602856	-0.56640821695328	65.000000000000	0.00000000000000
26.940000534058	0.22228386998177	-0.56558775901794	65.000000000000	0.00000000000000
26.950000762939	0.22082255780697	-0.56476122140884	65.000000000000	0.00000000000000
26.959999084473	0.21936218440533	-0.56392860412598	65.000000000000	0.00000000000000
26.969999313354	0.21790267527103	-0.56308990716934	65.000000000000	0.00000000000000
26.979999542236	0.21644417941570	-0.56224507093430	65.000000000000	0.00000000000000
26.989999771118	0.21498687565327	-0.56139421463013	65.000000000000	0.00000000000000
27.000000000000	0.21353037655354	-0.56053727865219	65.000000000000	0.00000000000000
27.010000228882	0.21207526326180	-0.55967408418655	65.000000000000	0.00000000000000
27.020000457764	0.21062101423740	-0.55880486965179	65.000000000000	0.00000000000000
27.030000686646	0.20916791260242	-0.55792945623398	65.000000000000	0.00000000000000
27.040000915527	0.20771618187428	-0.55704790353775	65.000000000000	0.00000000000000
27.049999237061	0.20626567304134	-0.55616021156311	65.000000000000	0.00000000000000
27.059999465942	0.20481629669666	-0.55526643991470	65.000000000000	0.00000000000000
27.069999694824	0.20336848497391	-0.55436640977859	65.000000000000	0.00000000000000
27.079999923706	0.20192173123360	-0.55346024036407	65.000000000000	0.00000000000000
27.090000152588	0.20047660171986	-0.55254787206650	65.000000000000	0.00000000000000
27.100000381470	0.19903260469437	-0.55162936449051	65.000000000000	0.00000000000000
27.110000610352	0.19759029150009	-0.55070459842682	65.000000000000	0.00000000000000
27.120000839233	0.19614942371845	-0.54977369308472	65.000000000000	0.00000000000000
27.129999160767	0.19471004605293	-0.54883658885956	65.000000000000	0.00000000000000
27.139999389648	0.19327220320702	-0.54789334535599	65.000000000000	0.00000000000000
27.149999618530	0.19183591008186	-0.54694378376007	65.000000000000	0.00000000000000
27.159999847412	0.19040133059025	-0.54598808288574	65.000000000000	0.00000000000000
27.170000076294	0.18896836042404	-0.54502618312836	65.000000000000	0.00000000000000
27.180000305176	0.18753716349602	-0.54405808448792	65.000000000000	0.00000000000000
27.190000534058	0.18610766530037	-0.54308366775513	65.000000000000	0.00000000000000
27.200000762939	0.18467986583710	-0.54210305213928	65.000000000000	0.00000000000000
27.209999084473	0.18325395882130	-0.54111623764038	65.000000000000	0.00000000000000
27.219999313354	0.18182982504368	-0.54012316465378	65.000000000000	0.00000000000000
27.229999542236	0.18040762841702	-0.53912389278412	65.000000000000	0.00000000000000
27.239999771118	0.17898741364479	-0.53811836242676	65.000000000000	0.00000000000000
27.250000000000	0.17756909132004	-0.53710663318634	65.000000000000	0.00000000000000
27.260000228882	0.17615278065205	-0.53608864545822	65.000000000000	0.00000000000000
27.270000457764	0.17473843693733	-0.53506445884705	65.000000000000	0.00000000000000
27.280000686646	0.17332632839680	-0.53403395414352	65.000000000000	0.00000000000000
27.290000915527	0.17191623151302	-0.53299725055695	65.000000000000	0.00000000000000
27.299999237061	0.17050819098949	-0.53195434808731	65.000000000000	0.00000000000000
27.309999465942	0.16910247504711	-0.53090518712997	65.000000000000	0.00000000000000
27.319999694824	0.16769887506962	-0.52984976768494	65.000000000000	0.00000000000000
27.329999923706	0.16629768908024	-0.52878808975220	65.000000000000	0.00000000000000
