#Parameters = {d=0.2674623115578; l2=5.349246231156; lambda=10.698492462312; r=0.036043221105529}
#"Frequency / GHz"	"S1,1 (lambda=10.6985) [Re]"	"S1,1 (lambda=10.6985) [Im]"	"Ref.Imp. [Re]"	"Ref.Imp. [Im]"
#-----------------------------------------------------------------------------------------------------------
25.000000000000	-0.013376777060330	-0.032890740782022	65.000000000000	0.00000000000000
25.010000228882	-0.012886445038021	-0.030755747109652	65.000000000000	0.00000000000000
25.020000457764	-0.012386962771416	-0.028625406324863	65.000000000000	0.00000000000000
25.030000686646	-0.011878355406225	-0.026499779894948	65.000000000000	0.00000000000000
25.040000915527	-0.011360680684447	-0.024378914386034	65.000000000000	0.00000000000000
25.049999237061	-0.010833987966180	-0.022262865677476	65.000000000000	0.00000000000000
25.059999465942	-0.010298317298293	-0.020151684060693	65.000000000000	0.00000000000000
25.069999694824	-0.0097537189722061	-0.018045417964458	65.000000000000	0.00000000000000
25.079999923706	-0.0092002488672733	-0.015944119542837	65.000000000000	0.00000000000000
25.090000152588	-0.0086379470303655	-0.013847837224603	65.000000000000	0.00000000000000
25.100000381470	-0.0080668702721596	-0.011756615713239	65.000000000000	0.00000000000000
25.110000610352	-0.0074870674870908	-0.0096705053001642	65.000000000000	0.00000000000000
25.120000839233	-0.0068985824473202	-0.0075895567424595	65.000000000000	0.00000000000000
25.129999160767	-0.0063014742918313	-0.0055138124153018	65.000000000000	0.00000000000000
25.139999389648	-0.0056957835331559	-0.0034433219116181	65.000000000000	0.00000000000000
25.149999618530	-0.0050815683789551	-0.0013781265588477	65.000000000000	0.00000000000000
25.159999847412	-0.0044588781893253	0.00068172562168911	65.000000000000	0.00000000000000
25.170000076294	-0.0038277637213469	0.0027361896354705	65.000000000000	0.00000000000000
25.180000305176	-0.0031882761977613	0.0047852229326963	65.000000000000	0.00000000000000
25.190000534058	-0.0025404670741409	0.0068287812173367	65.000000000000	0.00000000000000
25.200000762939	-0.0018843883881345	0.0088668232783675	65.000000000000	0.00000000000000
25.209999084473	-0.0012200928758830	0.010899303480983	65.000000000000	0.00000000000000
25.219999313354	-0.00054763577645645	0.012926181778312	65.000000000000	0.00000000000000
25.229999542236	0.00013293691154104	0.014947419986129	65.000000000000	0.00000000000000
25.239999771118	0.00082156975986436	0.016962971538305	65.000000000000	0.00000000000000
25.250000000000	0.0015182084171101	0.018972801044583	65.000000000000	0.00000000000000
25.260000228882	0.0022228017915040	0.020976869389415	65.000000000000	0.00000000000000
25.270000457764	0.0029352901037782	0.022975133731961	65.000000000000	0.00000000000000
25.280000686646	0.0036556269042194	0.024967558681965	65.000000000000	0.00000000000000
25.290000915527	0.0043837632983923	0.026954105123878	65.000000000000	0.00000000000000
25.299999237061	0.0051196343265474	0.028934735804796	65.000000000000	0.00000000000000
25.309999465942	0.0058631841093302	0.030909417197108	65.000000000000	0.00000000000000
25.319999694824	0.0066143749281764	0.032878108322620	65.000000000000	0.00000000000000
25.329999923706	0.0073731415905058	0.034840773791075	65.000000000000	0.00000000000000
25.340000152588	0.0081394268199801	0.036797381937504	65.000000000000	0.00000000000000
25.350000381470	0.0089131854474545	0.038747899234295	65.000000000000	0.00000000000000
25.360000610352	0.0096943564713001	0.040692288428545	65.000000000000	0.00000000000000
25.370000839233	0.010482889600098	0.042630515992641	65.000000000000	0.00000000000000
25.379999160767	0.011278726160526	0.044562552124262	65.000000000000	0.00000000000000
25.389999389648	0.012081811204553	0.046488363295794	65.000000000000	0.00000000000000
25.399999618530	0.012892077676952	0.048407915979624	65.000000000000	0.00000000000000
25.409999847412	0.013709505088627	0.050321180373430	65.000000000000	0.00000000000000
25.420000076294	0.014534013345838	0.052228126674891	65.000000000000	0.00000000000000
25.430000305176	0.015365553088486	0.054128717631102	65.000000000000	0.00000000000000
25.440000534058	0.016204049810767	0.056022938340902	65.000000000000	0.00000000000000
25.450000762939	0.017049480229616	0.057910751551390	65.000000000000	0.00000000000000
25.459999084473	0.017901767045259	0.059792123734951	65.000000000000	0.00000000000000
25.469999313354	0.018760869279504	0.061667032539845	65.000000000000	0.00000000000000
25.479999542236	0.019626727327704	0.063535459339619	65.000000000000	0.00000000000000
25.489999771118	0.020499253645539	0.065397359430790	65.000000000000	0.00000000000000
25.500000000000	0.021378457546234	0.067252717912197	65.000000000000	0.00000000000000
25.510000228882	0.022264240309596	0.069101504981518	65.000000000000	0.00000000000000
25.520000457764	0.023156542330980	0.070943705737591	65.000000000000	0.00000000000000
25.530000686646	0.024055311456323	0.072779275476933	65.000000000000	0.00000000000000
25.540000915527	0.024960525333881	0.074608206748962	65.000000000000	0.00000000000000
25.549999237061	0.025872074067593	0.076430462300777	65.000000000000	0.00000000000000
25.559999465942	0.026789963245392	0.078246034681797	65.000000000000	0.00000000000000
25.569999694824	0.027714062482119	0.080054894089699	65.000000000000	0.00000000000000
25.579999923706	0.028644394129515	0.081857018172741	65.000000000000	0.00000000000000
25.590000152588	0.029580861330032	0.083652377128601	65.000000000000	0.00000000000000
25.600000381470	0.030523402616382	0.085440963506699	65.000000000000	0.00000000000000
25.610000610352	0.031471963971853	0.087222754955292	65.000000000000	0.00000000000000
25.620000839233	0.032426513731480	0.088997729122639	65.000000000000	0.00000000000000
25.629999160767	0.033386964350939	0.090765856206417	65.000000000000	0.00000000000000
25.639999389648	0.034353304654360	0.092527128756046	65.000000000000	0.00000000000000
25.649999618530	0.035325460135937	0.094281524419785	65.000000000000	0.00000000000000
25.659999847412	0.036303333938122	0.096029028296471	65.000000000000	0.00000000000000
25.670000076294	0.037286907434464	0.097769618034363	65.000000000000	0.00000000000000
25.680000305176	0.038276154547930	0.099503278732300	65.000000000000	0.00000000000000
25.690000534058	0.039270944893360	0.10122999548912	65.000000000000	0.00000000000000
25.700000762939	0.040271293371916	0.10294976085424	65.000000000000	0.00000000000000
25.709999084473	0.041277129203081	0.10466253757477	65.000000000000	0.00000000000000
25.719999313354	0.042288351804018	0.10636832565069	65.000000000000	0.00000000000000
25.729999542236	0.043304935097694	0.10806710273027	65.000000000000	0.00000000000000
25.739999771118	0.044326871633530	0.10975886136293	65.000000000000	0.00000000000000
25.750000000000	0.045354012399912	0.11144358664751	65.000000000000	0.00000000000000
25.760000228882	0.046386353671551	0.11312126368284	65.000000000000	0.00000000000000
25.770000457764	0.047423906624317	0.11479187756777	65.000000000000	0.00000000000000
25.780000686646	0.048466492444277	0.11645542830229	65.000000000000	0.00000000000000
25.790000915527	0.049514185637236	0.11811187118292	65.000000000000	0.00000000000000
25.799999237061	0.050566714257002	0.11976126581430	65.000000000000	0.00000000000000
25.809999465942	0.051624275743961	0.12140351533890	65.000000000000	0.00000000000000
25.819999694824	0.052686676383018	0.12303867191076	65.000000000000	0.00000000000000
25.829999923706	0.053753942251205	0.12466666847467	65.000000000000	0.00000000000000
25.840000152588	0.054826002568007	0.12628750503063	65.000000000000	0.00000000000000
25.850000381470	0.055902667343616	0.12790125608444	65.000000000000	0.00000000000000
25.860000610352	0.056984059512615	0.12950783967972	65.000000000000	0.00000000000000
25.870000839233	0.058069985359907	0.13110725581646	65.000000000000	0.00000000000000
25.879999160767	0.059160571545362	0.13269945979118	65.000000000000	0.00000000000000
25.889999389648	0.060255527496338	0.13428454101086	65.000000000000	0.00000000000000
25.899999618530	0.061355046927929	0.13586241006851	65.000000000000	0.00000000000000
25.909999847412	0.062458880245686	0.13743309676647	65.000000000000	0.00000000000000
25.920000076294	0.063567064702511	0.13899658620358	65.000000000000	0.00000000000000
25.930000305176	0.064679548144341	0.14055284857750	65.000000000000	0.00000000000000
25.940000534058	0.065796248614788	0.14210194349289	65.000000000000	0.00000000000000
25.950000762939	0.066917099058628	0.14364381134510	65.000000000000	0.00000000000000
25.959999084473	0.068042166531086	0.14517842233181	65.000000000000	0.00000000000000
25.969999313354	0.069171331822872	0.14670580625534	65.000000000000	0.00000000000000
25.979999542236	0.070304363965988	0.14822602272034	65.000000000000	0.00000000000000
25.989999771118	0.071441464126110	0.14973898231983	65.000000000000	0.00000000000000
26.000000000000	0.072582460939884	0.15124471485615	65.000000000000	0.00000000000000
26.010000228882	0.073727324604988	0.15274320542812	65.000000000000	0.00000000000000
26.020000457764	0.074875980615616	0.15423448383808	65.000000000000	0.00000000000000
26.030000686646	0.076028488576412	0.15571847558022	65.000000000000	0.00000000000000
26.040000915527	0.077184602618217	0.15719525516033	65.000000000000	0.00000000000000
26.049999237061	0.078344479203224	0.15866479277611	65.000000000000	0.00000000000000
26.059999465942	0.079507865011692	0.16012710332870	65.000000000000	0.00000000000000
26.069999694824	0.080674842000008	0.16158215701580	65.000000000000	0.00000000000000
26.079999923706	0.081845410168171	0.16302993893623	65.000000000000	0.00000000000000
26.090000152588	0.083019413053989	0.16447049379349	65.000000000000	0.00000000000000
26.100000381470	0.084196843206882	0.16590382158756	65.000000000000	0.00000000000000
26.110000610352	0.085377544164658	0.16732992231846	65.000000000000	0.00000000000000
26.120000839233	0.086561612784863	0.16874878108501	65.000000000000	0.00000000000000
26.129999160767	0.087748877704144	0.17016041278839	65.000000000000	0.00000000000000
26.139999389648	0.088939435780048	0.17156480252743	65.000000000000	0.00000000000000
26.149999618530	0.090133130550385	0.17296193540096	65.000000000000	0.00000000000000
26.159999847412	0.091329976916313	0.17435185611248	65.000000000000	0.00000000000000
26.170000076294	0.092529810965061	0.17573457956314	65.000000000000	0.00000000000000
26.180000305176	0.093732662498951	0.17711010575294	65.000000000000	0.00000000000000
26.190000534058	0.094938613474369	0.17847831547260	65.000000000000	0.00000000000000
26.200000762939	0.096147350966930	0.17983940243721	65.000000000000	0.00000000000000
26.209999084473	0.097359068691730	0.18119323253632	65.000000000000	0.00000000000000
26.219999313354	0.098573602735996	0.18253985047340	65.000000000000	0.00000000000000
26.229999542236	0.099790811538696	0.18387933075428	65.000000000000	0.00000000000000
26.239999771118	0.10101088136435	0.18521155416965	65.000000000000	0.00000000000000
26.250000000000	0.10223349928856	0.18653666973114	65.000000000000	0.00000000000000
26.260000228882	0.10345885157585	0.18785452842712	65.000000000000	0.00000000000000
26.270000457764	0.10468678921461	0.18916523456573	65.000000000000	0.00000000000000
26.280000686646	0.10591726005077	0.19046880304813	65.000000000000	0.00000000000000
26.290000915527	0.10715023428202	0.19176518917084	65.000000000000	0.00000000000000
26.299999237061	0.10838566720486	0.19305443763733	65.000000000000	0.00000000000000
26.309999465942	0.10962348431349	0.19433653354645	65.000000000000	0.00000000000000
26.319999694824	0.11086373031139	0.19561149179935	65.000000000000	0.00000000000000
26.329999923706	0.11210624128580	0.19687931239605	65.000000000000	0.00000000000000
26.340000152588	0.11335102468729	0.19814004004002	65.000000000000	0.00000000000000
26.350000381470	0.11459805071354	0.19939365983009	65.000000000000	0.00000000000000
26.360000610352	0.11584731936455	0.20064015686512	65.000000000000	0.00000000000000
26.370000839233	0.11709866672754	0.20187957584858	65.000000000000	0.00000000000000
26.379999160767	0.11835215985775	0.20311190187931	65.000000000000	0.00000000000000
26.389999389648	0.11960761249065	0.20433717966080	65.000000000000	0.00000000000000
26.399999618530	0.12086514383554	0.20555536448956	65.000000000000	0.00000000000000
26.409999847412	0.12212464213371	0.20676650106907	65.000000000000	0.00000000000000
26.420000076294	0.12338604778051	0.20797061920166	65.000000000000	0.00000000000000
26.430000305176	0.12464935332537	0.20916768908501	65.000000000000	0.00000000000000
26.440000534058	0.12591451406479	0.21035774052143	65.000000000000	0.00000000000000
26.450000762939	0.12718142569065	0.21154078841209	65.000000000000	0.00000000000000
26.459999084473	0.12845014035702	0.21271684765816	65.000000000000	0.00000000000000
26.469999313354	0.12972050905228	0.21388593316078	65.000000000000	0.00000000000000
26.479999542236	0.13099256157875	0.21504801511765	65.000000000000	0.00000000000000
26.489999771118	0.13226628303528	0.21620318293571	65.000000000000	0.00000000000000
26.500000000000	0.13354159891605	0.21735139191151	65.000000000000	0.00000000000000
26.510000228882	0.13481840491295	0.21849265694618	65.000000000000	0.00000000000000
26.520000457764	0.13609682023525	0.21962697803974	65.000000000000	0.00000000000000
26.530000686646	0.13737662136555	0.22075439989567	65.000000000000	0.00000000000000
26.540000915527	0.13865783810616	0.22187495231628	65.000000000000	0.00000000000000
26.549999237061	0.13994051516056	0.22298863530159	65.000000000000	0.00000000000000
26.559999465942	0.14122450351715	0.22409541904926	65.000000000000	0.00000000000000
26.569999694824	0.14250980317593	0.22519539296627	65.000000000000	0.00000000000000
26.579999923706	0.14379642903805	0.22628849744797	65.000000000000	0.00000000000000
26.590000152588	0.14508421719074	0.22737476229668	65.000000000000	0.00000000000000
26.600000381470	0.14637324213982	0.22845424711704	65.000000000000	0.00000000000000
26.610000610352	0.14766339957714	0.22952695190907	65.000000000000	0.00000000000000
26.620000839233	0.14895467460155	0.23059284687042	65.000000000000	0.00000000000000
26.629999160767	0.15024700760841	0.23165199160576	65.000000000000	0.00000000000000
26.639999389648	0.15154039859772	0.23270440101624	65.000000000000	0.00000000000000
26.649999618530	0.15283478796482	0.23375007510185	65.000000000000	0.00000000000000
26.659999847412	0.15413020551205	0.23478904366493	65.000000000000	0.00000000000000
26.670000076294	0.15542653203011	0.23582129180431	65.000000000000	0.00000000000000
26.680000305176	0.15672369301319	0.23684684932232	65.000000000000	0.00000000000000
26.690000534058	0.15802180767059	0.23786576092243	65.000000000000	0.00000000000000
26.700000762939	0.15932069718838	0.23887799680233	65.000000000000	0.00000000000000
26.709999084473	0.16062036156654	0.23988361656666	65.000000000000	0.00000000000000
26.719999313354	0.16192080080509	0.24088265001774	65.000000000000	0.00000000000000
26.729999542236	0.16322194039822	0.24187503755093	65.000000000000	0.00000000000000
26.739999771118	0.16452378034592	0.24286086857319	65.000000000000	0.00000000000000
26.750000000000	0.16582627594471	0.24384014308453	65.000000000000	0.00000000000000
26.760000228882	0.16712938249111	0.24481286108494	65.000000000000	0.00000000000000
26.770000457764	0.16843304038048	0.24577903747559	65.000000000000	0.00000000000000
26.780000686646	0.16973723471165	0.24673870205879	65.000000000000	0.00000000000000
26.790000915527	0.17104198038578	0.24769189953804	65.000000000000	0.00000000000000
26.799999237061	0.17234726250172	0.24863858520985	65.000000000000	0.00000000000000
26.809999465942	0.17365288734436	0.24957887828350	65.000000000000	0.00000000000000
26.819999694824	0.17495892941952	0.25051265954971	65.000000000000	0.00000000000000
26.829999923706	0.17626543343067	0.25144004821777	65.000000000000	0.00000000000000
26.840000152588	0.17757217586040	0.25236102938652	65.000000000000	0.00000000000000
26.850000381470	0.17887930572033	0.25327563285828	65.000000000000	0.00000000000000
26.860000610352	0.18018674850464	0.25418388843536	65.000000000000	0.00000000000000
26.870000839233	0.18149437010288	0.25508579611778	65.000000000000	0.00000000000000
26.879999160767	0.18280233442783	0.25598135590553	65.000000000000	0.00000000000000
26.889999389648	0.18411034345627	0.25687062740326	65.000000000000	0.00000000000000
26.899999618530	0.18541862070560	0.25775358080864	65.000000000000	0.00000000000000
26.909999847412	0.18672695755959	0.25863030552864	65.000000000000	0.00000000000000
26.920000076294	0.18803542852402	0.25950077176094	65.000000000000	0.00000000000000
26.930000305176	0.18934394419193	0.26036500930786	65.000000000000	0.00000000000000
26.940000534058	0.19065251946449	0.26122304797173	65.000000000000	0.00000000000000
26.950000762939	0.19196107983589	0.26207488775253	65.000000000000	0.00000000000000
26.959999084473	0.19326965510845	0.26292055845261	65.000000000000	0.00000000000000
26.969999313354	0.19457817077637	0.26376008987427	65.000000000000	0.00000000000000
26.979999542236	0.19588659703732	0.26459348201752	65.000000000000	0.00000000000000
26.989999771118	0.19719496369362	0.26542073488235	65.000000000000	0.00000000000000
27.000000000000	0.19850315153599	0.26624196767807	65.000000000000	0.00000000000000
27.010000228882	0.19981117546558	0.26705712080002	65.000000000000	0.00000000000000
27.020000457764	0.20111900568008	0.26786619424820	65.000000000000	0.00000000000000
27.030000686646	0.20242661237717	0.26866924762726	65.000000000000	0.00000000000000
27.040000915527	0.20373396575451	0.26946631073952	65.000000000000	0.00000000000000
27.049999237061	0.20504111051559	0.27025741338730	65.000000000000	0.00000000000000
27.059999465942	0.20634795725346	0.27104249596596	65.000000000000	0.00000000000000
27.069999694824	0.20765437185764	0.27182167768478	65.000000000000	0.00000000000000
27.079999923706	0.20896054804325	0.27259489893913	65.000000000000	0.00000000000000
27.090000152588	0.21026624739170	0.27336227893829	65.000000000000	0.00000000000000
27.100000381470	0.21157163381577	0.27412372827530	65.000000000000	0.00000000000000
27.110000610352	0.21287651360035	0.27487936615944	65.000000000000	0.00000000000000
27.120000839233	0.21418102085590	0.27562913298607	65.000000000000	0.00000000000000
27.129999160767	0.21548502147198	0.27637308835983	65.000000000000	0.00000000000000
27.139999389648	0.21678845584393	0.27711126208305	65.000000000000	0.00000000000000
27.149999618530	0.21809145808220	0.27784368395805	65.000000000000	0.00000000000000
27.159999847412	0.21939380466938	0.27857035398483	65.000000000000	0.00000000000000
27.170000076294	0.22069567441940	0.27929124236107	65.000000000000	0.00000000000000
27.180000305176	0.22199682891369	0.28000643849373	65.000000000000	0.00000000000000
27.190000534058	0.22329746186733	0.28071600198746	65.000000000000	0.00000000000000
27.200000762939	0.22459742426872	0.28141987323761	65.000000000000	0.00000000000000
27.209999084473	0.22589664161205	0.28211808204651	65.000000000000	0.00000000000000
27.219999313354	0.22719524800777	0.28281068801880	65.000000000000	0.00000000000000
27.229999542236	0.22849309444427	0.28349769115448	65.000000000000	0.00000000000000
27.239999771118	0.22979021072388	0.28417909145355	65.000000000000	0.00000000000000
27.250000000000	0.23108655214310	0.28485497832298	65.000000000000	0.00000000000000
27.260000228882	0.23238208889961	0.28552535176277	65.000000000000	0.00000000000000
27.270000457764	0.23367685079575	0.28619015216827	65.000000000000	0.00000000000000
27.280000686646	0.23497077822685	0.28684952855110	65.000000000000	0.00000000000000
27.290000915527	0.23626384139061	0.28750345110893	65.000000000000	0.00000000000000
27.299999237061	0.23755604028702	0.28815186023712	65.000000000000	0.00000000000000
27.309999465942	0.23884740471840	0.28879487514496	65.000000000000	0.00000000000000
27.319999694824	0.24013780057430	0.28943249583244	65.000000000000	0.00000000000000
