#Parameters = {d=0.25188442211055; l2=5.037688442211; lambda=10.075376884422; r=0.033943944723618}
#"Frequency / GHz"	"S1,1 (lambda=10.0754) [Re]"	"S1,1 (lambda=10.0754) [Im]"	"Ref.Imp. [Re]"	"Ref.Imp. [Im]"
#-----------------------------------------------------------------------------------------------------------
25.000000000000	0.024384707212448	-0.35550507903099	65.000000000000	0.00000000000000
25.010000228882	0.023408921435475	-0.35354486107826	65.000000000000	0.00000000000000
25.020000457764	0.022441722452641	-0.35157933831215	65.000000000000	0.00000000000000
25.030000686646	0.021483145654202	-0.34960865974426	65.000000000000	0.00000000000000
25.040000915527	0.020533310249448	-0.34763282537460	65.000000000000	0.00000000000000
25.049999237061	0.019592173397541	-0.34565186500549	65.000000000000	0.00000000000000
25.059999465942	0.018659690394998	-0.34366586804390	65.000000000000	0.00000000000000
25.069999694824	0.017736064270139	-0.34167489409447	65.000000000000	0.00000000000000
25.079999923706	0.016821250319481	-0.33967903256416	65.000000000000	0.00000000000000
25.090000152588	0.015915364027023	-0.33767828345299	65.000000000000	0.00000000000000
25.100000381470	0.015018370933831	-0.33567276597023	65.000000000000	0.00000000000000
25.110000610352	0.014130289666355	-0.33366248011589	65.000000000000	0.00000000000000
25.120000839233	0.013251167722046	-0.33164754509926	65.000000000000	0.00000000000000
25.129999160767	0.012381196953356	-0.32962799072266	65.000000000000	0.00000000000000
25.139999389648	0.011520095169544	-0.32760387659073	65.000000000000	0.00000000000000
25.149999618530	0.010668212547898	-0.32557526230812	65.000000000000	0.00000000000000
25.159999847412	0.0098254261538386	-0.32354223728180	65.000000000000	0.00000000000000
25.170000076294	0.0089917713776231	-0.32150483131409	65.000000000000	0.00000000000000
25.180000305176	0.0081674344837666	-0.31946319341660	65.000000000000	0.00000000000000
25.190000534058	0.0073521421290934	-0.31741726398468	65.000000000000	0.00000000000000
25.200000762939	0.0065462314523757	-0.31536713242531	65.000000000000	0.00000000000000
25.209999084473	0.0057497331872582	-0.31331297755241	65.000000000000	0.00000000000000
25.219999313354	0.0049623791128397	-0.31125473976135	65.000000000000	0.00000000000000
25.229999542236	0.0041844998486340	-0.30919250845909	65.000000000000	0.00000000000000
25.239999771118	0.0034158311318606	-0.30712640285492	65.000000000000	0.00000000000000
25.250000000000	0.0026566975284368	-0.30505642294884	65.000000000000	0.00000000000000
25.260000228882	0.0019071270944551	-0.30298268795013	65.000000000000	0.00000000000000
25.270000457764	0.0011668604565784	-0.30090519785881	65.000000000000	0.00000000000000
25.280000686646	0.00043621577788144	-0.29882410168648	65.000000000000	0.00000000000000
25.290000915527	-0.00028492190176621	-0.29673942923546	65.000000000000	0.00000000000000
25.299999237061	-0.00099666381720454	-0.29465118050575	65.000000000000	0.00000000000000
25.309999465942	-0.0016986990813166	-0.29255953431129	65.000000000000	0.00000000000000
25.319999694824	-0.0023911409080029	-0.29046452045441	65.000000000000	0.00000000000000
25.329999923706	-0.0030739610083401	-0.28836613893509	65.000000000000	0.00000000000000
25.340000152588	-0.0037471323739737	-0.28626456856728	65.000000000000	0.00000000000000
25.350000381470	-0.0044106272980571	-0.28415977954865	65.000000000000	0.00000000000000
25.360000610352	-0.0050642839632928	-0.28205189108849	65.000000000000	0.00000000000000
25.370000839233	-0.0057083480060101	-0.27994099259377	65.000000000000	0.00000000000000
25.379999160767	-0.0063427886925638	-0.27782711386681	65.000000000000	0.00000000000000
25.389999389648	-0.0069674463011324	-0.27571031451225	65.000000000000	0.00000000000000
25.399999618530	-0.0075821657665074	-0.27359065413475	65.000000000000	0.00000000000000
25.409999847412	-0.0081870546564460	-0.27146828174591	65.000000000000	0.00000000000000
25.420000076294	-0.0087823458015919	-0.26934313774109	65.000000000000	0.00000000000000
25.430000305176	-0.0093676261603832	-0.26721540093422	65.000000000000	0.00000000000000
25.440000534058	-0.0099431304261088	-0.26508513092995	65.000000000000	0.00000000000000
25.450000762939	-0.010508830659091	-0.26295232772827	65.000000000000	0.00000000000000
25.459999084473	-0.011064578779042	-0.26081714034081	65.000000000000	0.00000000000000
25.469999313354	-0.011610473506153	-0.25867956876755	65.000000000000	0.00000000000000
25.479999542236	-0.012146491557360	-0.25653970241547	65.000000000000	0.00000000000000
25.489999771118	-0.012672487646341	-0.25439763069153	65.000000000000	0.00000000000000
25.500000000000	-0.013188562355936	-0.25225344300270	65.000000000000	0.00000000000000
25.510000228882	-0.013694808818400	-0.25010707974434	65.000000000000	0.00000000000000
25.520000457764	-0.014190967194736	-0.24795882403851	65.000000000000	0.00000000000000
25.530000686646	-0.014677251689136	-0.24580857157707	65.000000000000	0.00000000000000
25.540000915527	-0.015153519809246	-0.24365647137165	65.000000000000	0.00000000000000
25.549999237061	-0.015619868412614	-0.24150255322456	65.000000000000	0.00000000000000
25.559999465942	-0.016076041385531	-0.23934693634510	65.000000000000	0.00000000000000
25.569999694824	-0.016522362828255	-0.23718963563442	65.000000000000	0.00000000000000
25.579999923706	-0.016958691179752	-0.23503074049950	65.000000000000	0.00000000000000
25.590000152588	-0.017385007813573	-0.23287032544613	65.000000000000	0.00000000000000
25.600000381470	-0.017801176756620	-0.23070846498013	65.000000000000	0.00000000000000
25.610000610352	-0.018207507207990	-0.22854523360729	65.000000000000	0.00000000000000
25.620000839233	-0.018603650853038	-0.22638067603111	65.000000000000	0.00000000000000
25.629999160767	-0.018989797681570	-0.22421489655972	65.000000000000	0.00000000000000
25.639999389648	-0.019366031512618	-0.22204791009426	65.000000000000	0.00000000000000
25.649999618530	-0.019732017070055	-0.21987985074520	65.000000000000	0.00000000000000
25.659999847412	-0.020088041201234	-0.21771073341370	65.000000000000	0.00000000000000
25.670000076294	-0.020434083417058	-0.21554064750671	65.000000000000	0.00000000000000
25.680000305176	-0.020770015195012	-0.21336965262890	65.000000000000	0.00000000000000
25.690000534058	-0.021095816046000	-0.21119788289070	65.000000000000	0.00000000000000
25.700000762939	-0.021411664783955	-0.20902530848980	65.000000000000	0.00000000000000
25.709999084473	-0.021717531606555	-0.20685204863548	65.000000000000	0.00000000000000
25.719999313354	-0.022013295441866	-0.20467816293240	65.000000000000	0.00000000000000
25.729999542236	-0.022299030795693	-0.20250374078751	65.000000000000	0.00000000000000
25.739999771118	-0.022574707865715	-0.20032882690430	65.000000000000	0.00000000000000
25.750000000000	-0.022840401157737	-0.19815348088741	65.000000000000	0.00000000000000
25.760000228882	-0.023095987737179	-0.19597782194614	65.000000000000	0.00000000000000
25.770000457764	-0.023341627791524	-0.19380183517933	65.000000000000	0.00000000000000
25.780000686646	-0.023577110841870	-0.19162568449974	65.000000000000	0.00000000000000
25.790000915527	-0.023802777752280	-0.18944935500622	65.000000000000	0.00000000000000
25.799999237061	-0.024018362164497	-0.18727295100689	65.000000000000	0.00000000000000
25.809999465942	-0.024223932996392	-0.18509654700756	65.000000000000	0.00000000000000
25.819999694824	-0.024419540539384	-0.18292020261288	65.000000000000	0.00000000000000
25.829999923706	-0.024605073034763	-0.18074397742748	65.000000000000	0.00000000000000
25.840000152588	-0.024780713021755	-0.17856793105602	65.000000000000	0.00000000000000
25.850000381470	-0.024946343153715	-0.17639216780663	65.000000000000	0.00000000000000
25.860000610352	-0.025102091953158	-0.17421668767929	65.000000000000	0.00000000000000
25.870000839233	-0.025247842073441	-0.17204163968563	65.000000000000	0.00000000000000
25.879999160767	-0.025383682921529	-0.16986702382565	65.000000000000	0.00000000000000
25.889999389648	-0.025509577244520	-0.16769292950630	65.000000000000	0.00000000000000
25.899999618530	-0.025625603273511	-0.16551944613457	65.000000000000	0.00000000000000
25.909999847412	-0.025731677189469	-0.16334658861160	65.000000000000	0.00000000000000
25.920000076294	-0.025827916339040	-0.16117447614670	65.000000000000	0.00000000000000
25.930000305176	-0.025914315134287	-0.15900313854218	65.000000000000	0.00000000000000
25.940000534058	-0.025990825146437	-0.15683265030384	65.000000000000	0.00000000000000
25.950000762939	-0.026057468727231	-0.15466305613518	65.000000000000	0.00000000000000
25.959999084473	-0.026114352047443	-0.15249447524548	65.000000000000	0.00000000000000
25.969999313354	-0.026161374524236	-0.15032689273357	65.000000000000	0.00000000000000
25.979999542236	-0.026198636740446	-0.14816044270992	65.000000000000	0.00000000000000
25.989999771118	-0.026226142421365	-0.14599515497684	65.000000000000	0.00000000000000
26.000000000000	-0.026243865489960	-0.14383108913898	65.000000000000	0.00000000000000
26.010000228882	-0.026251886039972	-0.14166831970215	65.000000000000	0.00000000000000
26.020000457764	-0.026250166818500	-0.13950692117214	65.000000000000	0.00000000000000
26.030000686646	-0.026238741353154	-0.13734695315361	65.000000000000	0.00000000000000
26.040000915527	-0.026217659935355	-0.13518843054771	65.000000000000	0.00000000000000
26.049999237061	-0.026186916977167	-0.13303148746490	65.000000000000	0.00000000000000
26.059999465942	-0.026146553456783	-0.13087613880634	65.000000000000	0.00000000000000
26.069999694824	-0.026096543297172	-0.12872242927551	65.000000000000	0.00000000000000
26.079999923706	-0.026036988943815	-0.12657049298286	65.000000000000	0.00000000000000
26.090000152588	-0.025967843830585	-0.12442030757666	65.000000000000	0.00000000000000
26.100000381470	-0.025889132171869	-0.12227197736502	65.000000000000	0.00000000000000
26.110000610352	-0.025800921022892	-0.12012556195259	65.000000000000	0.00000000000000
26.120000839233	-0.025703212246299	-0.11798112094402	65.000000000000	0.00000000000000
26.129999160767	-0.025596000254154	-0.11583869904280	65.000000000000	0.00000000000000
26.139999389648	-0.025479374453425	-0.11369836330414	65.000000000000	0.00000000000000
26.149999618530	-0.025353312492371	-0.11156017333269	65.000000000000	0.00000000000000
26.159999847412	-0.025217829272151	-0.10942418873310	65.000000000000	0.00000000000000
26.170000076294	-0.025072986260056	-0.10729046165943	65.000000000000	0.00000000000000
26.180000305176	-0.024918774142861	-0.10515905916691	65.000000000000	0.00000000000000
26.190000534058	-0.024755269289017	-0.10303002595901	65.000000000000	0.00000000000000
26.200000762939	-0.024582488462329	-0.10090343654156	65.000000000000	0.00000000000000
26.209999084473	-0.024400405585766	-0.098779335618019	65.000000000000	0.00000000000000
26.219999313354	-0.024209093302488	-0.096657767891884	65.000000000000	0.00000000000000
26.229999542236	-0.024008587002754	-0.094538807868958	65.000000000000	0.00000000000000
26.239999771118	-0.023798895999789	-0.092422515153885	65.000000000000	0.00000000000000
26.250000000000	-0.023580029606819	-0.090308934450150	65.000000000000	0.00000000000000
26.260000228882	-0.023352086544037	-0.088198117911816	65.000000000000	0.00000000000000
26.270000457764	-0.023115022107959	-0.086090132594109	65.000000000000	0.00000000000000
26.280000686646	-0.022868894040585	-0.083985008299351	65.000000000000	0.00000000000000
26.290000915527	-0.022613769397140	-0.081882826983929	65.000000000000	0.00000000000000
26.299999237061	-0.022349627688527	-0.079783625900745	65.000000000000	0.00000000000000
26.309999465942	-0.022076502442360	-0.077687472105026	65.000000000000	0.00000000000000
26.319999694824	-0.021794470027089	-0.075594395399094	65.000000000000	0.00000000000000
26.329999923706	-0.021503519266844	-0.073504462838173	65.000000000000	0.00000000000000
26.340000152588	-0.021203717216849	-0.071417726576328	65.000000000000	0.00000000000000
26.350000381470	-0.020895063877106	-0.069334238767624	65.000000000000	0.00000000000000
26.360000610352	-0.020577618852258	-0.067254036664963	65.000000000000	0.00000000000000
26.370000839233	-0.020251400768757	-0.065177187323570	65.000000000000	0.00000000000000
26.379999160767	-0.019916454330087	-0.063103742897511	65.000000000000	0.00000000000000
26.389999389648	-0.019572818651795	-0.061033744364977	65.000000000000	0.00000000000000
26.399999618530	-0.019220499321818	-0.058967240154743	65.000000000000	0.00000000000000
26.409999847412	-0.018859554082155	-0.056904278695583	65.000000000000	0.00000000000000
26.420000076294	-0.018490027636290	-0.054844912141562	65.000000000000	0.00000000000000
26.430000305176	-0.018111925572157	-0.052789196372032	65.000000000000	0.00000000000000
26.440000534058	-0.017725314944983	-0.050737172365189	65.000000000000	0.00000000000000
26.450000762939	-0.017330223694444	-0.048688877373934	65.000000000000	0.00000000000000
26.459999084473	-0.016926666721702	-0.046644374728203	65.000000000000	0.00000000000000
26.469999313354	-0.016514714807272	-0.044603705406189	65.000000000000	0.00000000000000
26.479999542236	-0.016094380989671	-0.042566914111376	65.000000000000	0.00000000000000
26.489999771118	-0.015665708109736	-0.040534038096666	65.000000000000	0.00000000000000
26.500000000000	-0.015228743664920	-0.038505144417286	65.000000000000	0.00000000000000
26.510000228882	-0.014783519320190	-0.036480262875557	65.000000000000	0.00000000000000
26.520000457764	-0.014330063015223	-0.034459441900253	65.000000000000	0.00000000000000
26.530000686646	-0.013868441805243	-0.032442722469568	65.000000000000	0.00000000000000
26.540000915527	-0.013398659415543	-0.030430151149631	65.000000000000	0.00000000000000
26.549999237061	-0.012920770794153	-0.028421774506569	65.000000000000	0.00000000000000
26.559999465942	-0.012434825301170	-0.026417627930641	65.000000000000	0.00000000000000
26.569999694824	-0.011940851807594	-0.024417763575912	65.000000000000	0.00000000000000
26.579999923706	-0.011438899673522	-0.022422211244702	65.000000000000	0.00000000000000
26.590000152588	-0.010928997769952	-0.020431023091078	65.000000000000	0.00000000000000
26.600000381470	-0.010411177761853	-0.018444238230586	65.000000000000	0.00000000000000
26.610000610352	-0.0098855067044497	-0.016461893916130	65.000000000000	0.00000000000000
26.620000839233	-0.0093520088121295	-0.014484033919871	65.000000000000	0.00000000000000
26.629999160767	-0.0088107269257307	-0.012510698288679	65.000000000000	0.00000000000000
26.639999389648	-0.0082617076113820	-0.010541921481490	65.000000000000	0.00000000000000
26.649999618530	-0.0077049876563251	-0.0085777500644326	65.000000000000	0.00000000000000
26.659999847412	-0.0071406061761081	-0.0066182184964418	65.000000000000	0.00000000000000
26.670000076294	-0.0065686111338437	-0.0046633649617434	65.000000000000	0.00000000000000
26.680000305176	-0.0059890425764024	-0.0027132281102240	65.000000000000	0.00000000000000
26.690000534058	-0.0054019410163164	-0.00076784670818597	65.000000000000	0.00000000000000
26.700000762939	-0.0048073506914079	0.0011727435048670	65.000000000000	0.00000000000000
26.709999084473	-0.0042053135111928	0.0031085070222616	65.000000000000	0.00000000000000
26.719999313354	-0.0035958704538643	0.0050394074060023	65.000000000000	0.00000000000000
26.729999542236	-0.0029790708795190	0.0069654062390327	65.000000000000	0.00000000000000
26.739999771118	-0.0023549527395517	0.0088864704594016	65.000000000000	0.00000000000000
26.750000000000	-0.0017235585255548	0.010802566073835	65.000000000000	0.00000000000000
26.760000228882	-0.0010849365498871	0.012713656760752	65.000000000000	0.00000000000000
26.770000457764	-0.00043912843102589	0.014619707129896	65.000000000000	0.00000000000000
26.780000686646	0.00021383036801126	0.016520688310266	65.000000000000	0.00000000000000
26.790000915527	0.00087388383690268	0.018416563048959	65.000000000000	0.00000000000000
26.799999237061	0.0015409939223900	0.020307304337621	65.000000000000	0.00000000000000
26.809999465942	0.0022151081357151	0.022192869335413	65.000000000000	0.00000000000000
26.819999694824	0.0028961910866201	0.024073237553239	65.000000000000	0.00000000000000
26.829999923706	0.0035842072684318	0.025948368012905	65.000000000000	0.00000000000000
26.840000152588	0.0042790900915861	0.027818236500025	65.000000000000	0.00000000000000
26.850000381470	0.0049808095209301	0.029682811349630	65.000000000000	0.00000000000000
26.860000610352	0.0056893154978752	0.031542059034109	65.000000000000	0.00000000000000
26.870000839233	0.0064045651815832	0.033395953476429	65.000000000000	0.00000000000000
26.879999160767	0.0071265082806349	0.035244464874268	65.000000000000	0.00000000000000
26.889999389648	0.0078551191836596	0.037087559700012	65.000000000000	0.00000000000000
26.899999618530	0.0085903163999319	0.038925219327211	65.000000000000	0.00000000000000
26.909999847412	0.0093320906162262	0.040757402777672	65.000000000000	0.00000000000000
26.920000076294	0.010080388747156	0.042584087699652	65.000000000000	0.00000000000000
26.930000305176	0.010835144668818	0.044405255466700	65.000000000000	0.00000000000000
26.940000534058	0.011596341617405	0.046220868825912	65.000000000000	0.00000000000000
26.950000762939	0.012363897636533	0.048030905425549	65.000000000000	0.00000000000000
26.959999084473	0.013137799687684	0.049835342913866	65.000000000000	0.00000000000000
26.969999313354	0.013917989097536	0.051634140312672	65.000000000000	0.00000000000000
26.979999542236	0.014704415574670	0.053427297621965	65.000000000000	0.00000000000000
26.989999771118	0.015497053973377	0.055214766412973	65.000000000000	0.00000000000000
27.000000000000	0.016295827925205	0.056996535509825	65.000000000000	0.00000000000000
27.010000228882	0.017100712284446	0.058772582560778	65.000000000000	0.00000000000000
27.020000457764	0.017911665141582	0.060542874038219	65.000000000000	0.00000000000000
27.030000686646	0.018728625029325	0.062307387590408	65.000000000000	0.00000000000000
27.040000915527	0.019551534205675	0.064066119492054	65.000000000000	0.00000000000000
27.049999237061	0.020380387082696	0.065819017589092	65.000000000000	0.00000000000000
27.059999465942	0.021215116605163	0.067566089332104	65.000000000000	0.00000000000000
27.069999694824	0.022055661305785	0.069307297468185	65.000000000000	0.00000000000000
27.079999923706	0.022901995107532	0.071042619645596	65.000000000000	0.00000000000000
27.090000152588	0.023754054680467	0.072772033512592	65.000000000000	0.00000000000000
27.100000381470	0.024611819535494	0.074495531618595	65.000000000000	0.00000000000000
27.110000610352	0.025475207716227	0.076213091611862	65.000000000000	0.00000000000000
27.120000839233	0.026344206184149	0.077924683690071	65.000000000000	0.00000000000000
27.129999160767	0.027218736708164	0.079630292952061	65.000000000000	0.00000000000000
27.139999389648	0.028098791837692	0.081329904496670	65.000000000000	0.00000000000000
27.149999618530	0.028984302654862	0.083023503422737	65.000000000000	0.00000000000000
27.159999847412	0.029875226318836	0.084711059927940	65.000000000000	0.00000000000000
27.170000076294	0.030771505087614	0.086392559111118	65.000000000000	0.00000000000000
27.180000305176	0.031673114746809	0.088068000972271	65.000000000000	0.00000000000000
27.190000534058	0.032579984515905	0.089737348258495	65.000000000000	0.00000000000000
27.200000762939	0.033492099493742	0.091400593519211	65.000000000000	0.00000000000000
27.209999084473	0.034409351646900	0.093057721853256	65.000000000000	0.00000000000000
27.219999313354	0.035331770777702	0.094708718359470	65.000000000000	0.00000000000000
27.229999542236	0.036259263753891	0.096353568136692	65.000000000000	0.00000000000000
27.239999771118	0.037191811949015	0.097992248833179	65.000000000000	0.00000000000000
27.250000000000	0.038129359483719	0.099624752998352	65.000000000000	0.00000000000000
27.260000228882	0.039071846753359	0.10125106573105	65.000000000000	0.00000000000000
27.270000457764	0.040019229054451	0.10287116467953	65.000000000000	0.00000000000000
