#Parameters = {d=0.18052763819095; l2=3.6105527638191; lambda=7.2211055276382; r=0.024327904522613}
#"Frequency / GHz"	"S1,1 (lambda=7.22111) [Re]"	"S1,1 (lambda=7.22111) [Im]"	"Ref.Imp. [Re]"	"Ref.Imp. [Im]"
#-----------------------------------------------------------------------------------------------------------
25.000000000000	0.83415961265564	-0.47058555483818	65.000000000000	0.00000000000000
25.010000228882	0.83383357524872	-0.47092622518539	65.000000000000	0.00000000000000
25.020000457764	0.83350688219070	-0.47126695513725	65.000000000000	0.00000000000000
25.030000686646	0.83317947387695	-0.47160783410072	65.000000000000	0.00000000000000
25.040000915527	0.83285129070282	-0.47194886207581	65.000000000000	0.00000000000000
25.049999237061	0.83252233266830	-0.47228994965553	65.000000000000	0.00000000000000
25.059999465942	0.83219271898270	-0.47263127565384	65.000000000000	0.00000000000000
25.069999694824	0.83186239004135	-0.47297260165215	65.000000000000	0.00000000000000
25.079999923706	0.83153134584427	-0.47331413626671	65.000000000000	0.00000000000000
25.090000152588	0.83119958639145	-0.47365579009056	65.000000000000	0.00000000000000
25.100000381470	0.83086723089218	-0.47399753332138	65.000000000000	0.00000000000000
25.110000610352	0.83053392171860	-0.47433945536613	65.000000000000	0.00000000000000
25.120000839233	0.83019995689392	-0.47468140721321	65.000000000000	0.00000000000000
25.129999160767	0.82986515760422	-0.47502359747887	65.000000000000	0.00000000000000
25.139999389648	0.82952982187271	-0.47536584734917	65.000000000000	0.00000000000000
25.149999618530	0.82919377088547	-0.47570824623108	65.000000000000	0.00000000000000
25.159999847412	0.82885682582855	-0.47605076432228	65.000000000000	0.00000000000000
25.170000076294	0.82851928472519	-0.47639337182045	65.000000000000	0.00000000000000
25.180000305176	0.82818090915680	-0.47673615813255	65.000000000000	0.00000000000000
25.190000534058	0.82784181833267	-0.47707900404930	65.000000000000	0.00000000000000
25.200000762939	0.82750201225281	-0.47742199897766	65.000000000000	0.00000000000000
25.209999084473	0.82716137170792	-0.47776511311531	65.000000000000	0.00000000000000
25.219999313354	0.82682007551193	-0.47810837626457	65.000000000000	0.00000000000000
25.229999542236	0.82647806406021	-0.47845175862312	65.000000000000	0.00000000000000
25.239999771118	0.82613533735275	-0.47879520058632	65.000000000000	0.00000000000000
25.250000000000	0.82579171657562	-0.47913876175880	65.000000000000	0.00000000000000
25.260000228882	0.82544732093811	-0.47948247194290	65.000000000000	0.00000000000000
25.270000457764	0.82510232925415	-0.47982630133629	65.000000000000	0.00000000000000
25.280000686646	0.82475650310516	-0.48017022013664	65.000000000000	0.00000000000000
25.290000915527	0.82440990209579	-0.48051428794861	65.000000000000	0.00000000000000
25.299999237061	0.82406258583069	-0.48085847496986	65.000000000000	0.00000000000000
25.309999465942	0.82371461391449	-0.48120272159576	65.000000000000	0.00000000000000
25.319999694824	0.82336562871933	-0.48154708743095	65.000000000000	0.00000000000000
25.329999923706	0.82301598787308	-0.48189151287079	65.000000000000	0.00000000000000
25.340000152588	0.82266575098038	-0.48223620653152	65.000000000000	0.00000000000000
25.350000381470	0.82231456041336	-0.48258090019226	65.000000000000	0.00000000000000
25.360000610352	0.82196271419525	-0.48292574286461	65.000000000000	0.00000000000000
25.370000839233	0.82161003351212	-0.48327061533928	65.000000000000	0.00000000000000
25.379999160767	0.82125651836395	-0.48361569643021	65.000000000000	0.00000000000000
25.389999389648	0.82090234756470	-0.48396083712578	65.000000000000	0.00000000000000
25.399999618530	0.82054734230042	-0.48430609703064	65.000000000000	0.00000000000000
25.409999847412	0.82019168138504	-0.48465144634247	65.000000000000	0.00000000000000
25.420000076294	0.81983500719070	-0.48499688506126	65.000000000000	0.00000000000000
25.430000305176	0.81947767734528	-0.48534253239632	65.000000000000	0.00000000000000
25.440000534058	0.81911951303482	-0.48568814992905	65.000000000000	0.00000000000000
25.450000762939	0.81876069307327	-0.48603394627571	65.000000000000	0.00000000000000
25.459999084473	0.81840091943741	-0.48637986183167	65.000000000000	0.00000000000000
25.469999313354	0.81804060935974	-0.48672580718994	65.000000000000	0.00000000000000
25.479999542236	0.81767928600311	-0.48707190155983	65.000000000000	0.00000000000000
25.489999771118	0.81731718778610	-0.48741808533669	65.000000000000	0.00000000000000
25.500000000000	0.81695437431335	-0.48776438832283	65.000000000000	0.00000000000000
25.510000228882	0.81659072637558	-0.48811072111130	65.000000000000	0.00000000000000
25.520000457764	0.81622624397278	-0.48845720291138	65.000000000000	0.00000000000000
25.530000686646	0.81586098670959	-0.48880383372307	65.000000000000	0.00000000000000
25.540000915527	0.81549513339996	-0.48915046453476	65.000000000000	0.00000000000000
25.549999237061	0.81512826681137	-0.48949715495110	65.000000000000	0.00000000000000
25.559999465942	0.81476056575775	-0.48984426259995	65.000000000000	0.00000000000000
25.569999694824	0.81439226865768	-0.49019080400467	65.000000000000	0.00000000000000
25.579999923706	0.81402283906937	-0.49053815007210	65.000000000000	0.00000000000000
25.590000152588	0.81365275382996	-0.49088546633720	65.000000000000	0.00000000000000
25.600000381470	0.81328189373016	-0.49123257398605	65.000000000000	0.00000000000000
25.610000610352	0.81291031837463	-0.49157971143723	65.000000000000	0.00000000000000
25.620000839233	0.81253784894943	-0.49192717671394	65.000000000000	0.00000000000000
25.629999160767	0.81216430664063	-0.49227488040924	65.000000000000	0.00000000000000
25.639999389648	0.81179016828537	-0.49262258410454	65.000000000000	0.00000000000000
25.649999618530	0.81141549348831	-0.49296975135803	65.000000000000	0.00000000000000
25.659999847412	0.81103956699371	-0.49331766366959	65.000000000000	0.00000000000000
25.670000076294	0.81066298484802	-0.49366548657417	65.000000000000	0.00000000000000
25.680000305176	0.81028544902802	-0.49401360750198	65.000000000000	0.00000000000000
25.690000534058	0.80990713834763	-0.49436163902283	65.000000000000	0.00000000000000
25.700000762939	0.80952787399292	-0.49470996856689	65.000000000000	0.00000000000000
25.709999084473	0.80914819240570	-0.49505782127380	65.000000000000	0.00000000000000
25.719999313354	0.80876749753952	-0.49540597200394	65.000000000000	0.00000000000000
25.729999542236	0.80838572978973	-0.49575439095497	65.000000000000	0.00000000000000
25.739999771118	0.80800330638885	-0.49610275030136	65.000000000000	0.00000000000000
25.750000000000	0.80762022733688	-0.49645102024078	65.000000000000	0.00000000000000
25.760000228882	0.80723589658737	-0.49679994583130	65.000000000000	0.00000000000000
25.770000457764	0.80685079097748	-0.49714875221252	65.000000000000	0.00000000000000
25.780000686646	0.80646520853043	-0.49749708175659	65.000000000000	0.00000000000000
25.790000915527	0.80607843399048	-0.49784600734711	65.000000000000	0.00000000000000
25.799999237061	0.80569088459015	-0.49819487333298	65.000000000000	0.00000000000000
25.809999465942	0.80530250072479	-0.49854385852814	65.000000000000	0.00000000000000
25.819999694824	0.80491322278976	-0.49889287352562	65.000000000000	0.00000000000000
25.829999923706	0.80452305078506	-0.49924194812775	65.000000000000	0.00000000000000
25.840000152588	0.80413216352463	-0.49959108233452	65.000000000000	0.00000000000000
25.850000381470	0.80374038219452	-0.49994027614594	65.000000000000	0.00000000000000
25.860000610352	0.80334764719009	-0.50028961896896	65.000000000000	0.00000000000000
25.870000839233	0.80295419692993	-0.50063896179199	65.000000000000	0.00000000000000
25.879999160767	0.80255979299545	-0.50098836421967	65.000000000000	0.00000000000000
25.889999389648	0.80216449499130	-0.50133776664734	65.000000000000	0.00000000000000
25.899999618530	0.80176836252213	-0.50168734788895	65.000000000000	0.00000000000000
25.909999847412	0.80137127637863	-0.50203698873520	65.000000000000	0.00000000000000
25.920000076294	0.80097341537476	-0.50238662958145	65.000000000000	0.00000000000000
25.930000305176	0.80057460069656	-0.50273638963699	65.000000000000	0.00000000000000
25.940000534058	0.80017501115799	-0.50308614969254	65.000000000000	0.00000000000000
25.950000762939	0.79977440834045	-0.50343596935272	65.000000000000	0.00000000000000
25.959999084473	0.79937297105789	-0.50378590822220	65.000000000000	0.00000000000000
25.969999313354	0.79897069931030	-0.50413584709167	65.000000000000	0.00000000000000
25.979999542236	0.79856759309769	-0.50448584556580	65.000000000000	0.00000000000000
25.989999771118	0.79816341400146	-0.50483590364456	65.000000000000	0.00000000000000
26.000000000000	0.79775846004486	-0.50518596172333	65.000000000000	0.00000000000000
26.010000228882	0.79735255241394	-0.50553613901138	65.000000000000	0.00000000000000
26.020000457764	0.79694581031799	-0.50588637590408	65.000000000000	0.00000000000000
26.030000686646	0.79653811454773	-0.50623661279678	65.000000000000	0.00000000000000
26.040000915527	0.79612958431244	-0.50658696889877	65.000000000000	0.00000000000000
26.049999237061	0.79572004079819	-0.50693732500076	65.000000000000	0.00000000000000
26.059999465942	0.79530966281891	-0.50728762149811	65.000000000000	0.00000000000000
26.069999694824	0.79489833116531	-0.50763809680939	65.000000000000	0.00000000000000
26.079999923706	0.79448622465134	-0.50798863172531	65.000000000000	0.00000000000000
26.090000152588	0.79407304525375	-0.50833904743195	65.000000000000	0.00000000000000
26.100000381470	0.79365903139114	-0.50868970155716	65.000000000000	0.00000000000000
26.110000610352	0.79324406385422	-0.50904029607773	65.000000000000	0.00000000000000
26.120000839233	0.79282826185226	-0.50939095020294	65.000000000000	0.00000000000000
26.129999160767	0.79241150617599	-0.50974148511887	65.000000000000	0.00000000000000
26.139999389648	0.79199379682541	-0.51009219884872	65.000000000000	0.00000000000000
26.149999618530	0.79157513380051	-0.51044297218323	65.000000000000	0.00000000000000
26.159999847412	0.79115563631058	-0.51079374551773	65.000000000000	0.00000000000000
26.170000076294	0.79073512554169	-0.51114457845688	65.000000000000	0.00000000000000
26.180000305176	0.79031372070313	-0.51149541139603	65.000000000000	0.00000000000000
26.190000534058	0.78989142179489	-0.51184624433517	65.000000000000	0.00000000000000
26.200000762939	0.78946810960770	-0.51219713687897	65.000000000000	0.00000000000000
26.209999084473	0.78904390335083	-0.51254802942276	65.000000000000	0.00000000000000
26.219999313354	0.78861874341965	-0.51289898157120	65.000000000000	0.00000000000000
26.229999542236	0.78819262981415	-0.51324987411499	65.000000000000	0.00000000000000
26.239999771118	0.78776556253433	-0.51360088586807	65.000000000000	0.00000000000000
26.250000000000	0.78733766078949	-0.51395189762115	65.000000000000	0.00000000000000
26.260000228882	0.78690862655640	-0.51430290937424	65.000000000000	0.00000000000000
26.270000457764	0.78647869825363	-0.51465392112732	65.000000000000	0.00000000000000
26.280000686646	0.78604781627655	-0.51500499248505	65.000000000000	0.00000000000000
26.290000915527	0.78561609983444	-0.51535600423813	65.000000000000	0.00000000000000
26.299999237061	0.78518337011337	-0.51570707559586	65.000000000000	0.00000000000000
26.309999465942	0.78474962711334	-0.51605808734894	65.000000000000	0.00000000000000
26.319999694824	0.78431499004364	-0.51640921831131	65.000000000000	0.00000000000000
26.329999923706	0.78387933969498	-0.51676034927368	65.000000000000	0.00000000000000
26.340000152588	0.78344267606735	-0.51711148023605	65.000000000000	0.00000000000000
26.350000381470	0.78300511837006	-0.51746255159378	65.000000000000	0.00000000000000
26.360000610352	0.78256660699844	-0.51781362295151	65.000000000000	0.00000000000000
26.370000839233	0.78212708234787	-0.51816475391388	65.000000000000	0.00000000000000
26.379999160767	0.78168660402298	-0.51851588487625	65.000000000000	0.00000000000000
26.389999389648	0.78124511241913	-0.51886701583862	65.000000000000	0.00000000000000
26.399999618530	0.78080254793167	-0.51921814680099	65.000000000000	0.00000000000000
26.409999847412	0.78035926818848	-0.51956921815872	65.000000000000	0.00000000000000
26.420000076294	0.77991467714310	-0.51992028951645	65.000000000000	0.00000000000000
26.430000305176	0.77946931123734	-0.52027136087418	65.000000000000	0.00000000000000
26.440000534058	0.77902287244797	-0.52062255144119	65.000000000000	0.00000000000000
26.450000762939	0.77857547998428	-0.52097356319427	65.000000000000	0.00000000000000
26.459999084473	0.77812713384628	-0.52132463455200	65.000000000000	0.00000000000000
26.469999313354	0.77767765522003	-0.52167564630508	65.000000000000	0.00000000000000
26.479999542236	0.77722734212875	-0.52202665805817	65.000000000000	0.00000000000000
26.489999771118	0.77677601575851	-0.52237766981125	65.000000000000	0.00000000000000
26.500000000000	0.77632361650467	-0.52272868156433	65.000000000000	0.00000000000000
26.510000228882	0.77587008476257	-0.52307969331741	65.000000000000	0.00000000000000
26.520000457764	0.77541577816010	-0.52343058586121	65.000000000000	0.00000000000000
26.530000686646	0.77496033906937	-0.52378153800964	65.000000000000	0.00000000000000
26.540000915527	0.77450394630432	-0.52413243055344	65.000000000000	0.00000000000000
26.549999237061	0.77404642105103	-0.52448332309723	65.000000000000	0.00000000000000
26.559999465942	0.77358818054199	-0.52483415603638	65.000000000000	0.00000000000000
26.569999694824	0.77312856912613	-0.52518498897552	65.000000000000	0.00000000000000
26.579999923706	0.77266806364059	-0.52553576231003	65.000000000000	0.00000000000000
26.590000152588	0.77220660448074	-0.52588647603989	65.000000000000	0.00000000000000
26.600000381470	0.77174401283264	-0.52623724937439	65.000000000000	0.00000000000000
26.610000610352	0.77128046751022	-0.52658790349960	65.000000000000	0.00000000000000
26.620000839233	0.77081590890884	-0.52693849802017	65.000000000000	0.00000000000000
26.629999160767	0.77035015821457	-0.52728915214539	65.000000000000	0.00000000000000
26.639999389648	0.76988357305527	-0.52763962745667	65.000000000000	0.00000000000000
26.649999618530	0.76941591501236	-0.52799022197723	65.000000000000	0.00000000000000
26.659999847412	0.76894706487656	-0.52834069728851	65.000000000000	0.00000000000000
26.670000076294	0.76847738027573	-0.52869105339050	65.000000000000	0.00000000000000
26.680000305176	0.76800644397736	-0.52904140949249	65.000000000000	0.00000000000000
26.690000534058	0.76753473281860	-0.52939170598984	65.000000000000	0.00000000000000
26.700000762939	0.76706171035767	-0.52974194288254	65.000000000000	0.00000000000000
26.709999084473	0.76658767461777	-0.53009212017059	65.000000000000	0.00000000000000
26.719999313354	0.76611274480820	-0.53044229745865	65.000000000000	0.00000000000000
26.729999542236	0.76563662290573	-0.53079235553741	65.000000000000	0.00000000000000
26.739999771118	0.76515942811966	-0.53114235401154	65.000000000000	0.00000000000000
26.750000000000	0.76468122005463	-0.53149235248566	65.000000000000	0.00000000000000
26.760000228882	0.76420199871063	-0.53184229135513	65.000000000000	0.00000000000000
26.770000457764	0.76372164487839	-0.53219199180603	65.000000000000	0.00000000000000
26.780000686646	0.76324027776718	-0.53254181146622	65.000000000000	0.00000000000000
26.790000915527	0.76275777816772	-0.53289151191711	65.000000000000	0.00000000000000
26.799999237061	0.76227414608002	-0.53324109315872	65.000000000000	0.00000000000000
26.809999465942	0.76178961992264	-0.53359055519104	65.000000000000	0.00000000000000
26.819999694824	0.76130396127701	-0.53394007682800	65.000000000000	0.00000000000000
26.829999923706	0.76081705093384	-0.53428941965103	65.000000000000	0.00000000000000
26.840000152588	0.76032918691635	-0.53463870286942	65.000000000000	0.00000000000000
26.850000381470	0.75984019041061	-0.53498798608780	65.000000000000	0.00000000000000
26.860000610352	0.75935018062592	-0.53533697128296	65.000000000000	0.00000000000000
26.870000839233	0.75885915756226	-0.53568601608276	65.000000000000	0.00000000000000
26.879999160767	0.75836700201035	-0.53603500127792	65.000000000000	0.00000000000000
26.889999389648	0.75787359476089	-0.53638380765915	65.000000000000	0.00000000000000
26.899999618530	0.75737923383713	-0.53673267364502	65.000000000000	0.00000000000000
26.909999847412	0.75688374042511	-0.53708124160767	65.000000000000	0.00000000000000
26.920000076294	0.75638717412949	-0.53742986917496	65.000000000000	0.00000000000000
26.930000305176	0.75588935613632	-0.53777831792831	65.000000000000	0.00000000000000
26.940000534058	0.75539064407349	-0.53812664747238	65.000000000000	0.00000000000000
26.950000762939	0.75489073991776	-0.53847491741180	65.000000000000	0.00000000000000
26.959999084473	0.75438964366913	-0.53882306814194	65.000000000000	0.00000000000000
26.969999313354	0.75388753414154	-0.53917109966278	65.000000000000	0.00000000000000
26.979999542236	0.75338423252106	-0.53951901197433	65.000000000000	0.00000000000000
26.989999771118	0.75287985801697	-0.53986680507660	65.000000000000	0.00000000000000
27.000000000000	0.75237435102463	-0.54021453857422	65.000000000000	0.00000000000000
27.010000228882	0.75186771154404	-0.54056209325790	65.000000000000	0.00000000000000
27.020000457764	0.75135993957520	-0.54090952873230	65.000000000000	0.00000000000000
27.030000686646	0.75085115432739	-0.54125690460205	65.000000000000	0.00000000000000
27.040000915527	0.75034105777740	-0.54160410165787	65.000000000000	0.00000000000000
27.049999237061	0.74982994794846	-0.54195111989975	65.000000000000	0.00000000000000
27.059999465942	0.74931764602661	-0.54229813814163	65.000000000000	0.00000000000000
27.069999694824	0.74880427122116	-0.54264497756958	65.000000000000	0.00000000000000
27.079999923706	0.74828976392746	-0.54299157857895	65.000000000000	0.00000000000000
27.090000152588	0.74777412414551	-0.54333811998367	65.000000000000	0.00000000000000
27.100000381470	0.74725729227066	-0.54368454217911	65.000000000000	0.00000000000000
27.110000610352	0.74673920869827	-0.54403078556061	65.000000000000	0.00000000000000
27.120000839233	0.74622017145157	-0.54437685012817	65.000000000000	0.00000000000000
27.129999160767	0.74569988250732	-0.54472291469574	65.000000000000	0.00000000000000
27.139999389648	0.74517846107483	-0.54506874084473	65.000000000000	0.00000000000000
27.149999618530	0.74465584754944	-0.54541438817978	65.000000000000	0.00000000000000
27.159999847412	0.74413204193115	-0.54575997591019	65.000000000000	0.00000000000000
27.170000076294	0.74360716342926	-0.54610526561737	65.000000000000	0.00000000000000
27.180000305176	0.74308115243912	-0.54645049571991	65.000000000000	0.00000000000000
27.190000534058	0.74255394935608	-0.54679554700851	65.000000000000	0.00000000000000
27.200000762939	0.74202549457550	-0.54714035987854	65.000000000000	0.00000000000000
27.209999084473	0.74149584770203	-0.54748511314392	65.000000000000	0.00000000000000
27.219999313354	0.74096518754959	-0.54782962799072	65.000000000000	0.00000000000000
27.229999542236	0.74043315649033	-0.54817396402359	65.000000000000	0.00000000000000
27.239999771118	0.73990011215210	-0.54851818084717	65.000000000000	0.00000000000000
27.250000000000	0.73936587572098	-0.54886221885681	65.000000000000	0.00000000000000
27.260000228882	0.73883044719696	-0.54920613765717	65.000000000000	0.00000000000000
27.270000457764	0.73829376697540	-0.54954975843430	65.000000000000	0.00000000000000
27.280000686646	0.73775595426559	-0.54989326000214	65.000000000000	0.00000000000000
27.290000915527	0.73721683025360	-0.55023658275604	65.000000000000	0.00000000000000
27.299999237061	0.73667669296265	-0.55057966709137	65.000000000000	0.00000000000000
27.309999465942	0.73613524436951	-0.55092263221741	65.000000000000	0.00000000000000
27.319999694824	0.73559266328812	-0.55126529932022	65.000000000000	0.00000000000000
27.329999923706	0.73504877090454	-0.55160784721375	65.000000000000	0.00000000000000
