#Parameters = {d=0.21520100502512; l2=4.3040201005025; lambda=8.608040201005; r=0.029000487437186}
#"Frequency / GHz"	"S1,1 (lambda=8.60804) [Re]"	"S1,1 (lambda=8.60804) [Im]"	"Ref.Imp. [Re]"	"Ref.Imp. [Im]"
#-----------------------------------------------------------------------------------------------------------
25.000000000000	0.56041675806046	-0.62064599990845	65.000000000000	0.00000000000000
25.010000228882	0.55933642387390	-0.62085968255997	65.000000000000	0.00000000000000
25.020000457764	0.55825352668762	-0.62107121944427	65.000000000000	0.00000000000000
25.030000686646	0.55716800689697	-0.62128055095673	65.000000000000	0.00000000000000
25.040000915527	0.55608022212982	-0.62148773670197	65.000000000000	0.00000000000000
25.049999237061	0.55498981475830	-0.62169259786606	65.000000000000	0.00000000000000
25.059999465942	0.55389714241028	-0.62189519405365	65.000000000000	0.00000000000000
25.069999694824	0.55280196666718	-0.62209552526474	65.000000000000	0.00000000000000
25.079999923706	0.55170410871506	-0.62229365110397	65.000000000000	0.00000000000000
25.090000152588	0.55060416460037	-0.62248945236206	65.000000000000	0.00000000000000
25.100000381470	0.54950159788132	-0.62268292903900	65.000000000000	0.00000000000000
25.110000610352	0.54839670658112	-0.62287408113480	65.000000000000	0.00000000000000
25.120000839233	0.54728931188583	-0.62306296825409	65.000000000000	0.00000000000000
25.129999160767	0.54617947340012	-0.62324935197830	65.000000000000	0.00000000000000
25.139999389648	0.54506736993790	-0.62343358993530	65.000000000000	0.00000000000000
25.149999618530	0.54395270347595	-0.62361538410187	65.000000000000	0.00000000000000
25.159999847412	0.54283577203751	-0.62379467487335	65.000000000000	0.00000000000000
25.170000076294	0.54171639680862	-0.62397170066833	65.000000000000	0.00000000000000
25.180000305176	0.54059445858002	-0.62414628267288	65.000000000000	0.00000000000000
25.190000534058	0.53947037458420	-0.62431842088699	65.000000000000	0.00000000000000
25.200000762939	0.53834378719330	-0.62448811531067	65.000000000000	0.00000000000000
25.209999084473	0.53721499443054	-0.62465536594391	65.000000000000	0.00000000000000
25.219999313354	0.53608357906342	-0.62482011318207	65.000000000000	0.00000000000000
25.229999542236	0.53495007753372	-0.62498247623444	65.000000000000	0.00000000000000
25.239999771118	0.53381419181824	-0.62514227628708	65.000000000000	0.00000000000000
25.250000000000	0.53267580270767	-0.62529963254929	65.000000000000	0.00000000000000
25.260000228882	0.53153514862061	-0.62545436620712	65.000000000000	0.00000000000000
25.270000457764	0.53039205074310	-0.62560671567917	65.000000000000	0.00000000000000
25.280000686646	0.52924674749374	-0.62575644254684	65.000000000000	0.00000000000000
25.290000915527	0.52809911966324	-0.62590360641479	65.000000000000	0.00000000000000
25.299999237061	0.52694916725159	-0.62604814767838	65.000000000000	0.00000000000000
25.309999465942	0.52579694986343	-0.62619024515152	65.000000000000	0.00000000000000
25.319999694824	0.52464234828949	-0.62632966041565	65.000000000000	0.00000000000000
25.329999923706	0.52348548173904	-0.62646657228470	65.000000000000	0.00000000000000
25.340000152588	0.52232629060745	-0.62660074234009	65.000000000000	0.00000000000000
25.350000381470	0.52116489410400	-0.62673228979111	65.000000000000	0.00000000000000
25.360000610352	0.52000105381012	-0.62686121463776	65.000000000000	0.00000000000000
25.370000839233	0.51883518695831	-0.62698751688004	65.000000000000	0.00000000000000
25.379999160767	0.51766681671143	-0.62711119651794	65.000000000000	0.00000000000000
25.389999389648	0.51649612188339	-0.62723237276077	65.000000000000	0.00000000000000
25.399999618530	0.51532363891602	-0.62735044956207	65.000000000000	0.00000000000000
25.409999847412	0.51414859294891	-0.62746596336365	65.000000000000	0.00000000000000
25.420000076294	0.51297128200531	-0.62757879495621	65.000000000000	0.00000000000000
25.430000305176	0.51179182529449	-0.62768882513046	65.000000000000	0.00000000000000
25.440000534058	0.51061016321182	-0.62779605388641	65.000000000000	0.00000000000000
25.450000762939	0.50942611694336	-0.62790077924728	65.000000000000	0.00000000000000
25.459999084473	0.50823974609375	-0.62800270318985	65.000000000000	0.00000000000000
25.469999313354	0.50705134868622	-0.62810176610947	65.000000000000	0.00000000000000
25.479999542236	0.50586074590683	-0.62819802761078	65.000000000000	0.00000000000000
25.489999771118	0.50466799736023	-0.62829142808914	65.000000000000	0.00000000000000
25.500000000000	0.50347280502319	-0.62838220596313	65.000000000000	0.00000000000000
25.510000228882	0.50227540731430	-0.62847006320953	65.000000000000	0.00000000000000
25.520000457764	0.50107592344284	-0.62855511903763	65.000000000000	0.00000000000000
25.530000686646	0.49987435340881	-0.62863719463348	65.000000000000	0.00000000000000
25.540000915527	0.49867066740990	-0.62871646881104	65.000000000000	0.00000000000000
25.549999237061	0.49746456742287	-0.62879294157028	65.000000000000	0.00000000000000
25.559999465942	0.49625667929649	-0.62886631488800	65.000000000000	0.00000000000000
25.569999694824	0.49504637718201	-0.62893688678741	65.000000000000	0.00000000000000
25.579999923706	0.49383401870728	-0.62900453805923	65.000000000000	0.00000000000000
25.590000152588	0.49261924624443	-0.62906938791275	65.000000000000	0.00000000000000
25.600000381470	0.49140238761902	-0.62913125753403	65.000000000000	0.00000000000000
25.610000610352	0.49018320441246	-0.62919038534164	65.000000000000	0.00000000000000
25.620000839233	0.48896229267120	-0.62924623489380	65.000000000000	0.00000000000000
25.629999160767	0.48773935437202	-0.62929904460907	65.000000000000	0.00000000000000
25.639999389648	0.48651406168938	-0.62934905290604	65.000000000000	0.00000000000000
25.649999618530	0.48528635501862	-0.62939620018005	65.000000000000	0.00000000000000
25.659999847412	0.48405730724335	-0.62943977117538	65.000000000000	0.00000000000000
25.670000076294	0.48282533884048	-0.62948095798492	65.000000000000	0.00000000000000
25.680000305176	0.48159193992615	-0.62951856851578	65.000000000000	0.00000000000000
25.690000534058	0.48035597801208	-0.62955355644226	65.000000000000	0.00000000000000
25.700000762939	0.47911798954010	-0.62958538532257	65.000000000000	0.00000000000000
25.709999084473	0.47787806391716	-0.62961405515671	65.000000000000	0.00000000000000
25.719999313354	0.47663584351540	-0.62963980436325	65.000000000000	0.00000000000000
25.729999542236	0.47539195418358	-0.62966209650040	65.000000000000	0.00000000000000
25.739999771118	0.47414579987526	-0.62968140840530	65.000000000000	0.00000000000000
25.750000000000	0.47289741039276	-0.62969774007797	65.000000000000	0.00000000000000
25.760000228882	0.47164738178253	-0.62971067428589	65.000000000000	0.00000000000000
25.770000457764	0.47039484977722	-0.62972080707550	65.000000000000	0.00000000000000
25.780000686646	0.46914064884186	-0.62972736358643	65.000000000000	0.00000000000000
25.790000915527	0.46788394451141	-0.62973111867905	65.000000000000	0.00000000000000
25.799999237061	0.46662536263466	-0.62973159551620	65.000000000000	0.00000000000000
25.809999465942	0.46536490321159	-0.62972879409790	65.000000000000	0.00000000000000
25.819999694824	0.46410250663757	-0.62972271442413	65.000000000000	0.00000000000000
25.829999923706	0.46283790469170	-0.62971347570419	65.000000000000	0.00000000000000
25.840000152588	0.46157148480415	-0.62970095872879	65.000000000000	0.00000000000000
25.850000381470	0.46030285954475	-0.62968522310257	65.000000000000	0.00000000000000
25.860000610352	0.45903226733208	-0.62966620922089	65.000000000000	0.00000000000000
25.870000839233	0.45775982737541	-0.62964379787445	65.000000000000	0.00000000000000
25.879999160767	0.45648539066315	-0.62961822748184	65.000000000000	0.00000000000000
25.889999389648	0.45520883798599	-0.62958920001984	65.000000000000	0.00000000000000
25.899999618530	0.45393046736717	-0.62955689430237	65.000000000000	0.00000000000000
25.909999847412	0.45265001058578	-0.62952125072479	65.000000000000	0.00000000000000
25.920000076294	0.45136770606041	-0.62948232889175	65.000000000000	0.00000000000000
25.930000305176	0.45008334517479	-0.62944000959396	65.000000000000	0.00000000000000
25.940000534058	0.44879716634750	-0.62939423322678	65.000000000000	0.00000000000000
25.950000762939	0.44750896096230	-0.62934505939484	65.000000000000	0.00000000000000
25.959999084473	0.44621878862381	-0.62929248809814	65.000000000000	0.00000000000000
25.969999313354	0.44492673873901	-0.62923645973206	65.000000000000	0.00000000000000
25.979999542236	0.44363281130791	-0.62917703390121	65.000000000000	0.00000000000000
25.989999771118	0.44233685731888	-0.62911415100098	65.000000000000	0.00000000000000
26.000000000000	0.44103902578354	-0.62904781103134	65.000000000000	0.00000000000000
26.010000228882	0.43973928689957	-0.62897801399231	65.000000000000	0.00000000000000
26.020000457764	0.43843775987625	-0.62890470027924	65.000000000000	0.00000000000000
26.030000686646	0.43713432550430	-0.62882781028748	65.000000000000	0.00000000000000
26.040000915527	0.43582895398140	-0.62874740362167	65.000000000000	0.00000000000000
26.049999237061	0.43452173471451	-0.62866342067719	65.000000000000	0.00000000000000
26.059999465942	0.43321266770363	-0.62857598066330	65.000000000000	0.00000000000000
26.069999694824	0.43190172314644	-0.62848490476608	65.000000000000	0.00000000000000
26.079999923706	0.43058890104294	-0.62839019298553	65.000000000000	0.00000000000000
26.090000152588	0.42927435040474	-0.62829196453094	65.000000000000	0.00000000000000
26.100000381470	0.42795783281326	-0.62819004058838	65.000000000000	0.00000000000000
26.110000610352	0.42663961648941	-0.62808459997177	65.000000000000	0.00000000000000
26.120000839233	0.42531946301460	-0.62797540426254	65.000000000000	0.00000000000000
26.129999160767	0.42399767041206	-0.62786251306534	65.000000000000	0.00000000000000
26.139999389648	0.42267388105392	-0.62774598598480	65.000000000000	0.00000000000000
26.149999618530	0.42134836316109	-0.62762576341629	65.000000000000	0.00000000000000
26.159999847412	0.42002099752426	-0.62750190496445	65.000000000000	0.00000000000000
26.170000076294	0.41869193315506	-0.62737423181534	65.000000000000	0.00000000000000
26.180000305176	0.41736117005348	-0.62724286317825	65.000000000000	0.00000000000000
26.190000534058	0.41602858901024	-0.62710767984390	65.000000000000	0.00000000000000
26.200000762939	0.41469419002533	-0.62696874141693	65.000000000000	0.00000000000000
26.209999084473	0.41335794329643	-0.62682604789734	65.000000000000	0.00000000000000
26.219999313354	0.41202026605606	-0.62667953968048	65.000000000000	0.00000000000000
26.229999542236	0.41068062186241	-0.62652921676636	65.000000000000	0.00000000000000
26.239999771118	0.40933915972710	-0.62637501955032	65.000000000000	0.00000000000000
26.250000000000	0.40799632668495	-0.62621700763702	65.000000000000	0.00000000000000
26.260000228882	0.40665152668953	-0.62605506181717	65.000000000000	0.00000000000000
26.270000457764	0.40530517697334	-0.62588930130005	65.000000000000	0.00000000000000
26.280000686646	0.40395706892014	-0.62571960687637	65.000000000000	0.00000000000000
26.290000915527	0.40260729193687	-0.62554603815079	65.000000000000	0.00000000000000
26.299999237061	0.40125593543053	-0.62536847591400	65.000000000000	0.00000000000000
26.309999465942	0.39990270137787	-0.62518703937531	65.000000000000	0.00000000000000
26.319999694824	0.39854800701141	-0.62500154972076	65.000000000000	0.00000000000000
26.329999923706	0.39719176292419	-0.62481212615967	65.000000000000	0.00000000000000
26.340000152588	0.39583370089531	-0.62461864948273	65.000000000000	0.00000000000000
26.350000381470	0.39447396993637	-0.62442111968994	65.000000000000	0.00000000000000
26.360000610352	0.39311286807060	-0.62421971559525	65.000000000000	0.00000000000000
26.370000839233	0.39175006747246	-0.62401419878006	65.000000000000	0.00000000000000
26.379999160767	0.39038568735123	-0.62380456924438	65.000000000000	0.00000000000000
26.389999389648	0.38901966810226	-0.62359088659286	65.000000000000	0.00000000000000
26.399999618530	0.38765212893486	-0.62337315082550	65.000000000000	0.00000000000000
26.409999847412	0.38628304004669	-0.62315124273300	65.000000000000	0.00000000000000
26.420000076294	0.38491249084473	-0.62292522192001	65.000000000000	0.00000000000000
26.430000305176	0.38354027271271	-0.62269502878189	65.000000000000	0.00000000000000
26.440000534058	0.38216656446457	-0.62246072292328	65.000000000000	0.00000000000000
26.450000762939	0.38079145550728	-0.62222212553024	65.000000000000	0.00000000000000
26.459999084473	0.37941488623619	-0.62197941541672	65.000000000000	0.00000000000000
26.469999313354	0.37803664803505	-0.62173247337341	65.000000000000	0.00000000000000
26.479999542236	0.37665697932243	-0.62148135900497	65.000000000000	0.00000000000000
26.489999771118	0.37527596950531	-0.62122583389282	65.000000000000	0.00000000000000
26.500000000000	0.37389346957207	-0.62096619606018	65.000000000000	0.00000000000000
26.510000228882	0.37250944972038	-0.62070214748383	65.000000000000	0.00000000000000
26.520000457764	0.37112399935722	-0.62043386697769	65.000000000000	0.00000000000000
26.530000686646	0.36973732709885	-0.62016129493713	65.000000000000	0.00000000000000
26.540000915527	0.36834913492203	-0.61988431215286	65.000000000000	0.00000000000000
26.549999237061	0.36695951223373	-0.61960297822952	65.000000000000	0.00000000000000
26.559999465942	0.36556857824326	-0.61931735277176	65.000000000000	0.00000000000000
26.569999694824	0.36417627334595	-0.61902731657028	65.000000000000	0.00000000000000
26.579999923706	0.36278268694878	-0.61873281002045	65.000000000000	0.00000000000000
26.590000152588	0.36138778924942	-0.61843395233154	65.000000000000	0.00000000000000
26.600000381470	0.35999140143394	-0.61813068389893	65.000000000000	0.00000000000000
26.610000610352	0.35859373211861	-0.61782288551331	65.000000000000	0.00000000000000
26.620000839233	0.35719493031502	-0.61751055717468	65.000000000000	0.00000000000000
26.629999160767	0.35579481720924	-0.61719381809235	65.000000000000	0.00000000000000
26.639999389648	0.35439342260361	-0.61687260866165	65.000000000000	0.00000000000000
26.649999618530	0.35299080610275	-0.61654675006866	65.000000000000	0.00000000000000
26.659999847412	0.35158681869507	-0.61621648073196	65.000000000000	0.00000000000000
26.670000076294	0.35018181800842	-0.61588156223297	65.000000000000	0.00000000000000
26.680000305176	0.34877547621727	-0.61554211378098	65.000000000000	0.00000000000000
26.690000534058	0.34736800193787	-0.61519801616669	65.000000000000	0.00000000000000
26.700000762939	0.34595954418182	-0.61484932899475	65.000000000000	0.00000000000000
26.709999084473	0.34454968571663	-0.61449605226517	65.000000000000	0.00000000000000
26.719999313354	0.34313869476318	-0.61413806676865	65.000000000000	0.00000000000000
26.729999542236	0.34172677993774	-0.61377537250519	65.000000000000	0.00000000000000
26.739999771118	0.34031349420547	-0.61340814828873	65.000000000000	0.00000000000000
26.750000000000	0.33889931440353	-0.61303615570068	65.000000000000	0.00000000000000
26.760000228882	0.33748409152031	-0.61265945434570	65.000000000000	0.00000000000000
26.770000457764	0.33606782555580	-0.61227798461914	65.000000000000	0.00000000000000
26.780000686646	0.33465027809143	-0.61189174652100	65.000000000000	0.00000000000000
26.790000915527	0.33323189616203	-0.61150079965591	65.000000000000	0.00000000000000
26.799999237061	0.33181256055832	-0.61110508441925	65.000000000000	0.00000000000000
26.809999465942	0.33039215207100	-0.61070454120636	65.000000000000	0.00000000000000
26.819999694824	0.32897078990936	-0.61029922962189	65.000000000000	0.00000000000000
26.829999923706	0.32754850387573	-0.60988897085190	65.000000000000	0.00000000000000
26.840000152588	0.32612535357475	-0.60947388410568	65.000000000000	0.00000000000000
26.850000381470	0.32470118999481	-0.60905402898788	65.000000000000	0.00000000000000
26.860000610352	0.32327613234520	-0.60862922668457	65.000000000000	0.00000000000000
26.870000839233	0.32185027003288	-0.60819947719574	65.000000000000	0.00000000000000
26.879999160767	0.32042357325554	-0.60776478052139	65.000000000000	0.00000000000000
26.889999389648	0.31899595260620	-0.60732525587082	65.000000000000	0.00000000000000
26.899999618530	0.31756752729416	-0.60688072443008	65.000000000000	0.00000000000000
26.909999847412	0.31613835692406	-0.60643124580383	65.000000000000	0.00000000000000
26.920000076294	0.31470844149590	-0.60597676038742	65.000000000000	0.00000000000000
26.930000305176	0.31327766180038	-0.60551732778549	65.000000000000	0.00000000000000
26.940000534058	0.31184619665146	-0.60505288839340	65.000000000000	0.00000000000000
26.950000762939	0.31041401624680	-0.60458326339722	65.000000000000	0.00000000000000
26.959999084473	0.30898118019104	-0.60410875082016	65.000000000000	0.00000000000000
26.969999313354	0.30754759907722	-0.60362911224365	65.000000000000	0.00000000000000
26.979999542236	0.30611336231232	-0.60314434766769	65.000000000000	0.00000000000000
26.989999771118	0.30467852950096	-0.60265451669693	65.000000000000	0.00000000000000
27.000000000000	0.30324313044548	-0.60215955972672	65.000000000000	0.00000000000000
27.010000228882	0.30180701613426	-0.60165953636169	65.000000000000	0.00000000000000
27.020000457764	0.30037039518356	-0.60115432739258	65.000000000000	0.00000000000000
27.030000686646	0.29893335700035	-0.60064393281937	65.000000000000	0.00000000000000
27.040000915527	0.29749557375908	-0.60012835264206	65.000000000000	0.00000000000000
27.049999237061	0.29605740308762	-0.59960758686066	65.000000000000	0.00000000000000
27.059999465942	0.29461881518364	-0.59908169507980	65.000000000000	0.00000000000000
27.069999694824	0.29317969083786	-0.59855043888092	65.000000000000	0.00000000000000
27.079999923706	0.29174008965492	-0.59801405668259	65.000000000000	0.00000000000000
27.090000152588	0.29030016064644	-0.59747242927551	65.000000000000	0.00000000000000
27.100000381470	0.28885981440544	-0.59692549705505	65.000000000000	0.00000000000000
27.110000610352	0.28741902112961	-0.59637326002121	65.000000000000	0.00000000000000
27.120000839233	0.28597804903984	-0.59581565856934	65.000000000000	0.00000000000000
27.129999160767	0.28453662991524	-0.59525287151337	65.000000000000	0.00000000000000
27.139999389648	0.28309488296509	-0.59468472003937	65.000000000000	0.00000000000000
27.149999618530	0.28165295720100	-0.59411120414734	65.000000000000	0.00000000000000
27.159999847412	0.28021091222763	-0.59353232383728	65.000000000000	0.00000000000000
27.170000076294	0.27876839041710	-0.59294807910919	65.000000000000	0.00000000000000
27.180000305176	0.27732580900192	-0.59235846996307	65.000000000000	0.00000000000000
27.190000534058	0.27588307857513	-0.59176343679428	65.000000000000	0.00000000000000
27.200000762939	0.27444005012512	-0.59116303920746	65.000000000000	0.00000000000000
27.209999084473	0.27299723029137	-0.59055715799332	65.000000000000	0.00000000000000
27.219999313354	0.27155399322510	-0.58994585275650	65.000000000000	0.00000000000000
27.229999542236	0.27011072635651	-0.58932906389236	65.000000000000	0.00000000000000
27.239999771118	0.26866737008095	-0.58870685100555	65.000000000000	0.00000000000000
27.250000000000	0.26722431182861	-0.58807915449142	65.000000000000	0.00000000000000
27.260000228882	0.26578098535538	-0.58744597434998	65.000000000000	0.00000000000000
27.270000457764	0.26433765888214	-0.58680725097656	65.000000000000	0.00000000000000
27.280000686646	0.26289457082748	-0.58616304397583	65.000000000000	0.00000000000000
27.290000915527	0.26145154237747	-0.58551329374313	65.000000000000	0.00000000000000
27.299999237061	0.26000848412514	-0.58485805988312	65.000000000000	0.00000000000000
27.309999465942	0.25856566429138	-0.58419710397720	65.000000000000	0.00000000000000
27.319999694824	0.25712305307388	-0.58353072404861	65.000000000000	0.00000000000000
27.329999923706	0.25568044185638	-0.58285874128342	65.000000000000	0.00000000000000
