#Parameters = {d=0.24183417085427; l2=4.8366834170854; lambda=9.6733668341709; r=0.032589572864322}
#"Frequency / GHz"	"S1,1 (lambda=9.67337) [Re]"	"S1,1 (lambda=9.67337) [Im]"	"Ref.Imp. [Re]"	"Ref.Imp. [Im]"
#-----------------------------------------------------------------------------------------------------------
25.000000000000	0.15365976095200	-0.51736360788345	65.000000000000	0.00000000000000
25.010000228882	0.15215870738029	-0.51614558696747	65.000000000000	0.00000000000000
25.020000457764	0.15066073834896	-0.51492029428482	65.000000000000	0.00000000000000
25.030000686646	0.14916554093361	-0.51368755102158	65.000000000000	0.00000000000000
25.040000915527	0.14767327904701	-0.51244747638702	65.000000000000	0.00000000000000
25.049999237061	0.14618401229382	-0.51120001077652	65.000000000000	0.00000000000000
25.059999465942	0.14469775557518	-0.50994521379471	65.000000000000	0.00000000000000
25.069999694824	0.14321458339691	-0.50868296623230	65.000000000000	0.00000000000000
25.079999923706	0.14173464477062	-0.50741326808929	65.000000000000	0.00000000000000
25.090000152588	0.14025788009167	-0.50613635778427	65.000000000000	0.00000000000000
25.100000381470	0.13878445327282	-0.50485187768936	65.000000000000	0.00000000000000
25.110000610352	0.13731417059898	-0.50356018543243	65.000000000000	0.00000000000000
25.120000839233	0.13584727048874	-0.50226098299026	65.000000000000	0.00000000000000
25.129999160767	0.13438388705254	-0.50095444917679	65.000000000000	0.00000000000000
25.139999389648	0.13292402029037	-0.49964049458504	65.000000000000	0.00000000000000
25.149999618530	0.13146758079529	-0.49831920862198	65.000000000000	0.00000000000000
25.159999847412	0.13001464307308	-0.49699059128761	65.000000000000	0.00000000000000
25.170000076294	0.12856552004814	-0.49565458297729	65.000000000000	0.00000000000000
25.180000305176	0.12711995840073	-0.49431121349335	65.000000000000	0.00000000000000
25.190000534058	0.12567828595638	-0.49296051263809	65.000000000000	0.00000000000000
25.200000762939	0.12424040585756	-0.49160239100456	65.000000000000	0.00000000000000
25.209999084473	0.12280613929033	-0.49023708701134	65.000000000000	0.00000000000000
25.219999313354	0.12137599289417	-0.48886427283287	65.000000000000	0.00000000000000
25.229999542236	0.11994980275631	-0.48748418688774	65.000000000000	0.00000000000000
25.239999771118	0.11852760612965	-0.48609676957130	65.000000000000	0.00000000000000
25.250000000000	0.11710946261883	-0.48470214009285	65.000000000000	0.00000000000000
25.260000228882	0.11569540202618	-0.48330020904541	65.000000000000	0.00000000000000
25.270000457764	0.11428570002317	-0.48189088702202	65.000000000000	0.00000000000000
25.280000686646	0.11288018524647	-0.48047435283661	65.000000000000	0.00000000000000
25.290000915527	0.11147890239954	-0.47905057668686	65.000000000000	0.00000000000000
25.299999237061	0.11008212715387	-0.47761949896812	65.000000000000	0.00000000000000
25.309999465942	0.10868945717812	-0.47618126869202	65.000000000000	0.00000000000000
25.319999694824	0.10730138421059	-0.47473576664925	65.000000000000	0.00000000000000
25.329999923706	0.10591796785593	-0.47328305244446	65.000000000000	0.00000000000000
25.340000152588	0.10453902184963	-0.47182321548462	65.000000000000	0.00000000000000
25.350000381470	0.10316481441259	-0.47035610675812	65.000000000000	0.00000000000000
25.360000610352	0.10179517418146	-0.46888190507889	65.000000000000	0.00000000000000
25.370000839233	0.10043038427830	-0.46740055084229	65.000000000000	0.00000000000000
25.379999160767	0.099070250988007	-0.46591207385063	65.000000000000	0.00000000000000
25.389999389648	0.097715273499489	-0.46441641449928	65.000000000000	0.00000000000000
25.399999618530	0.096365049481392	-0.46291372179985	65.000000000000	0.00000000000000
25.409999847412	0.095019631087780	-0.46140399575233	65.000000000000	0.00000000000000
25.420000076294	0.093679510056973	-0.45988717675209	65.000000000000	0.00000000000000
25.430000305176	0.092344291508198	-0.45836332440376	65.000000000000	0.00000000000000
25.440000534058	0.091014236211777	-0.45683246850967	65.000000000000	0.00000000000000
25.450000762939	0.089689396321774	-0.45529466867447	65.000000000000	0.00000000000000
25.459999084473	0.088369600474834	-0.45374989509583	65.000000000000	0.00000000000000
25.469999313354	0.087055332958698	-0.45219814777374	65.000000000000	0.00000000000000
25.479999542236	0.085746414959431	-0.45063951611519	65.000000000000	0.00000000000000
25.489999771118	0.084442898631096	-0.44907397031784	65.000000000000	0.00000000000000
25.500000000000	0.083144612610340	-0.44750156998634	65.000000000000	0.00000000000000
25.510000228882	0.081852041184902	-0.44592234492302	65.000000000000	0.00000000000000
25.520000457764	0.080565214157104	-0.44433623552322	65.000000000000	0.00000000000000
25.530000686646	0.079283758997917	-0.44274333119392	65.000000000000	0.00000000000000
25.540000915527	0.078007943928242	-0.44114375114441	65.000000000000	0.00000000000000
25.549999237061	0.076738014817238	-0.43953740596771	65.000000000000	0.00000000000000
25.559999465942	0.075474008917809	-0.43792429566383	65.000000000000	0.00000000000000
25.569999694824	0.074215568602085	-0.43630456924438	65.000000000000	0.00000000000000
25.579999923706	0.072962947189808	-0.43467822670937	65.000000000000	0.00000000000000
25.590000152588	0.071716390550137	-0.43304517865181	65.000000000000	0.00000000000000
25.600000381470	0.070475943386555	-0.43140554428101	65.000000000000	0.00000000000000
25.610000610352	0.069241441786289	-0.42975938320160	65.000000000000	0.00000000000000
25.620000839233	0.068013131618500	-0.42810666561127	65.000000000000	0.00000000000000
25.629999160767	0.066790871322155	-0.42644748091698	65.000000000000	0.00000000000000
25.639999389648	0.065574690699577	-0.42478182911873	65.000000000000	0.00000000000000
25.649999618530	0.064365044236183	-0.42310971021652	65.000000000000	0.00000000000000
25.659999847412	0.063161365687847	-0.42143124341965	65.000000000000	0.00000000000000
25.670000076294	0.061964508146048	-0.41974639892578	65.000000000000	0.00000000000000
25.680000305176	0.060773707926273	-0.41805520653725	65.000000000000	0.00000000000000
25.690000534058	0.059589214622974	-0.41635775566101	65.000000000000	0.00000000000000
25.700000762939	0.058411464095116	-0.41465401649475	65.000000000000	0.00000000000000
25.709999084473	0.057240299880505	-0.41294404864311	65.000000000000	0.00000000000000
25.719999313354	0.056075762957335	-0.41122788190842	65.000000000000	0.00000000000000
25.729999542236	0.054917506873608	-0.40950569510460	65.000000000000	0.00000000000000
25.739999771118	0.053766362369061	-0.40777727961540	65.000000000000	0.00000000000000
25.750000000000	0.052621766924858	-0.40604281425476	65.000000000000	0.00000000000000
25.760000228882	0.051483977586031	-0.40430232882500	65.000000000000	0.00000000000000
25.770000457764	0.050353206694126	-0.40255579352379	65.000000000000	0.00000000000000
25.780000686646	0.049228940159082	-0.40080341696739	65.000000000000	0.00000000000000
25.790000915527	0.048111777752638	-0.39904505014420	65.000000000000	0.00000000000000
25.799999237061	0.047001674771309	-0.39728084206581	65.000000000000	0.00000000000000
25.809999465942	0.045898571610451	-0.39551076292992	65.000000000000	0.00000000000000
25.819999694824	0.044802512973547	-0.39373496174812	65.000000000000	0.00000000000000
25.829999923706	0.043713532388210	-0.39195337891579	65.000000000000	0.00000000000000
25.840000152588	0.042631860822439	-0.39016607403755	65.000000000000	0.00000000000000
25.850000381470	0.041557341814041	-0.38837313652039	65.000000000000	0.00000000000000
25.860000610352	0.040489934384823	-0.38657456636429	65.000000000000	0.00000000000000
25.870000839233	0.039429944008589	-0.38477039337158	65.000000000000	0.00000000000000
25.879999160767	0.038377229124308	-0.38296076655388	65.000000000000	0.00000000000000
25.889999389648	0.037331916391850	-0.38114559650421	65.000000000000	0.00000000000000
25.899999618530	0.036294046789408	-0.37932500243187	65.000000000000	0.00000000000000
25.909999847412	0.035263657569885	-0.37749898433685	65.000000000000	0.00000000000000
25.920000076294	0.034240603446960	-0.37566766142845	65.000000000000	0.00000000000000
25.930000305176	0.033225283026695	-0.37383100390434	65.000000000000	0.00000000000000
25.940000534058	0.032217461615801	-0.37198913097382	65.000000000000	0.00000000000000
25.950000762939	0.031217265874147	-0.37014204263687	65.000000000000	0.00000000000000
25.959999084473	0.030224818736315	-0.36828973889351	65.000000000000	0.00000000000000
25.969999313354	0.029239982366562	-0.36643236875534	65.000000000000	0.00000000000000
25.979999542236	0.028262959793210	-0.36456993222237	65.000000000000	0.00000000000000
25.989999771118	0.027293620631099	-0.36270248889923	65.000000000000	0.00000000000000
26.000000000000	0.026332171633840	-0.36083006858826	65.000000000000	0.00000000000000
26.010000228882	0.025378553196788	-0.35895273089409	65.000000000000	0.00000000000000
26.020000457764	0.024432808160782	-0.35707053542137	65.000000000000	0.00000000000000
26.030000686646	0.023494970053434	-0.35518354177475	65.000000000000	0.00000000000000
26.040000915527	0.022565236315131	-0.35329174995422	65.000000000000	0.00000000000000
26.049999237061	0.021643389016390	-0.35139524936676	65.000000000000	0.00000000000000
26.059999465942	0.020729627460241	-0.34949409961700	65.000000000000	0.00000000000000
26.069999694824	0.019823985174298	-0.34758833050728	65.000000000000	0.00000000000000
26.079999923706	0.018926328048110	-0.34567800164223	65.000000000000	0.00000000000000
26.090000152588	0.018036853522062	-0.34376314282417	65.000000000000	0.00000000000000
26.100000381470	0.017155593261123	-0.34184387326241	65.000000000000	0.00000000000000
26.110000610352	0.016282495111227	-0.33992016315460	65.000000000000	0.00000000000000
26.120000839233	0.015417672693729	-0.33799213171005	65.000000000000	0.00000000000000
26.129999160767	0.014561073854566	-0.33605977892876	65.000000000000	0.00000000000000
26.139999389648	0.013712811283767	-0.33412319421768	65.000000000000	0.00000000000000
26.149999618530	0.012872911989689	-0.33218240737915	65.000000000000	0.00000000000000
26.159999847412	0.012041250243783	-0.33023753762245	65.000000000000	0.00000000000000
26.170000076294	0.011218167841434	-0.32828849554062	65.000000000000	0.00000000000000
26.180000305176	0.010403380729258	-0.32633551955223	65.000000000000	0.00000000000000
26.190000534058	0.0095970742404461	-0.32437852025032	65.000000000000	0.00000000000000
26.200000762939	0.0087991990149021	-0.32241764664650	65.000000000000	0.00000000000000
26.209999084473	0.0080098602920771	-0.32045289874077	65.000000000000	0.00000000000000
26.219999313354	0.0072291595861316	-0.31848430633545	65.000000000000	0.00000000000000
26.229999542236	0.0064568975940347	-0.31651198863983	65.000000000000	0.00000000000000
26.239999771118	0.0056932535953820	-0.31453600525856	65.000000000000	0.00000000000000
26.250000000000	0.0049382518045604	-0.31255635619164	65.000000000000	0.00000000000000
26.260000228882	0.0041917725466192	-0.31057316064835	65.000000000000	0.00000000000000
26.270000457764	0.0034541366621852	-0.30858641862869	65.000000000000	0.00000000000000
26.280000686646	0.0027250740677118	-0.30659624934196	65.000000000000	0.00000000000000
26.290000915527	0.0020047579891980	-0.30460262298584	65.000000000000	0.00000000000000
26.299999237061	0.0012931408127770	-0.30260565876961	65.000000000000	0.00000000000000
26.309999465942	0.00059031957061961	-0.30060541629791	65.000000000000	0.00000000000000
26.319999694824	-0.00010375322017353	-0.29860192537308	65.000000000000	0.00000000000000
26.329999923706	-0.00078898196807131	-0.29659524559975	65.000000000000	0.00000000000000
26.340000152588	-0.0014654839178547	-0.29458549618721	65.000000000000	0.00000000000000
26.350000381470	-0.0021330940071493	-0.29257264733315	65.000000000000	0.00000000000000
26.360000610352	-0.0027917900588363	-0.29055681824684	65.000000000000	0.00000000000000
26.370000839233	-0.0034416182897985	-0.28853800892830	65.000000000000	0.00000000000000
26.379999160767	-0.0040826238691807	-0.28651636838913	65.000000000000	0.00000000000000
26.389999389648	-0.0047146477736533	-0.28449183702469	65.000000000000	0.00000000000000
26.399999618530	-0.0053377356380224	-0.28246459364891	65.000000000000	0.00000000000000
26.409999847412	-0.0059518651105464	-0.28043460845947	65.000000000000	0.00000000000000
26.420000076294	-0.0065570818260312	-0.27840200066566	65.000000000000	0.00000000000000
26.430000305176	-0.0071532297879457	-0.27636677026749	65.000000000000	0.00000000000000
26.440000534058	-0.0077404859475791	-0.27432900667191	65.000000000000	0.00000000000000
26.450000762939	-0.0083186319097877	-0.27228879928589	65.000000000000	0.00000000000000
26.459999084473	-0.0088877780362964	-0.27024620771408	65.000000000000	0.00000000000000
26.469999313354	-0.0094479033723474	-0.26820120215416	65.000000000000	0.00000000000000
26.479999542236	-0.0099988589063287	-0.26615393161774	65.000000000000	0.00000000000000
26.489999771118	-0.010540879331529	-0.26410445570946	65.000000000000	0.00000000000000
26.500000000000	-0.011073753237724	-0.26205277442932	65.000000000000	0.00000000000000
26.510000228882	-0.011597524397075	-0.25999894738197	65.000000000000	0.00000000000000
26.520000457764	-0.012112234719098	-0.25794312357903	65.000000000000	0.00000000000000
26.530000686646	-0.012617802247405	-0.25588530302048	65.000000000000	0.00000000000000
26.540000915527	-0.013114207424223	-0.25382551550865	65.000000000000	0.00000000000000
26.549999237061	-0.013601552695036	-0.25176388025284	65.000000000000	0.00000000000000
26.559999465942	-0.014079697430134	-0.24970044195652	65.000000000000	0.00000000000000
26.569999694824	-0.014548623003066	-0.24763524532318	65.000000000000	0.00000000000000
26.579999923706	-0.015008489601314	-0.24556833505630	65.000000000000	0.00000000000000
26.590000152588	-0.015459099784493	-0.24349978566170	65.000000000000	0.00000000000000
26.600000381470	-0.015900610014796	-0.24142967164516	65.000000000000	0.00000000000000
26.610000610352	-0.016332825645804	-0.23935808241367	65.000000000000	0.00000000000000
26.620000839233	-0.016755960881710	-0.23728500306606	65.000000000000	0.00000000000000
26.629999160767	-0.017169879749417	-0.23521052300930	65.000000000000	0.00000000000000
26.639999389648	-0.017574565485120	-0.23313474655151	65.000000000000	0.00000000000000
26.649999618530	-0.017969997599721	-0.23105768859386	65.000000000000	0.00000000000000
26.659999847412	-0.018356326967478	-0.22897940874100	65.000000000000	0.00000000000000
26.670000076294	-0.018733363598585	-0.22689999639988	65.000000000000	0.00000000000000
26.680000305176	-0.019101204350591	-0.22481948137283	65.000000000000	0.00000000000000
26.690000534058	-0.019459823146462	-0.22273792326450	65.000000000000	0.00000000000000
26.700000762939	-0.019809257239103	-0.22065541148186	65.000000000000	0.00000000000000
26.709999084473	-0.020149435847998	-0.21857199072838	65.000000000000	0.00000000000000
26.719999313354	-0.020480336621404	-0.21648770570755	65.000000000000	0.00000000000000
26.729999542236	-0.020802047103643	-0.21440263092518	65.000000000000	0.00000000000000
26.739999771118	-0.021114546805620	-0.21231682598591	65.000000000000	0.00000000000000
26.750000000000	-0.021417861804366	-0.21023035049438	65.000000000000	0.00000000000000
26.760000228882	-0.021711876615882	-0.20814327895641	65.000000000000	0.00000000000000
26.770000457764	-0.021996719762683	-0.20605562627316	65.000000000000	0.00000000000000
26.780000686646	-0.022272314876318	-0.20396748185158	65.000000000000	0.00000000000000
26.790000915527	-0.022538747638464	-0.20187893509865	65.000000000000	0.00000000000000
26.799999237061	-0.022795891389251	-0.19978997111320	65.000000000000	0.00000000000000
26.809999465942	-0.023043876513839	-0.19770072400570	65.000000000000	0.00000000000000
26.819999694824	-0.023282622918487	-0.19561120867729	65.000000000000	0.00000000000000
26.829999923706	-0.023512164130807	-0.19352148473263	65.000000000000	0.00000000000000
26.840000152588	-0.023732563480735	-0.19143162667751	65.000000000000	0.00000000000000
26.850000381470	-0.023943707346916	-0.18934170901775	65.000000000000	0.00000000000000
26.860000610352	-0.024145754054189	-0.18725174665451	65.000000000000	0.00000000000000
26.870000839233	-0.024338539689779	-0.18516182899475	65.000000000000	0.00000000000000
26.879999160767	-0.024522176012397	-0.18307200074196	65.000000000000	0.00000000000000
26.889999389648	-0.024696676060557	-0.18098232150078	65.000000000000	0.00000000000000
26.899999618530	-0.024861976504326	-0.17889286577702	65.000000000000	0.00000000000000
26.909999847412	-0.025018125772476	-0.17680366337299	65.000000000000	0.00000000000000
26.920000076294	-0.025165187194943	-0.17471481859684	65.000000000000	0.00000000000000
26.930000305176	-0.025303082540631	-0.17262631654739	65.000000000000	0.00000000000000
26.940000534058	-0.025431867688894	-0.17053827643394	65.000000000000	0.00000000000000
26.950000762939	-0.025551551952958	-0.16845074295998	65.000000000000	0.00000000000000
26.959999084473	-0.025662139058113	-0.16636374592781	65.000000000000	0.00000000000000
26.969999313354	-0.025763597339392	-0.16427737474442	65.000000000000	0.00000000000000
26.979999542236	-0.025856046006083	-0.16219165921211	65.000000000000	0.00000000000000
26.989999771118	-0.025939410552382	-0.16010668873787	65.000000000000	0.00000000000000
27.000000000000	-0.026013692840934	-0.15802250802517	65.000000000000	0.00000000000000
27.010000228882	-0.026078961789608	-0.15593914687634	65.000000000000	0.00000000000000
27.020000457764	-0.026135249063373	-0.15385667979717	65.000000000000	0.00000000000000
27.030000686646	-0.026182442903519	-0.15177516639233	65.000000000000	0.00000000000000
27.040000915527	-0.026220710948110	-0.14969466626644	65.000000000000	0.00000000000000
27.049999237061	-0.026249933987856	-0.14761520922184	65.000000000000	0.00000000000000
27.059999465942	-0.026270207017660	-0.14553686976433	65.000000000000	0.00000000000000
27.069999694824	-0.026281582191586	-0.14345972239971	65.000000000000	0.00000000000000
27.079999923706	-0.026283966377378	-0.14138379693031	65.000000000000	0.00000000000000
27.090000152588	-0.026277473196387	-0.13930915296078	65.000000000000	0.00000000000000
27.100000381470	-0.026262044906616	-0.13723585009575	65.000000000000	0.00000000000000
27.110000610352	-0.026237780228257	-0.13516390323639	65.000000000000	0.00000000000000
27.120000839233	-0.026204612106085	-0.13309343159199	65.000000000000	0.00000000000000
27.129999160767	-0.026162603870034	-0.13102443516254	65.000000000000	0.00000000000000
27.139999389648	-0.026111768558621	-0.12895700335503	65.000000000000	0.00000000000000
27.149999618530	-0.026052130386233	-0.12689118087292	65.000000000000	0.00000000000000
27.159999847412	-0.025983661413193	-0.12482699006796	65.000000000000	0.00000000000000
27.170000076294	-0.025906458497047	-0.12276452034712	65.000000000000	0.00000000000000
27.180000305176	-0.025820491835475	-0.12070381641388	65.000000000000	0.00000000000000
27.190000534058	-0.025725783780217	-0.11864493042231	65.000000000000	0.00000000000000
27.200000762939	-0.025622397661209	-0.11658789962530	65.000000000000	0.00000000000000
27.209999084473	-0.025510288774967	-0.11453278362751	65.000000000000	0.00000000000000
27.219999313354	-0.025389537215233	-0.11247964203358	65.000000000000	0.00000000000000
27.229999542236	-0.025260126218200	-0.11042851954699	65.000000000000	0.00000000000000
27.239999771118	-0.025122094899416	-0.10837947577238	65.000000000000	0.00000000000000
27.250000000000	-0.024975463747978	-0.10633254796267	65.000000000000	0.00000000000000
27.260000228882	-0.024820266291499	-0.10428778082132	65.000000000000	0.00000000000000
27.270000457764	-0.024656506255269	-0.10224524140358	65.000000000000	0.00000000000000
27.280000686646	-0.024484215304255	-0.10020496696234	65.000000000000	0.00000000000000
27.290000915527	-0.024303421378136	-0.098167024552822	65.000000000000	0.00000000000000
