#Parameters = {d=0.1785175879397; l2=3.5703517587939; lambda=7.1407035175879; r=0.024057030150754}
#"Frequency / GHz"	"S1,1 (lambda=7.1407) [Re]"	"S1,1 (lambda=7.1407) [Im]"	"Ref.Imp. [Re]"	"Ref.Imp. [Im]"
#---------------------------------------------------------------------------------------------------------
25.000000000000	0.84288561344147	-0.46126392483711	65.000000000000	0.00000000000000
25.010000228882	0.84258210659027	-0.46159678697586	65.000000000000	0.00000000000000
25.020000457764	0.84227788448334	-0.46192979812622	65.000000000000	0.00000000000000
25.030000686646	0.84197294712067	-0.46226295828819	65.000000000000	0.00000000000000
25.040000915527	0.84166747331619	-0.46259632706642	65.000000000000	0.00000000000000
25.049999237061	0.84136116504669	-0.46292975544930	65.000000000000	0.00000000000000
25.059999465942	0.84105432033539	-0.46326339244843	65.000000000000	0.00000000000000
25.069999694824	0.84074681997299	-0.46359711885452	65.000000000000	0.00000000000000
25.079999923706	0.84043860435486	-0.46393102407455	65.000000000000	0.00000000000000
25.090000152588	0.84012979269028	-0.46426507830620	65.000000000000	0.00000000000000
25.100000381470	0.83982038497925	-0.46459922194481	65.000000000000	0.00000000000000
25.110000610352	0.83951014280319	-0.46493360400200	65.000000000000	0.00000000000000
25.120000839233	0.83919936418533	-0.46526804566383	65.000000000000	0.00000000000000
25.129999160767	0.83888781070709	-0.46560263633728	65.000000000000	0.00000000000000
25.139999389648	0.83857560157776	-0.46593737602234	65.000000000000	0.00000000000000
25.149999618530	0.83826279640198	-0.46627226471901	65.000000000000	0.00000000000000
25.159999847412	0.83794933557510	-0.46660730242729	65.000000000000	0.00000000000000
25.170000076294	0.83763504028320	-0.46694242954254	65.000000000000	0.00000000000000
25.180000305176	0.83732020854950	-0.46727773547173	65.000000000000	0.00000000000000
25.190000534058	0.83700460195541	-0.46761316061020	65.000000000000	0.00000000000000
25.200000762939	0.83668845891953	-0.46794870495796	65.000000000000	0.00000000000000
25.209999084473	0.83637136220932	-0.46828439831734	65.000000000000	0.00000000000000
25.219999313354	0.83605384826660	-0.46862033009529	65.000000000000	0.00000000000000
25.229999542236	0.83573555946350	-0.46895623207092	65.000000000000	0.00000000000000
25.239999771118	0.83541667461395	-0.46929237246513	65.000000000000	0.00000000000000
25.250000000000	0.83509695529938	-0.46962863206863	65.000000000000	0.00000000000000
25.260000228882	0.83477663993835	-0.46996501088142	65.000000000000	0.00000000000000
25.270000457764	0.83445554971695	-0.47030150890350	65.000000000000	0.00000000000000
25.280000686646	0.83413380384445	-0.47063815593719	65.000000000000	0.00000000000000
25.290000915527	0.83381140232086	-0.47097495198250	65.000000000000	0.00000000000000
25.299999237061	0.83348834514618	-0.47131183743477	65.000000000000	0.00000000000000
25.309999465942	0.83316445350647	-0.47164890170097	65.000000000000	0.00000000000000
25.319999694824	0.83284002542496	-0.47198608517647	65.000000000000	0.00000000000000
25.329999923706	0.83251476287842	-0.47232335805893	65.000000000000	0.00000000000000
25.340000152588	0.83218878507614	-0.47266077995300	65.000000000000	0.00000000000000
25.350000381470	0.83186221122742	-0.47299832105637	65.000000000000	0.00000000000000
25.360000610352	0.83153492212296	-0.47333601117134	65.000000000000	0.00000000000000
25.370000839233	0.83120685815811	-0.47367382049561	65.000000000000	0.00000000000000
25.379999160767	0.83087807893753	-0.47401171922684	65.000000000000	0.00000000000000
25.389999389648	0.83054876327515	-0.47434985637665	65.000000000000	0.00000000000000
25.399999618530	0.83021849393845	-0.47468799352646	65.000000000000	0.00000000000000
25.409999847412	0.82988762855530	-0.47502633929253	65.000000000000	0.00000000000000
25.420000076294	0.82955604791641	-0.47536477446556	65.000000000000	0.00000000000000
25.430000305176	0.82922375202179	-0.47570335865021	65.000000000000	0.00000000000000
25.440000534058	0.82889074087143	-0.47604200243950	65.000000000000	0.00000000000000
25.450000762939	0.82855695486069	-0.47638082504272	65.000000000000	0.00000000000000
25.459999084473	0.82822251319885	-0.47671973705292	65.000000000000	0.00000000000000
25.469999313354	0.82788735628128	-0.47705879807472	65.000000000000	0.00000000000000
25.479999542236	0.82755136489868	-0.47739797830582	65.000000000000	0.00000000000000
25.489999771118	0.82721471786499	-0.47773730754852	65.000000000000	0.00000000000000
25.500000000000	0.82687741518021	-0.47807663679123	65.000000000000	0.00000000000000
25.510000228882	0.82653927803040	-0.47841623425484	65.000000000000	0.00000000000000
25.520000457764	0.82620042562485	-0.47875586152077	65.000000000000	0.00000000000000
25.530000686646	0.82586079835892	-0.47909563779831	65.000000000000	0.00000000000000
25.540000915527	0.82552051544189	-0.47943553328514	65.000000000000	0.00000000000000
25.549999237061	0.82517963647842	-0.47977563738823	65.000000000000	0.00000000000000
25.559999465942	0.82483792304993	-0.48011553287506	65.000000000000	0.00000000000000
25.569999694824	0.82449513673782	-0.48045620322227	65.000000000000	0.00000000000000
25.579999923706	0.82415217161179	-0.48079609870911	65.000000000000	0.00000000000000
25.590000152588	0.82380801439285	-0.48113670945168	65.000000000000	0.00000000000000
25.600000381470	0.82346349954605	-0.48147699236870	65.000000000000	0.00000000000000
25.610000610352	0.82311803102493	-0.48181760311127	65.000000000000	0.00000000000000
25.620000839233	0.82277166843414	-0.48215863108635	65.000000000000	0.00000000000000
25.629999160767	0.82242453098297	-0.48249962925911	65.000000000000	0.00000000000000
25.639999389648	0.82207685709000	-0.48284065723419	65.000000000000	0.00000000000000
25.649999618530	0.82172846794128	-0.48318159580231	65.000000000000	0.00000000000000
25.659999847412	0.82137918472290	-0.48352298140526	65.000000000000	0.00000000000000
25.670000076294	0.82102906703949	-0.48386427760124	65.000000000000	0.00000000000000
25.680000305176	0.82067823410034	-0.48420599102974	65.000000000000	0.00000000000000
25.690000534058	0.82032686471939	-0.48454722762108	65.000000000000	0.00000000000000
25.700000762939	0.81997460126877	-0.48488888144493	65.000000000000	0.00000000000000
25.709999084473	0.81962156295776	-0.48523047566414	65.000000000000	0.00000000000000
25.719999313354	0.81926774978638	-0.48557248711586	65.000000000000	0.00000000000000
25.729999542236	0.81891316175461	-0.48591437935829	65.000000000000	0.00000000000000
25.739999771118	0.81855762004852	-0.48625668883324	65.000000000000	0.00000000000000
25.750000000000	0.81820148229599	-0.48659896850586	65.000000000000	0.00000000000000
25.760000228882	0.81784456968307	-0.48694118857384	65.000000000000	0.00000000000000
25.770000457764	0.81748700141907	-0.48728337883949	65.000000000000	0.00000000000000
25.780000686646	0.81712853908539	-0.48762592673302	65.000000000000	0.00000000000000
25.790000915527	0.81676930189133	-0.48796838521957	65.000000000000	0.00000000000000
25.799999237061	0.81640923023224	-0.48831102252007	65.000000000000	0.00000000000000
25.809999465942	0.81604844331741	-0.48865377902985	65.000000000000	0.00000000000000
25.819999694824	0.81568682193756	-0.48899659514427	65.000000000000	0.00000000000000
25.829999923706	0.81532454490662	-0.48933956027031	65.000000000000	0.00000000000000
25.840000152588	0.81496131420135	-0.48968258500099	65.000000000000	0.00000000000000
25.850000381470	0.81459730863571	-0.49002569913864	65.000000000000	0.00000000000000
25.860000610352	0.81423270702362	-0.49036893248558	65.000000000000	0.00000000000000
25.870000839233	0.81386703252792	-0.49071228504181	65.000000000000	0.00000000000000
25.879999160767	0.81350082159042	-0.49105566740036	65.000000000000	0.00000000000000
25.889999389648	0.81313371658325	-0.49139922857285	65.000000000000	0.00000000000000
25.899999618530	0.81276577711105	-0.49174281954765	65.000000000000	0.00000000000000
25.909999847412	0.81239706277847	-0.49208647012711	65.000000000000	0.00000000000000
25.920000076294	0.81202757358551	-0.49243018031120	65.000000000000	0.00000000000000
25.930000305176	0.81165707111359	-0.49277409911156	65.000000000000	0.00000000000000
25.940000534058	0.81128603219986	-0.49311801791191	65.000000000000	0.00000000000000
25.950000762939	0.81091409921646	-0.49346208572388	65.000000000000	0.00000000000000
25.959999084473	0.81054139137268	-0.49380621314049	65.000000000000	0.00000000000000
25.969999313354	0.81016772985458	-0.49415037035942	65.000000000000	0.00000000000000
25.979999542236	0.80979341268539	-0.49449461698532	65.000000000000	0.00000000000000
25.989999771118	0.80941820144653	-0.49483898282051	65.000000000000	0.00000000000000
26.000000000000	0.80904209613800	-0.49518337845802	65.000000000000	0.00000000000000
26.010000228882	0.80866533517838	-0.49552795290947	65.000000000000	0.00000000000000
26.020000457764	0.80828768014908	-0.49587249755859	65.000000000000	0.00000000000000
26.030000686646	0.80790913105011	-0.49621719121933	65.000000000000	0.00000000000000
26.040000915527	0.80752980709076	-0.49656191468239	65.000000000000	0.00000000000000
26.049999237061	0.80714970827103	-0.49690672755241	65.000000000000	0.00000000000000
26.059999465942	0.80676871538162	-0.49725165963173	65.000000000000	0.00000000000000
26.069999694824	0.80638694763184	-0.49759659171104	65.000000000000	0.00000000000000
26.079999923706	0.80600428581238	-0.49794161319733	65.000000000000	0.00000000000000
26.090000152588	0.80562084913254	-0.49828675389290	65.000000000000	0.00000000000000
26.100000381470	0.80523657798767	-0.49863189458847	65.000000000000	0.00000000000000
26.110000610352	0.80485147237778	-0.49897712469101	65.000000000000	0.00000000000000
26.120000839233	0.80446535348892	-0.49932247400284	65.000000000000	0.00000000000000
26.129999160767	0.80407851934433	-0.49966785311699	65.000000000000	0.00000000000000
26.139999389648	0.80369096994400	-0.50001335144043	65.000000000000	0.00000000000000
26.149999618530	0.80330240726471	-0.50035881996155	65.000000000000	0.00000000000000
26.159999847412	0.80291301012039	-0.50070440769196	65.000000000000	0.00000000000000
26.170000076294	0.80252289772034	-0.50104999542236	65.000000000000	0.00000000000000
26.180000305176	0.80213171243668	-0.50139570236206	65.000000000000	0.00000000000000
26.190000534058	0.80173975229263	-0.50174152851105	65.000000000000	0.00000000000000
26.200000762939	0.80134707689285	-0.50208735466003	65.000000000000	0.00000000000000
26.209999084473	0.80095338821411	-0.50243312120438	65.000000000000	0.00000000000000
26.219999313354	0.80055886507034	-0.50277912616730	65.000000000000	0.00000000000000
26.229999542236	0.80016344785690	-0.50312513113022	65.000000000000	0.00000000000000
26.239999771118	0.79976731538773	-0.50347125530243	65.000000000000	0.00000000000000
26.250000000000	0.79937011003494	-0.50381726026535	65.000000000000	0.00000000000000
26.260000228882	0.79897212982178	-0.50416344404221	65.000000000000	0.00000000000000
26.270000457764	0.79857331514359	-0.50450962781906	65.000000000000	0.00000000000000
26.280000686646	0.79817366600037	-0.50485593080521	65.000000000000	0.00000000000000
26.290000915527	0.79777306318283	-0.50520217418671	65.000000000000	0.00000000000000
26.299999237061	0.79737168550491	-0.50554859638214	65.000000000000	0.00000000000000
26.309999465942	0.79696917533875	-0.50589495897293	65.000000000000	0.00000000000000
26.319999694824	0.79656600952148	-0.50624144077301	65.000000000000	0.00000000000000
26.329999923706	0.79616189002991	-0.50658792257309	65.000000000000	0.00000000000000
26.340000152588	0.79575693607330	-0.50693446397781	65.000000000000	0.00000000000000
26.350000381470	0.79535108804703	-0.50728100538254	65.000000000000	0.00000000000000
26.360000610352	0.79494422674179	-0.50762766599655	65.000000000000	0.00000000000000
26.370000839233	0.79453659057617	-0.50797438621521	65.000000000000	0.00000000000000
26.379999160767	0.79412800073624	-0.50832092761993	65.000000000000	0.00000000000000
26.389999389648	0.79371857643127	-0.50866770744324	65.000000000000	0.00000000000000
26.399999618530	0.79330825805664	-0.50901454687119	65.000000000000	0.00000000000000
26.409999847412	0.79289698600769	-0.50936132669449	65.000000000000	0.00000000000000
26.420000076294	0.79248493909836	-0.50970816612244	65.000000000000	0.00000000000000
26.430000305176	0.79207181930542	-0.51005506515503	65.000000000000	0.00000000000000
26.440000534058	0.79165798425674	-0.51040190458298	65.000000000000	0.00000000000000
26.450000762939	0.79124301671982	-0.51074880361557	65.000000000000	0.00000000000000
26.459999084473	0.79082721471786	-0.51109588146210	65.000000000000	0.00000000000000
26.469999313354	0.79041057825089	-0.51144284009933	65.000000000000	0.00000000000000
26.479999542236	0.78999298810959	-0.51178991794586	65.000000000000	0.00000000000000
26.489999771118	0.78957432508469	-0.51213693618774	65.000000000000	0.00000000000000
26.500000000000	0.78915494680405	-0.51248395442963	65.000000000000	0.00000000000000
26.510000228882	0.78873461484909	-0.51283103227615	65.000000000000	0.00000000000000
26.520000457764	0.78831332921982	-0.51317816972733	65.000000000000	0.00000000000000
26.530000686646	0.78789120912552	-0.51352524757385	65.000000000000	0.00000000000000
26.540000915527	0.78746807575226	-0.51387238502502	65.000000000000	0.00000000000000
26.549999237061	0.78704392910004	-0.51421958208084	65.000000000000	0.00000000000000
26.559999465942	0.78661888837814	-0.51456671953201	65.000000000000	0.00000000000000
26.569999694824	0.78619301319122	-0.51491397619247	65.000000000000	0.00000000000000
26.579999923706	0.78576618432999	-0.51526111364365	65.000000000000	0.00000000000000
26.590000152588	0.78533834218979	-0.51560837030411	65.000000000000	0.00000000000000
26.600000381470	0.78490960597992	-0.51595562696457	65.000000000000	0.00000000000000
26.610000610352	0.78447991609573	-0.51630282402039	65.000000000000	0.00000000000000
26.620000839233	0.78404933214188	-0.51665002107620	65.000000000000	0.00000000000000
26.629999160767	0.78361779451370	-0.51699727773666	65.000000000000	0.00000000000000
26.639999389648	0.78318530321121	-0.51734447479248	65.000000000000	0.00000000000000
26.649999618530	0.78275179862976	-0.51769173145294	65.000000000000	0.00000000000000
26.659999847412	0.78231728076935	-0.51803910732269	65.000000000000	0.00000000000000
26.670000076294	0.78188210725784	-0.51838630437851	65.000000000000	0.00000000000000
26.680000305176	0.78144562244415	-0.51873350143433	65.000000000000	0.00000000000000
26.690000534058	0.78100848197937	-0.51908075809479	65.000000000000	0.00000000000000
26.700000762939	0.78057003021240	-0.51942801475525	65.000000000000	0.00000000000000
26.709999084473	0.78013086318970	-0.51977521181107	65.000000000000	0.00000000000000
26.719999313354	0.77969074249268	-0.52012240886688	65.000000000000	0.00000000000000
26.729999542236	0.77924960851669	-0.52046960592270	65.000000000000	0.00000000000000
26.739999771118	0.77880752086639	-0.52081686258316	65.000000000000	0.00000000000000
26.750000000000	0.77836441993713	-0.52116400003433	65.000000000000	0.00000000000000
26.760000228882	0.77792030572891	-0.52151125669479	65.000000000000	0.00000000000000
26.770000457764	0.77747535705566	-0.52185833454132	65.000000000000	0.00000000000000
26.780000686646	0.77702927589417	-0.52220547199249	65.000000000000	0.00000000000000
26.790000915527	0.77658224105835	-0.52255266904831	65.000000000000	0.00000000000000
26.799999237061	0.77613431215286	-0.52289968729019	65.000000000000	0.00000000000000
26.809999465942	0.77568531036377	-0.52324676513672	65.000000000000	0.00000000000000
26.819999694824	0.77523541450500	-0.52359384298325	65.000000000000	0.00000000000000
26.829999923706	0.77478444576263	-0.52394080162048	65.000000000000	0.00000000000000
26.840000152588	0.77433246374130	-0.52428781986237	65.000000000000	0.00000000000000
26.850000381470	0.77387964725494	-0.52463477849960	65.000000000000	0.00000000000000
26.860000610352	0.77342563867569	-0.52498173713684	65.000000000000	0.00000000000000
26.870000839233	0.77297079563141	-0.52532869577408	65.000000000000	0.00000000000000
26.879999160767	0.77251493930817	-0.52567553520203	65.000000000000	0.00000000000000
26.889999389648	0.77205789089203	-0.52602237462997	65.000000000000	0.00000000000000
26.899999618530	0.77160006761551	-0.52636915445328	65.000000000000	0.00000000000000
26.909999847412	0.77114117145538	-0.52671581506729	65.000000000000	0.00000000000000
26.920000076294	0.77068114280701	-0.52706259489059	65.000000000000	0.00000000000000
26.930000305176	0.77022022008896	-0.52740925550461	65.000000000000	0.00000000000000
26.940000534058	0.76975828409195	-0.52775591611862	65.000000000000	0.00000000000000
26.950000762939	0.76929521560669	-0.52810251712799	65.000000000000	0.00000000000000
26.959999084473	0.76883125305176	-0.52844905853271	65.000000000000	0.00000000000000
26.969999313354	0.76836627721786	-0.52879548072815	65.000000000000	0.00000000000000
26.979999542236	0.76790022850037	-0.52914196252823	65.000000000000	0.00000000000000
26.989999771118	0.76743310689926	-0.52948832511902	65.000000000000	0.00000000000000
27.000000000000	0.76696509122849	-0.52983462810516	65.000000000000	0.00000000000000
27.010000228882	0.76649594306946	-0.53018087148666	65.000000000000	0.00000000000000
27.020000457764	0.76602572202682	-0.53052711486816	65.000000000000	0.00000000000000
27.030000686646	0.76555454730988	-0.53087323904037	65.000000000000	0.00000000000000
27.040000915527	0.76508241891861	-0.53121930360794	65.000000000000	0.00000000000000
27.049999237061	0.76460909843445	-0.53156530857086	65.000000000000	0.00000000000000
27.059999465942	0.76413482427597	-0.53191125392914	65.000000000000	0.00000000000000
27.069999694824	0.76365947723389	-0.53225713968277	65.000000000000	0.00000000000000
27.079999923706	0.76318299770355	-0.53260296583176	65.000000000000	0.00000000000000
27.090000152588	0.76270568370819	-0.53294873237610	65.000000000000	0.00000000000000
27.100000381470	0.76222723722458	-0.53329437971115	65.000000000000	0.00000000000000
27.110000610352	0.76174765825272	-0.53363996744156	65.000000000000	0.00000000000000
27.120000839233	0.76126712560654	-0.53398543596268	65.000000000000	0.00000000000000
27.129999160767	0.76078534126282	-0.53433090448380	65.000000000000	0.00000000000000
27.139999389648	0.76030266284943	-0.53467625379562	65.000000000000	0.00000000000000
27.149999618530	0.75981891155243	-0.53502148389816	65.000000000000	0.00000000000000
27.159999847412	0.75933402776718	-0.53536671400070	65.000000000000	0.00000000000000
27.170000076294	0.75884819030762	-0.53571176528931	65.000000000000	0.00000000000000
27.180000305176	0.75836127996445	-0.53605681657791	65.000000000000	0.00000000000000
27.190000534058	0.75787317752838	-0.53640162944794	65.000000000000	0.00000000000000
27.200000762939	0.75738418102264	-0.53674644231796	65.000000000000	0.00000000000000
27.209999084473	0.75689399242401	-0.53709119558334	65.000000000000	0.00000000000000
27.219999313354	0.75640273094177	-0.53743577003479	65.000000000000	0.00000000000000
27.229999542236	0.75591033697128	-0.53778028488159	65.000000000000	0.00000000000000
27.239999771118	0.75541698932648	-0.53812474012375	65.000000000000	0.00000000000000
27.250000000000	0.75492244958878	-0.53846901655197	65.000000000000	0.00000000000000
27.260000228882	0.75442689657211	-0.53881323337555	65.000000000000	0.00000000000000
27.270000457764	0.75393027067184	-0.53915733098984	65.000000000000	0.00000000000000
27.280000686646	0.75343257188797	-0.53950130939484	65.000000000000	0.00000000000000
27.290000915527	0.75293362140656	-0.53984516859055	65.000000000000	0.00000000000000
27.299999237061	0.75243365764618	-0.54018896818161	65.000000000000	0.00000000000000
27.309999465942	0.75193268060684	-0.54053264856339	65.000000000000	0.00000000000000
27.319999694824	0.75143057107925	-0.54087609052658	65.000000000000	0.00000000000000
27.329999923706	0.75092732906342	-0.54121953248978	65.000000000000	0.00000000000000
