#Parameters = {d=0.18304020100502; l2=3.6608040201005; lambda=7.321608040201; r=0.024666497487437}
#"Frequency / GHz"	"S1,1 (lambda=7.32161) [Re]"	"S1,1 (lambda=7.32161) [Im]"	"Ref.Imp. [Re]"	"Ref.Imp. [Im]"
#-----------------------------------------------------------------------------------------------------------
25.000000000000	0.82250356674194	-0.48236721754074	65.000000000000	0.00000000000000
25.010000228882	0.82214683294296	-0.48271682858467	65.000000000000	0.00000000000000
25.020000457764	0.82178956270218	-0.48306655883789	65.000000000000	0.00000000000000
25.030000686646	0.82143145799637	-0.48341649770737	65.000000000000	0.00000000000000
25.040000915527	0.82107239961624	-0.48376640677452	65.000000000000	0.00000000000000
25.049999237061	0.82071274518967	-0.48411652445793	65.000000000000	0.00000000000000
25.059999465942	0.82035219669342	-0.48446667194366	65.000000000000	0.00000000000000
25.069999694824	0.81999087333679	-0.48481687903404	65.000000000000	0.00000000000000
25.079999923706	0.81962865591049	-0.48516726493835	65.000000000000	0.00000000000000
25.090000152588	0.81926572322845	-0.48551771044731	65.000000000000	0.00000000000000
25.100000381470	0.81890201568604	-0.48586830496788	65.000000000000	0.00000000000000
25.110000610352	0.81853747367859	-0.48621892929077	65.000000000000	0.00000000000000
25.120000839233	0.81817209720612	-0.48656967282295	65.000000000000	0.00000000000000
25.129999160767	0.81780582666397	-0.48692053556442	65.000000000000	0.00000000000000
25.139999389648	0.81743890047073	-0.48727151751518	65.000000000000	0.00000000000000
25.149999618530	0.81707119941711	-0.48762252926826	65.000000000000	0.00000000000000
25.159999847412	0.81670248508453	-0.48797369003296	65.000000000000	0.00000000000000
25.170000076294	0.81633317470551	-0.48832488059998	65.000000000000	0.00000000000000
25.180000305176	0.81596291065216	-0.48867619037628	65.000000000000	0.00000000000000
25.190000534058	0.81559181213379	-0.48902764916420	65.000000000000	0.00000000000000
25.200000762939	0.81521999835968	-0.48937916755676	65.000000000000	0.00000000000000
25.209999084473	0.81484735012054	-0.48973074555397	65.000000000000	0.00000000000000
25.219999313354	0.81447368860245	-0.49008244276047	65.000000000000	0.00000000000000
25.229999542236	0.81409937143326	-0.49043425917625	65.000000000000	0.00000000000000
25.239999771118	0.81372421979904	-0.49078607559204	65.000000000000	0.00000000000000
25.250000000000	0.81334817409515	-0.49113801121712	65.000000000000	0.00000000000000
25.260000228882	0.81297141313553	-0.49149006605148	65.000000000000	0.00000000000000
25.270000457764	0.81259369850159	-0.49184218049049	65.000000000000	0.00000000000000
25.280000686646	0.81221520900726	-0.49219444394112	65.000000000000	0.00000000000000
25.290000915527	0.81183570623398	-0.49254676699638	65.000000000000	0.00000000000000
25.299999237061	0.81145560741425	-0.49289911985397	65.000000000000	0.00000000000000
25.309999465942	0.81107449531555	-0.49325162172318	65.000000000000	0.00000000000000
25.319999694824	0.81069260835648	-0.49360412359238	65.000000000000	0.00000000000000
25.329999923706	0.81030994653702	-0.49395680427551	65.000000000000	0.00000000000000
25.340000152588	0.80992627143860	-0.49430945515633	65.000000000000	0.00000000000000
25.350000381470	0.80954200029373	-0.49466234445572	65.000000000000	0.00000000000000
25.360000610352	0.80915671586990	-0.49501514434814	65.000000000000	0.00000000000000
25.370000839233	0.80877053737640	-0.49536812305450	65.000000000000	0.00000000000000
25.379999160767	0.80838364362717	-0.49572113156319	65.000000000000	0.00000000000000
25.389999389648	0.80799573659897	-0.49607428908348	65.000000000000	0.00000000000000
25.399999618530	0.80760705471039	-0.49642744660378	65.000000000000	0.00000000000000
25.409999847412	0.80721741914749	-0.49678069353104	65.000000000000	0.00000000000000
25.420000076294	0.80682706832886	-0.49713405966759	65.000000000000	0.00000000000000
25.430000305176	0.80643570423126	-0.49748742580414	65.000000000000	0.00000000000000
25.440000534058	0.80604356527328	-0.49784094095230	65.000000000000	0.00000000000000
25.450000762939	0.80565047264099	-0.49819451570511	65.000000000000	0.00000000000000
25.459999084473	0.80525660514832	-0.49854809045792	65.000000000000	0.00000000000000
25.469999313354	0.80486190319061	-0.49890178442001	65.000000000000	0.00000000000000
25.479999542236	0.80446618795395	-0.49925556778908	65.000000000000	0.00000000000000
25.489999771118	0.80406975746155	-0.49960941076279	65.000000000000	0.00000000000000
25.500000000000	0.80367219448090	-0.49996328353882	65.000000000000	0.00000000000000
25.510000228882	0.80327385663986	-0.50031733512878	65.000000000000	0.00000000000000
25.520000457764	0.80287474393845	-0.50067132711411	65.000000000000	0.00000000000000
25.530000686646	0.80247467756271	-0.50102537870407	65.000000000000	0.00000000000000
25.540000915527	0.80207377672195	-0.50137960910797	65.000000000000	0.00000000000000
25.549999237061	0.80167198181152	-0.50173360109329	65.000000000000	0.00000000000000
25.559999465942	0.80126899480820	-0.50208830833435	65.000000000000	0.00000000000000
25.569999694824	0.80086570978165	-0.50244212150574	65.000000000000	0.00000000000000
25.579999923706	0.80046093463898	-0.50279688835144	65.000000000000	0.00000000000000
25.590000152588	0.80005562305450	-0.50315111875534	65.000000000000	0.00000000000000
25.600000381470	0.79964929819107	-0.50350558757782	65.000000000000	0.00000000000000
25.610000610352	0.79924207925797	-0.50386035442352	65.000000000000	0.00000000000000
25.620000839233	0.79883366823196	-0.50421524047852	65.000000000000	0.00000000000000
25.629999160767	0.79842478036880	-0.50456964969635	65.000000000000	0.00000000000000
25.639999389648	0.79801493883133	-0.50492429733276	65.000000000000	0.00000000000000
25.649999618530	0.79760402441025	-0.50527912378311	65.000000000000	0.00000000000000
25.659999847412	0.79719203710556	-0.50563412904739	65.000000000000	0.00000000000000
25.670000076294	0.79677933454514	-0.50598901510239	65.000000000000	0.00000000000000
25.680000305176	0.79636585712433	-0.50634372234344	65.000000000000	0.00000000000000
25.690000534058	0.79595106840134	-0.50669896602631	65.000000000000	0.00000000000000
25.700000762939	0.79553556442261	-0.50705415010452	65.000000000000	0.00000000000000
25.709999084473	0.79511928558350	-0.50740903615952	65.000000000000	0.00000000000000
25.719999313354	0.79470187425613	-0.50776416063309	65.000000000000	0.00000000000000
25.729999542236	0.79428374767303	-0.50811916589737	65.000000000000	0.00000000000000
25.739999771118	0.79386460781097	-0.50847429037094	65.000000000000	0.00000000000000
25.750000000000	0.79344439506531	-0.50882965326309	65.000000000000	0.00000000000000
25.760000228882	0.79302346706390	-0.50918483734131	65.000000000000	0.00000000000000
25.770000457764	0.79260140657425	-0.50954014062881	65.000000000000	0.00000000000000
25.780000686646	0.79217833280563	-0.50989568233490	65.000000000000	0.00000000000000
25.790000915527	0.79175448417664	-0.51025092601776	65.000000000000	0.00000000000000
25.799999237061	0.79132962226868	-0.51060640811920	65.000000000000	0.00000000000000
25.809999465942	0.79090374708176	-0.51096183061600	65.000000000000	0.00000000000000
25.819999694824	0.79047703742981	-0.51131731271744	65.000000000000	0.00000000000000
25.829999923706	0.79004937410355	-0.51167279481888	65.000000000000	0.00000000000000
25.840000152588	0.78962063789368	-0.51202845573425	65.000000000000	0.00000000000000
25.850000381470	0.78919118642807	-0.51238393783569	65.000000000000	0.00000000000000
25.860000610352	0.78876042366028	-0.51273959875107	65.000000000000	0.00000000000000
25.870000839233	0.78832894563675	-0.51309520006180	65.000000000000	0.00000000000000
25.879999160767	0.78789639472961	-0.51345086097717	65.000000000000	0.00000000000000
25.889999389648	0.78746306896210	-0.51380646228790	65.000000000000	0.00000000000000
25.899999618530	0.78702855110168	-0.51416218280792	65.000000000000	0.00000000000000
25.909999847412	0.78659319877625	-0.51451790332794	65.000000000000	0.00000000000000
25.920000076294	0.78615683317184	-0.51487368345261	65.000000000000	0.00000000000000
25.930000305176	0.78571933507919	-0.51522946357727	65.000000000000	0.00000000000000
25.940000534058	0.78528100252151	-0.51558512449265	65.000000000000	0.00000000000000
25.950000762939	0.78484165668488	-0.51594096422195	65.000000000000	0.00000000000000
25.959999084473	0.78440135717392	-0.51629674434662	65.000000000000	0.00000000000000
25.969999313354	0.78396016359329	-0.51665246486664	65.000000000000	0.00000000000000
25.979999542236	0.78351783752441	-0.51700836420059	65.000000000000	0.00000000000000
25.989999771118	0.78307461738586	-0.51736414432526	65.000000000000	0.00000000000000
26.000000000000	0.78263026475906	-0.51771998405457	65.000000000000	0.00000000000000
26.010000228882	0.78218501806259	-0.51807576417923	65.000000000000	0.00000000000000
26.020000457764	0.78173881769180	-0.51843160390854	65.000000000000	0.00000000000000
26.030000686646	0.78129136562347	-0.51878750324249	65.000000000000	0.00000000000000
26.040000915527	0.78084319829941	-0.51914328336716	65.000000000000	0.00000000000000
26.049999237061	0.78039389848709	-0.51949912309647	65.000000000000	0.00000000000000
26.059999465942	0.77994364500046	-0.51985490322113	65.000000000000	0.00000000000000
26.069999694824	0.77949237823486	-0.52021080255508	65.000000000000	0.00000000000000
26.079999923706	0.77903997898102	-0.52056658267975	65.000000000000	0.00000000000000
26.090000152588	0.77858662605286	-0.52092236280441	65.000000000000	0.00000000000000
26.100000381470	0.77813237905502	-0.52127820253372	65.000000000000	0.00000000000000
26.110000610352	0.77767699956894	-0.52163398265839	65.000000000000	0.00000000000000
26.120000839233	0.77722054719925	-0.52198970317841	65.000000000000	0.00000000000000
26.129999160767	0.77676314115524	-0.52234548330307	65.000000000000	0.00000000000000
26.139999389648	0.77630466222763	-0.52270126342773	65.000000000000	0.00000000000000
26.149999618530	0.77584522962570	-0.52305692434311	65.000000000000	0.00000000000000
26.159999847412	0.77538478374481	-0.52341264486313	65.000000000000	0.00000000000000
26.170000076294	0.77492320537567	-0.52376830577850	65.000000000000	0.00000000000000
26.180000305176	0.77446055412292	-0.52412402629852	65.000000000000	0.00000000000000
26.190000534058	0.77399706840515	-0.52447968721390	65.000000000000	0.00000000000000
26.200000762939	0.77353239059448	-0.52483528852463	65.000000000000	0.00000000000000
26.209999084473	0.77306658029556	-0.52519083023071	65.000000000000	0.00000000000000
26.219999313354	0.77259993553162	-0.52554637193680	65.000000000000	0.00000000000000
26.229999542236	0.77213203907013	-0.52590191364288	65.000000000000	0.00000000000000
26.239999771118	0.77166324853897	-0.52625739574432	65.000000000000	0.00000000000000
26.250000000000	0.77119332551956	-0.52661287784576	65.000000000000	0.00000000000000
26.260000228882	0.77072232961655	-0.52696824073792	65.000000000000	0.00000000000000
26.270000457764	0.77025032043457	-0.52732366323471	65.000000000000	0.00000000000000
26.280000686646	0.76977723836899	-0.52767896652222	65.000000000000	0.00000000000000
26.290000915527	0.76930308341980	-0.52803426980972	65.000000000000	0.00000000000000
26.299999237061	0.76882791519165	-0.52838951349258	65.000000000000	0.00000000000000
26.309999465942	0.76835149526596	-0.52874469757080	65.000000000000	0.00000000000000
26.319999694824	0.76787412166595	-0.52909982204437	65.000000000000	0.00000000000000
26.329999923706	0.76739567518234	-0.52945494651794	65.000000000000	0.00000000000000
26.340000152588	0.76691615581512	-0.52980995178223	65.000000000000	0.00000000000000
26.350000381470	0.76643556356430	-0.53016495704651	65.000000000000	0.00000000000000
26.360000610352	0.76595383882523	-0.53051990270615	65.000000000000	0.00000000000000
26.370000839233	0.76547110080719	-0.53087484836578	65.000000000000	0.00000000000000
26.379999160767	0.76498723030090	-0.53122961521149	65.000000000000	0.00000000000000
26.389999389648	0.76450234651566	-0.53158438205719	65.000000000000	0.00000000000000
26.399999618530	0.76401633024216	-0.53193908929825	65.000000000000	0.00000000000000
26.409999847412	0.76352924108505	-0.53229367733002	65.000000000000	0.00000000000000
26.420000076294	0.76304101943970	-0.53264826536179	65.000000000000	0.00000000000000
26.430000305176	0.76255166530609	-0.53300273418427	65.000000000000	0.00000000000000
26.440000534058	0.76206123828888	-0.53335708379745	65.000000000000	0.00000000000000
26.450000762939	0.76156961917877	-0.53371149301529	65.000000000000	0.00000000000000
26.459999084473	0.76107698678970	-0.53406572341919	65.000000000000	0.00000000000000
26.469999313354	0.76058322191238	-0.53441989421844	65.000000000000	0.00000000000000
26.479999542236	0.76008844375610	-0.53477400541306	65.000000000000	0.00000000000000
26.489999771118	0.75959253311157	-0.53512799739838	65.000000000000	0.00000000000000
26.500000000000	0.75909525156021	-0.53548192977905	65.000000000000	0.00000000000000
26.510000228882	0.75859713554382	-0.53583574295044	65.000000000000	0.00000000000000
26.520000457764	0.75809770822525	-0.53618955612183	65.000000000000	0.00000000000000
26.530000686646	0.75759720802307	-0.53654319047928	65.000000000000	0.00000000000000
26.540000915527	0.75709569454193	-0.53689670562744	65.000000000000	0.00000000000000
26.549999237061	0.75659298896790	-0.53725022077560	65.000000000000	0.00000000000000
26.559999465942	0.75608909130096	-0.53760355710983	65.000000000000	0.00000000000000
26.569999694824	0.75558412075043	-0.53795683383942	65.000000000000	0.00000000000000
26.579999923706	0.75507801771164	-0.53831005096436	65.000000000000	0.00000000000000
26.590000152588	0.75457066297531	-0.53866308927536	65.000000000000	0.00000000000000
26.600000381470	0.75406223535538	-0.53901600837708	65.000000000000	0.00000000000000
26.610000610352	0.75355273485184	-0.53936886787415	65.000000000000	0.00000000000000
26.620000839233	0.75304198265076	-0.53972154855728	65.000000000000	0.00000000000000
26.629999160767	0.75253015756607	-0.54007422924042	65.000000000000	0.00000000000000
26.639999389648	0.75201708078384	-0.54042667150497	65.000000000000	0.00000000000000
26.649999618530	0.75150293111801	-0.54077911376953	65.000000000000	0.00000000000000
26.659999847412	0.75098758935928	-0.54113131761551	65.000000000000	0.00000000000000
26.670000076294	0.75047117471695	-0.54148340225220	65.000000000000	0.00000000000000
26.680000305176	0.74995356798172	-0.54183536767960	65.000000000000	0.00000000000000
26.690000534058	0.74943470954895	-0.54218727350235	65.000000000000	0.00000000000000
26.700000762939	0.74891477823257	-0.54253900051117	65.000000000000	0.00000000000000
26.709999084473	0.74839353561401	-0.54289060831070	65.000000000000	0.00000000000000
26.719999313354	0.74787116050720	-0.54324209690094	65.000000000000	0.00000000000000
26.729999542236	0.74734771251678	-0.54359340667725	65.000000000000	0.00000000000000
26.739999771118	0.74682289361954	-0.54394459724426	65.000000000000	0.00000000000000
26.750000000000	0.74629712104797	-0.54429566860199	65.000000000000	0.00000000000000
26.760000228882	0.74577009677887	-0.54464650154114	65.000000000000	0.00000000000000
26.770000457764	0.74524188041687	-0.54499733448029	65.000000000000	0.00000000000000
26.780000686646	0.74471247196198	-0.54534786939621	65.000000000000	0.00000000000000
26.790000915527	0.74418181180954	-0.54569828510284	65.000000000000	0.00000000000000
26.799999237061	0.74365001916885	-0.54604858160019	65.000000000000	0.00000000000000
26.809999465942	0.74311703443527	-0.54639869928360	65.000000000000	0.00000000000000
26.819999694824	0.74258273839951	-0.54674863815308	65.000000000000	0.00000000000000
26.829999923706	0.74204730987549	-0.54709851741791	65.000000000000	0.00000000000000
26.840000152588	0.74151074886322	-0.54744815826416	65.000000000000	0.00000000000000
26.850000381470	0.74097287654877	-0.54779756069183	65.000000000000	0.00000000000000
26.860000610352	0.74043399095535	-0.54814684391022	65.000000000000	0.00000000000000
26.870000839233	0.73989367485046	-0.54849600791931	65.000000000000	0.00000000000000
26.879999160767	0.73935216665268	-0.54884487390518	65.000000000000	0.00000000000000
26.889999389648	0.73880958557129	-0.54919362068176	65.000000000000	0.00000000000000
26.899999618530	0.73826563358307	-0.54954224824905	65.000000000000	0.00000000000000
26.909999847412	0.73772060871124	-0.54989051818848	65.000000000000	0.00000000000000
26.920000076294	0.73717427253723	-0.55023878812790	65.000000000000	0.00000000000000
26.930000305176	0.73662662506104	-0.55058676004410	65.000000000000	0.00000000000000
26.940000534058	0.73607790470123	-0.55093461275101	65.000000000000	0.00000000000000
26.950000762939	0.73552787303925	-0.55128216743469	65.000000000000	0.00000000000000
26.959999084473	0.73497664928436	-0.55162960290909	65.000000000000	0.00000000000000
26.969999313354	0.73442405462265	-0.55197679996490	65.000000000000	0.00000000000000
26.979999542236	0.73387044668198	-0.55232375860214	65.000000000000	0.00000000000000
26.989999771118	0.73331540822983	-0.55267059803009	65.000000000000	0.00000000000000
27.000000000000	0.73275917768478	-0.55301713943481	65.000000000000	0.00000000000000
27.010000228882	0.73220175504684	-0.55336356163025	65.000000000000	0.00000000000000
27.020000457764	0.73164302110672	-0.55370974540710	65.000000000000	0.00000000000000
27.030000686646	0.73108309507370	-0.55405557155609	65.000000000000	0.00000000000000
27.040000915527	0.73052173852921	-0.55440127849579	65.000000000000	0.00000000000000
27.049999237061	0.72995942831039	-0.55474674701691	65.000000000000	0.00000000000000
27.059999465942	0.72939562797546	-0.55509209632874	65.000000000000	0.00000000000000
27.069999694824	0.72883057594299	-0.55543702840805	65.000000000000	0.00000000000000
27.079999923706	0.72826433181763	-0.55578184127808	65.000000000000	0.00000000000000
27.090000152588	0.72769677639008	-0.55612641572952	65.000000000000	0.00000000000000
27.100000381470	0.72712796926498	-0.55647063255310	65.000000000000	0.00000000000000
27.110000610352	0.72655791044235	-0.55681478977203	65.000000000000	0.00000000000000
27.120000839233	0.72598659992218	-0.55715847015381	65.000000000000	0.00000000000000
27.129999160767	0.72541391849518	-0.55750209093094	65.000000000000	0.00000000000000
27.139999389648	0.72484004497528	-0.55784541368484	65.000000000000	0.00000000000000
27.149999618530	0.72426486015320	-0.55818843841553	65.000000000000	0.00000000000000
27.159999847412	0.72368842363358	-0.55853128433228	65.000000000000	0.00000000000000
27.170000076294	0.72311061620712	-0.55887371301651	65.000000000000	0.00000000000000
27.180000305176	0.72253149747849	-0.55921596288681	65.000000000000	0.00000000000000
27.190000534058	0.72195124626160	-0.55955791473389	65.000000000000	0.00000000000000
27.200000762939	0.72136950492859	-0.55989974737167	65.000000000000	0.00000000000000
27.209999084473	0.72078663110733	-0.56024116277695	65.000000000000	0.00000000000000
27.219999313354	0.72020232677460	-0.56058233976364	65.000000000000	0.00000000000000
27.229999542236	0.71961683034897	-0.56092321872711	65.000000000000	0.00000000000000
27.239999771118	0.71903002262115	-0.56126379966736	65.000000000000	0.00000000000000
27.250000000000	0.71844172477722	-0.56160408258438	65.000000000000	0.00000000000000
27.260000228882	0.71785235404968	-0.56194406747818	65.000000000000	0.00000000000000
27.270000457764	0.71726161241531	-0.56228387355804	65.000000000000	0.00000000000000
27.280000686646	0.71666949987411	-0.56262320280075	65.000000000000	0.00000000000000
27.290000915527	0.71607607603073	-0.56296241283417	65.000000000000	0.00000000000000
27.299999237061	0.71548134088516	-0.56330120563507	65.000000000000	0.00000000000000
27.309999465942	0.71488523483276	-0.56363970041275	65.000000000000	0.00000000000000
27.319999694824	0.71428775787354	-0.56397783756256	65.000000000000	0.00000000000000
27.329999923706	0.71368908882141	-0.56431573629379	65.000000000000	0.00000000000000
