#Parameters = {d=0.19962311557789; l2=3.9924623115578; lambda=7.9849246231156; r=0.026901211055276}
#"Frequency / GHz"	"S1,1 (lambda=7.98492) [Re]"	"S1,1 (lambda=7.98492) [Im]"	"Ref.Imp. [Re]"	"Ref.Imp. [Im]"
#-----------------------------------------------------------------------------------------------------------
25.000000000000	0.71685886383057	-0.56218403577805	65.000000000000	0.00000000000000
25.010000228882	0.71622157096863	-0.56255245208740	65.000000000000	0.00000000000000
25.020000457764	0.71558254957199	-0.56292068958282	65.000000000000	0.00000000000000
25.030000686646	0.71494197845459	-0.56328868865967	65.000000000000	0.00000000000000
25.040000915527	0.71429979801178	-0.56365644931793	65.000000000000	0.00000000000000
25.049999237061	0.71365606784821	-0.56402403116226	65.000000000000	0.00000000000000
25.059999465942	0.71301072835922	-0.56439143419266	65.000000000000	0.00000000000000
25.069999694824	0.71236360073090	-0.56475865840912	65.000000000000	0.00000000000000
25.079999923706	0.71171510219574	-0.56512564420700	65.000000000000	0.00000000000000
25.090000152588	0.71106481552124	-0.56549233198166	65.000000000000	0.00000000000000
25.100000381470	0.71041280031204	-0.56585890054703	65.000000000000	0.00000000000000
25.110000610352	0.70975935459137	-0.56622511148453	65.000000000000	0.00000000000000
25.120000839233	0.70910418033600	-0.56659114360809	65.000000000000	0.00000000000000
25.129999160767	0.70844721794128	-0.56695687770844	65.000000000000	0.00000000000000
25.139999389648	0.70778870582581	-0.56732243299484	65.000000000000	0.00000000000000
25.149999618530	0.70712852478027	-0.56768763065338	65.000000000000	0.00000000000000
25.159999847412	0.70646679401398	-0.56805258989334	65.000000000000	0.00000000000000
25.170000076294	0.70580321550369	-0.56841731071472	65.000000000000	0.00000000000000
25.180000305176	0.70513796806335	-0.56878167390823	65.000000000000	0.00000000000000
25.190000534058	0.70447099208832	-0.56914573907852	65.000000000000	0.00000000000000
25.200000762939	0.70380246639252	-0.56950950622559	65.000000000000	0.00000000000000
25.209999084473	0.70313215255737	-0.56987297534943	65.000000000000	0.00000000000000
25.219999313354	0.70246011018753	-0.57023614645004	65.000000000000	0.00000000000000
25.229999542236	0.70178639888763	-0.57059895992279	65.000000000000	0.00000000000000
25.239999771118	0.70111101865768	-0.57096141576767	65.000000000000	0.00000000000000
25.250000000000	0.70043373107910	-0.57132357358932	65.000000000000	0.00000000000000
25.260000228882	0.69975483417511	-0.57168531417847	65.000000000000	0.00000000000000
25.270000457764	0.69907426834106	-0.57204675674438	65.000000000000	0.00000000000000
25.280000686646	0.69839191436768	-0.57240790128708	65.000000000000	0.00000000000000
25.290000915527	0.69770783185959	-0.57276856899261	65.000000000000	0.00000000000000
25.299999237061	0.69702202081680	-0.57312881946564	65.000000000000	0.00000000000000
25.309999465942	0.69633442163467	-0.57348877191544	65.000000000000	0.00000000000000
25.319999694824	0.69564503431320	-0.57384824752808	65.000000000000	0.00000000000000
25.329999923706	0.69495403766632	-0.57420742511749	65.000000000000	0.00000000000000
25.340000152588	0.69426113367081	-0.57456606626511	65.000000000000	0.00000000000000
25.350000381470	0.69356650114059	-0.57492440938950	65.000000000000	0.00000000000000
25.360000610352	0.69287002086639	-0.57528221607208	65.000000000000	0.00000000000000
25.370000839233	0.69217193126678	-0.57563966512680	65.000000000000	0.00000000000000
25.379999160767	0.69147187471390	-0.57599669694901	65.000000000000	0.00000000000000
25.389999389648	0.69077014923096	-0.57635319232941	65.000000000000	0.00000000000000
25.399999618530	0.69006663560867	-0.57670921087265	65.000000000000	0.00000000000000
25.409999847412	0.68936133384705	-0.57706487178802	65.000000000000	0.00000000000000
25.420000076294	0.68865424394608	-0.57741999626160	65.000000000000	0.00000000000000
25.430000305176	0.68794524669647	-0.57777452468872	65.000000000000	0.00000000000000
25.440000534058	0.68723452091217	-0.57812869548798	65.000000000000	0.00000000000000
25.450000762939	0.68652206659317	-0.57848232984543	65.000000000000	0.00000000000000
25.459999084473	0.68580764532089	-0.57883548736572	65.000000000000	0.00000000000000
25.469999313354	0.68509143590927	-0.57918840646744	65.000000000000	0.00000000000000
25.479999542236	0.68437367677689	-0.57954019308090	65.000000000000	0.00000000000000
25.489999771118	0.68365383148193	-0.57989192008972	65.000000000000	0.00000000000000
25.500000000000	0.68293219804764	-0.58024299144745	65.000000000000	0.00000000000000
25.510000228882	0.68220895528793	-0.58059316873550	65.000000000000	0.00000000000000
25.520000457764	0.68148368597031	-0.58094316720963	65.000000000000	0.00000000000000
25.530000686646	0.68075656890869	-0.58129251003265	65.000000000000	0.00000000000000
25.540000915527	0.68002760410309	-0.58164131641388	65.000000000000	0.00000000000000
25.549999237061	0.67929685115814	-0.58198952674866	65.000000000000	0.00000000000000
25.559999465942	0.67856425046921	-0.58233714103699	65.000000000000	0.00000000000000
25.569999694824	0.67782986164093	-0.58268415927887	65.000000000000	0.00000000000000
25.579999923706	0.67709350585938	-0.58303052186966	65.000000000000	0.00000000000000
25.590000152588	0.67635548114777	-0.58337634801865	65.000000000000	0.00000000000000
25.600000381470	0.67561548948288	-0.58372139930725	65.000000000000	0.00000000000000
25.610000610352	0.67487365007401	-0.58406585454941	65.000000000000	0.00000000000000
25.620000839233	0.67413002252579	-0.58440977334976	65.000000000000	0.00000000000000
25.629999160767	0.67338460683823	-0.58475291728973	65.000000000000	0.00000000000000
25.639999389648	0.67263698577881	-0.58509570360184	65.000000000000	0.00000000000000
25.649999618530	0.67188751697540	-0.58543783426285	65.000000000000	0.00000000000000
25.659999847412	0.67113637924194	-0.58577895164490	65.000000000000	0.00000000000000
25.670000076294	0.67038357257843	-0.58611941337585	65.000000000000	0.00000000000000
25.680000305176	0.66962850093842	-0.58645945787430	65.000000000000	0.00000000000000
25.690000534058	0.66887193918228	-0.58679848909378	65.000000000000	0.00000000000000
25.700000762939	0.66811311244965	-0.58713710308075	65.000000000000	0.00000000000000
25.709999084473	0.66735279560089	-0.58747464418411	65.000000000000	0.00000000000000
25.719999313354	0.66659033298492	-0.58781182765961	65.000000000000	0.00000000000000
25.729999542236	0.66582602262497	-0.58814823627472	65.000000000000	0.00000000000000
25.739999771118	0.66506010293961	-0.58848357200623	65.000000000000	0.00000000000000
25.750000000000	0.66429197788239	-0.58881849050522	65.000000000000	0.00000000000000
25.760000228882	0.66352176666260	-0.58915293216705	65.000000000000	0.00000000000000
25.770000457764	0.66275018453598	-0.58948594331741	65.000000000000	0.00000000000000
25.780000686646	0.66197651624680	-0.58981847763062	65.000000000000	0.00000000000000
25.790000915527	0.66120082139969	-0.59015035629272	65.000000000000	0.00000000000000
25.799999237061	0.66042321920395	-0.59048134088516	65.000000000000	0.00000000000000
25.809999465942	0.65964388847351	-0.59081161022186	65.000000000000	0.00000000000000
25.819999694824	0.65886253118515	-0.59114098548889	65.000000000000	0.00000000000000
25.829999923706	0.65807944536209	-0.59146952629089	65.000000000000	0.00000000000000
25.840000152588	0.65729433298111	-0.59179735183716	65.000000000000	0.00000000000000
25.850000381470	0.65650737285614	-0.59212428331375	65.000000000000	0.00000000000000
25.860000610352	0.65571850538254	-0.59245043992996	65.000000000000	0.00000000000000
25.870000839233	0.65492761135101	-0.59277570247650	65.000000000000	0.00000000000000
25.879999160767	0.65413492918015	-0.59310013055801	65.000000000000	0.00000000000000
25.889999389648	0.65334033966064	-0.59342366456985	65.000000000000	0.00000000000000
25.899999618530	0.65254384279251	-0.59374636411667	65.000000000000	0.00000000000000
25.909999847412	0.65174537897110	-0.59406816959381	65.000000000000	0.00000000000000
25.920000076294	0.65094500780106	-0.59438920021057	65.000000000000	0.00000000000000
25.930000305176	0.65014278888702	-0.59470921754837	65.000000000000	0.00000000000000
25.940000534058	0.64933860301971	-0.59502840042114	65.000000000000	0.00000000000000
25.950000762939	0.64853250980377	-0.59534662961960	65.000000000000	0.00000000000000
25.959999084473	0.64772439002991	-0.59566390514374	65.000000000000	0.00000000000000
25.969999313354	0.64691460132599	-0.59598040580750	65.000000000000	0.00000000000000
25.979999542236	0.64610260725021	-0.59629589319229	65.000000000000	0.00000000000000
25.989999771118	0.64528888463974	-0.59661042690277	65.000000000000	0.00000000000000
26.000000000000	0.64447331428528	-0.59692400693893	65.000000000000	0.00000000000000
26.010000228882	0.64365565776825	-0.59723669290543	65.000000000000	0.00000000000000
26.020000457764	0.64283609390259	-0.59754842519760	65.000000000000	0.00000000000000
26.030000686646	0.64201456308365	-0.59785914421082	65.000000000000	0.00000000000000
26.040000915527	0.64119124412537	-0.59816879034042	65.000000000000	0.00000000000000
26.049999237061	0.64036595821381	-0.59847760200500	65.000000000000	0.00000000000000
26.059999465942	0.63953864574432	-0.59878534078598	65.000000000000	0.00000000000000
26.069999694824	0.63870948553085	-0.59909212589264	65.000000000000	0.00000000000000
26.079999923706	0.63787841796875	-0.59939783811569	65.000000000000	0.00000000000000
26.090000152588	0.63704544305801	-0.59970265626907	65.000000000000	0.00000000000000
26.100000381470	0.63621038198471	-0.60000628232956	65.000000000000	0.00000000000000
26.110000610352	0.63537347316742	-0.60030901432037	65.000000000000	0.00000000000000
26.120000839233	0.63453459739685	-0.60061061382294	65.000000000000	0.00000000000000
26.129999160767	0.63369393348694	-0.60091120004654	65.000000000000	0.00000000000000
26.139999389648	0.63285106420517	-0.60121071338654	65.000000000000	0.00000000000000
26.149999618530	0.63200646638870	-0.60150927305222	65.000000000000	0.00000000000000
26.159999847412	0.63115984201431	-0.60180658102036	65.000000000000	0.00000000000000
26.170000076294	0.63031142950058	-0.60210287570953	65.000000000000	0.00000000000000
26.180000305176	0.62946087121964	-0.60239815711975	65.000000000000	0.00000000000000
26.190000534058	0.62860846519470	-0.60269224643707	65.000000000000	0.00000000000000
26.200000762939	0.62775415182114	-0.60298532247543	65.000000000000	0.00000000000000
26.209999084473	0.62689781188965	-0.60327720642090	65.000000000000	0.00000000000000
26.219999313354	0.62603962421417	-0.60356801748276	65.000000000000	0.00000000000000
26.229999542236	0.62517940998077	-0.60385757684708	65.000000000000	0.00000000000000
26.239999771118	0.62431740760803	-0.60414612293243	65.000000000000	0.00000000000000
26.250000000000	0.62345331907272	-0.60443353652954	65.000000000000	0.00000000000000
26.260000228882	0.62258720397949	-0.60471975803375	65.000000000000	0.00000000000000
26.270000457764	0.62171930074692	-0.60500478744507	65.000000000000	0.00000000000000
26.280000686646	0.62084931135178	-0.60528868436813	65.000000000000	0.00000000000000
26.290000915527	0.61997753381729	-0.60557138919830	65.000000000000	0.00000000000000
26.299999237061	0.61910367012024	-0.60585296154022	65.000000000000	0.00000000000000
26.309999465942	0.61822789907455	-0.60613334178925	65.000000000000	0.00000000000000
26.319999694824	0.61735028028488	-0.60641241073608	65.000000000000	0.00000000000000
26.329999923706	0.61647057533264	-0.60669040679932	65.000000000000	0.00000000000000
26.340000152588	0.61558902263641	-0.60696709156036	65.000000000000	0.00000000000000
26.350000381470	0.61470550298691	-0.60724258422852	65.000000000000	0.00000000000000
26.360000610352	0.61381995677948	-0.60751682519913	65.000000000000	0.00000000000000
26.370000839233	0.61293244361877	-0.60778993368149	65.000000000000	0.00000000000000
26.379999160767	0.61204296350479	-0.60806167125702	65.000000000000	0.00000000000000
26.389999389648	0.61115163564682	-0.60833215713501	65.000000000000	0.00000000000000
26.399999618530	0.61025840044022	-0.60860139131546	65.000000000000	0.00000000000000
26.409999847412	0.60936313867569	-0.60886937379837	65.000000000000	0.00000000000000
26.420000076294	0.60846585035324	-0.60913610458374	65.000000000000	0.00000000000000
26.430000305176	0.60756665468216	-0.60940152406693	65.000000000000	0.00000000000000
26.440000534058	0.60666549205780	-0.60966563224792	65.000000000000	0.00000000000000
26.450000762939	0.60576236248016	-0.60992842912674	65.000000000000	0.00000000000000
26.459999084473	0.60485732555389	-0.61018997430801	65.000000000000	0.00000000000000
26.469999313354	0.60395032167435	-0.61045014858246	65.000000000000	0.00000000000000
26.479999542236	0.60304141044617	-0.61070895195007	65.000000000000	0.00000000000000
26.489999771118	0.60213035345078	-0.61096656322479	65.000000000000	0.00000000000000
26.500000000000	0.60121750831604	-0.61122262477875	65.000000000000	0.00000000000000
26.510000228882	0.60030269622803	-0.61147749423981	65.000000000000	0.00000000000000
26.520000457764	0.59938573837280	-0.61173093318939	65.000000000000	0.00000000000000
26.530000686646	0.59846699237823	-0.61198300123215	65.000000000000	0.00000000000000
26.540000915527	0.59754621982574	-0.61223369836807	65.000000000000	0.00000000000000
26.549999237061	0.59662342071533	-0.61248308420181	65.000000000000	0.00000000000000
26.559999465942	0.59569889307022	-0.61273092031479	65.000000000000	0.00000000000000
26.569999694824	0.59477216005325	-0.61297744512558	65.000000000000	0.00000000000000
26.579999923706	0.59384363889694	-0.61322259902954	65.000000000000	0.00000000000000
26.590000152588	0.59291303157806	-0.61346626281738	65.000000000000	0.00000000000000
26.600000381470	0.59198039770126	-0.61370849609375	65.000000000000	0.00000000000000
26.610000610352	0.59104591608047	-0.61394929885864	65.000000000000	0.00000000000000
26.620000839233	0.59010940790176	-0.61418867111206	65.000000000000	0.00000000000000
26.629999160767	0.58917105197906	-0.61442661285400	65.000000000000	0.00000000000000
26.639999389648	0.58823060989380	-0.61466306447983	65.000000000000	0.00000000000000
26.649999618530	0.58728820085526	-0.61489802598953	65.000000000000	0.00000000000000
26.659999847412	0.58634382486343	-0.61513155698776	65.000000000000	0.00000000000000
26.670000076294	0.58539754152298	-0.61536359786987	65.000000000000	0.00000000000000
26.680000305176	0.58444923162460	-0.61559408903122	65.000000000000	0.00000000000000
26.690000534058	0.58349895477295	-0.61582314968109	65.000000000000	0.00000000000000
26.700000762939	0.58254683017731	-0.61605066061020	65.000000000000	0.00000000000000
26.709999084473	0.58159250020981	-0.61627662181854	65.000000000000	0.00000000000000
26.719999313354	0.58063644170761	-0.61650109291077	65.000000000000	0.00000000000000
26.729999542236	0.57967829704285	-0.61672395467758	65.000000000000	0.00000000000000
26.739999771118	0.57871830463409	-0.61694538593292	65.000000000000	0.00000000000000
26.750000000000	0.57775610685349	-0.61716514825821	65.000000000000	0.00000000000000
26.760000228882	0.57679206132889	-0.61738336086273	65.000000000000	0.00000000000000
26.770000457764	0.57582610845566	-0.61760002374649	65.000000000000	0.00000000000000
26.780000686646	0.57485806941986	-0.61781513690948	65.000000000000	0.00000000000000
26.790000915527	0.57388806343079	-0.61802864074707	65.000000000000	0.00000000000000
26.799999237061	0.57291620969772	-0.61824047565460	65.000000000000	0.00000000000000
26.809999465942	0.57194221019745	-0.61845082044601	65.000000000000	0.00000000000000
26.819999694824	0.57096636295319	-0.61865937709808	65.000000000000	0.00000000000000
26.829999923706	0.56998836994171	-0.61886644363403	65.000000000000	0.00000000000000
26.840000152588	0.56900858879089	-0.61907178163528	65.000000000000	0.00000000000000
26.850000381470	0.56802678108215	-0.61927556991577	65.000000000000	0.00000000000000
26.860000610352	0.56704300642014	-0.61947762966156	65.000000000000	0.00000000000000
26.870000839233	0.56605720520020	-0.61967802047729	65.000000000000	0.00000000000000
26.879999160767	0.56506949663162	-0.61987680196762	65.000000000000	0.00000000000000
26.889999389648	0.56407976150513	-0.62007379531860	65.000000000000	0.00000000000000
26.899999618530	0.56308805942535	-0.62026917934418	65.000000000000	0.00000000000000
26.909999847412	0.56209439039230	-0.62046283483505	65.000000000000	0.00000000000000
26.920000076294	0.56109875440598	-0.62065482139587	65.000000000000	0.00000000000000
26.930000305176	0.56010109186172	-0.62084496021271	65.000000000000	0.00000000000000
26.940000534058	0.55910152196884	-0.62103348970413	65.000000000000	0.00000000000000
26.950000762939	0.55810004472733	-0.62122023105621	65.000000000000	0.00000000000000
26.959999084473	0.55709648132324	-0.62140524387360	65.000000000000	0.00000000000000
26.969999313354	0.55609083175659	-0.62158846855164	65.000000000000	0.00000000000000
26.979999542236	0.55508339405060	-0.62176990509033	65.000000000000	0.00000000000000
26.989999771118	0.55407387018204	-0.62194967269897	65.000000000000	0.00000000000000
27.000000000000	0.55306249856949	-0.62212747335434	65.000000000000	0.00000000000000
27.010000228882	0.55204904079437	-0.62230360507965	65.000000000000	0.00000000000000
27.020000457764	0.55103361606598	-0.62247794866562	65.000000000000	0.00000000000000
27.030000686646	0.55001646280289	-0.62265038490295	65.000000000000	0.00000000000000
27.040000915527	0.54899698495865	-0.62282103300095	65.000000000000	0.00000000000000
27.049999237061	0.54797571897507	-0.62298983335495	65.000000000000	0.00000000000000
27.059999465942	0.54695230722427	-0.62315678596497	65.000000000000	0.00000000000000
27.069999694824	0.54592704772949	-0.62332195043564	65.000000000000	0.00000000000000
27.079999923706	0.54489976167679	-0.62348514795303	65.000000000000	0.00000000000000
27.090000152588	0.54387062788010	-0.62364649772644	65.000000000000	0.00000000000000
27.100000381470	0.54283940792084	-0.62380599975586	65.000000000000	0.00000000000000
27.110000610352	0.54180634021759	-0.62396353483200	65.000000000000	0.00000000000000
27.120000839233	0.54077100753784	-0.62411916255951	65.000000000000	0.00000000000000
27.129999160767	0.53973400592804	-0.62427294254303	65.000000000000	0.00000000000000
27.139999389648	0.53869491815567	-0.62442475557327	65.000000000000	0.00000000000000
27.149999618530	0.53765386343002	-0.62457460165024	65.000000000000	0.00000000000000
27.159999847412	0.53661090135574	-0.62472254037857	65.000000000000	0.00000000000000
27.170000076294	0.53556585311890	-0.62486851215363	65.000000000000	0.00000000000000
27.180000305176	0.53451889753342	-0.62501251697540	65.000000000000	0.00000000000000
27.190000534058	0.53346991539001	-0.62515449523926	65.000000000000	0.00000000000000
27.200000762939	0.53241896629333	-0.62529450654984	65.000000000000	0.00000000000000
27.209999084473	0.53136616945267	-0.62543261051178	65.000000000000	0.00000000000000
27.219999313354	0.53031128644943	-0.62556850910187	65.000000000000	0.00000000000000
27.229999542236	0.52925467491150	-0.62570250034332	65.000000000000	0.00000000000000
27.239999771118	0.52819579839706	-0.62583440542221	65.000000000000	0.00000000000000
27.250000000000	0.52713507413864	-0.62596434354782	65.000000000000	0.00000000000000
27.260000228882	0.52607226371765	-0.62609225511551	65.000000000000	0.00000000000000
27.270000457764	0.52500760555267	-0.62621790170670	65.000000000000	0.00000000000000
27.280000686646	0.52394104003906	-0.62634158134460	65.000000000000	0.00000000000000
27.290000915527	0.52287244796753	-0.62646323442459	65.000000000000	0.00000000000000
27.299999237061	0.52180182933807	-0.62658274173737	65.000000000000	0.00000000000000
27.309999465942	0.52072936296463	-0.62670010328293	65.000000000000	0.00000000000000
27.319999694824	0.51965481042862	-0.62681531906128	65.000000000000	0.00000000000000
27.329999923706	0.51857846975327	-0.62692850828171	65.000000000000	0.00000000000000
