#Parameters = {d=0.26846733668342; l2=5.3693467336685; lambda=10.738693467337; r=0.036178658291458}
#"Frequency / GHz"	"S1,1 (lambda=10.7387) [Re]"	"S1,1 (lambda=10.7387) [Im]"	"Ref.Imp. [Re]"	"Ref.Imp. [Im]"
#-----------------------------------------------------------------------------------------------------------
25.000000000000	-0.0084164710715413	-0.013278966769576	65.000000000000	0.00000000000000
25.010000228882	-0.0078412685543299	-0.011181569658220	65.000000000000	0.00000000000000
25.020000457764	-0.0072572864592075	-0.0090893330052495	65.000000000000	0.00000000000000
25.030000686646	-0.0066645778715611	-0.0070023024454713	65.000000000000	0.00000000000000
25.040000915527	-0.0060631912201643	-0.0049205259419978	65.000000000000	0.00000000000000
25.049999237061	-0.0054531721398234	-0.0028440551832318	65.000000000000	0.00000000000000
25.059999465942	-0.0048345802351832	-0.00077292876085266	65.000000000000	0.00000000000000
25.069999694824	-0.0042074639350176	0.0012928028590977	65.000000000000	0.00000000000000
25.079999923706	-0.0035718751605600	0.0033530981745571	65.000000000000	0.00000000000000
25.090000152588	-0.0029278660658747	0.0054079098626971	65.000000000000	0.00000000000000
25.100000381470	-0.0022754878737032	0.0074571967124939	65.000000000000	0.00000000000000
25.110000610352	-0.0016147959977388	0.0095009133219719	65.000000000000	0.00000000000000
25.120000839233	-0.00094584008911625	0.011539017781615	65.000000000000	0.00000000000000
25.129999160767	-0.00026867623091675	0.013571468181908	65.000000000000	0.00000000000000
25.139999389648	0.00041664493619464	0.015598223544657	65.000000000000	0.00000000000000
25.149999618530	0.0011100723640993	0.017619242891669	65.000000000000	0.00000000000000
25.159999847412	0.0018115461571142	0.019634485244751	65.000000000000	0.00000000000000
25.170000076294	0.0025210082530975	0.021643910557032	65.000000000000	0.00000000000000
25.180000305176	0.0032384186051786	0.023647479712963	65.000000000000	0.00000000000000
25.190000534058	0.0039637177251279	0.025645157322288	65.000000000000	0.00000000000000
25.200000762939	0.0046968501992524	0.027636900544167	65.000000000000	0.00000000000000
25.209999084473	0.0054377610795200	0.029622672125697	65.000000000000	0.00000000000000
25.219999313354	0.0061863949522376	0.031602442264557	65.000000000000	0.00000000000000
25.229999542236	0.0069426950067282	0.033576164394617	65.000000000000	0.00000000000000
25.239999771118	0.0077066207304597	0.035543806850910	65.000000000000	0.00000000000000
25.250000000000	0.0084780976176262	0.037505336105824	65.000000000000	0.00000000000000
25.260000228882	0.0092570791020989	0.039460718631744	65.000000000000	0.00000000000000
25.270000457764	0.010043508373201	0.041409920901060	65.000000000000	0.00000000000000
25.280000686646	0.010837342590094	0.043352901935577	65.000000000000	0.00000000000000
25.290000915527	0.011638497002423	0.045289635658264	65.000000000000	0.00000000000000
25.299999237061	0.012446957640350	0.047220084816217	65.000000000000	0.00000000000000
25.309999465942	0.013262618333101	0.049144223332405	65.000000000000	0.00000000000000
25.319999694824	0.014085474424064	0.051062017679214	65.000000000000	0.00000000000000
25.329999923706	0.014915433712304	0.052973438054323	65.000000000000	0.00000000000000
25.340000152588	0.015752457082272	0.054878447204828	65.000000000000	0.00000000000000
25.350000381470	0.016596484929323	0.056777022778988	65.000000000000	0.00000000000000
25.360000610352	0.017447471618652	0.058669138699770	65.000000000000	0.00000000000000
25.370000839233	0.018305331468582	0.060554757714272	65.000000000000	0.00000000000000
25.379999160767	0.019170034676790	0.062433850020170	65.000000000000	0.00000000000000
25.389999389648	0.020041530951858	0.064306400716305	65.000000000000	0.00000000000000
25.399999618530	0.020919732749462	0.066172376275063	65.000000000000	0.00000000000000
25.409999847412	0.021804608404636	0.068031750619411	65.000000000000	0.00000000000000
25.420000076294	0.022696109488606	0.069884493947029	65.000000000000	0.00000000000000
25.430000305176	0.023594148457050	0.071730576455593	65.000000000000	0.00000000000000
25.440000534058	0.024498682469130	0.073569998145103	65.000000000000	0.00000000000000
25.450000762939	0.025409672409296	0.075402706861496	65.000000000000	0.00000000000000
25.459999084473	0.026327036321163	0.077228695154190	65.000000000000	0.00000000000000
25.469999313354	0.027250744402409	0.079047933220863	65.000000000000	0.00000000000000
25.479999542236	0.028180707246065	0.080860398709774	65.000000000000	0.00000000000000
25.489999771118	0.029116922989488	0.082666069269180	65.000000000000	0.00000000000000
25.500000000000	0.030059278011322	0.084464929997921	65.000000000000	0.00000000000000
25.510000228882	0.031007735058665	0.086256958544254	65.000000000000	0.00000000000000
25.520000457764	0.031962230801582	0.088042117655277	65.000000000000	0.00000000000000
25.530000686646	0.032922737300396	0.089820414781570	65.000000000000	0.00000000000000
25.540000915527	0.033889152109623	0.091591805219650	65.000000000000	0.00000000000000
25.549999237061	0.034861467778683	0.093356288969517	65.000000000000	0.00000000000000
25.559999465942	0.035839624702930	0.095113828778267	65.000000000000	0.00000000000000
25.569999694824	0.036823533475399	0.096864424645901	65.000000000000	0.00000000000000
25.579999923706	0.037813134491444	0.098608046770096	65.000000000000	0.00000000000000
25.590000152588	0.038808416575193	0.10034467279911	65.000000000000	0.00000000000000
25.600000381470	0.039809294044971	0.10207431018353	65.000000000000	0.00000000000000
25.610000610352	0.040815696120262	0.10379692167044	65.000000000000	0.00000000000000
25.620000839233	0.041827607899904	0.10551250725985	65.000000000000	0.00000000000000
25.629999160767	0.042844954878092	0.10722103714943	65.000000000000	0.00000000000000
25.639999389648	0.043867669999599	0.10892250388861	65.000000000000	0.00000000000000
25.649999618530	0.044895701110363	0.11061689257622	65.000000000000	0.00000000000000
25.659999847412	0.045928996056318	0.11230418831110	65.000000000000	0.00000000000000
25.670000076294	0.046967513859272	0.11398438364267	65.000000000000	0.00000000000000
25.680000305176	0.048011183738708	0.11565745621920	65.000000000000	0.00000000000000
25.690000534058	0.049059972167015	0.11732341349125	65.000000000000	0.00000000000000
25.700000762939	0.050113748759031	0.11898220330477	65.000000000000	0.00000000000000
25.709999084473	0.051172573119402	0.12063385546207	65.000000000000	0.00000000000000
25.719999313354	0.052236322313547	0.12227834761143	65.000000000000	0.00000000000000
25.729999542236	0.053304918110371	0.12391567230225	65.000000000000	0.00000000000000
25.739999771118	0.054378364235163	0.12554579973221	65.000000000000	0.00000000000000
25.750000000000	0.055456593632698	0.12716872990131	65.000000000000	0.00000000000000
25.760000228882	0.056539498269558	0.12878447771072	65.000000000000	0.00000000000000
25.770000457764	0.057627089321613	0.13039299845695	65.000000000000	0.00000000000000
25.780000686646	0.058719299733639	0.13199429214001	65.000000000000	0.00000000000000
25.790000915527	0.059816081076860	0.13358838856220	65.000000000000	0.00000000000000
25.799999237061	0.060917336493731	0.13517521321774	65.000000000000	0.00000000000000
25.809999465942	0.062022991478443	0.13675485551357	65.000000000000	0.00000000000000
25.819999694824	0.063133068382740	0.13832722604275	65.000000000000	0.00000000000000
25.829999923706	0.064247578382492	0.13989229500294	65.000000000000	0.00000000000000
25.840000152588	0.065366238355637	0.14145016670227	65.000000000000	0.00000000000000
25.850000381470	0.066489197313786	0.14300075173378	65.000000000000	0.00000000000000
25.860000610352	0.067616283893585	0.14454409480095	65.000000000000	0.00000000000000
25.870000839233	0.068747550249100	0.14608013629913	65.000000000000	0.00000000000000
25.879999160767	0.069882884621620	0.14760890603065	65.000000000000	0.00000000000000
25.889999389648	0.071022279560566	0.14913035929203	65.000000000000	0.00000000000000
25.899999618530	0.072165563702583	0.15064458549023	65.000000000000	0.00000000000000
25.909999847412	0.073312848806381	0.15215149521828	65.000000000000	0.00000000000000
25.920000076294	0.074463911354542	0.15365113317966	65.000000000000	0.00000000000000
25.930000305176	0.075618810951710	0.15514349937439	65.000000000000	0.00000000000000
25.940000534058	0.076777525246143	0.15662853419781	65.000000000000	0.00000000000000
25.950000762939	0.077939912676811	0.15810629725456	65.000000000000	0.00000000000000
25.959999084473	0.079105935990810	0.15957677364349	65.000000000000	0.00000000000000
25.969999313354	0.080275617539883	0.16103993356228	65.000000000000	0.00000000000000
25.979999542236	0.081448853015900	0.16249579191208	65.000000000000	0.00000000000000
25.989999771118	0.082625500857830	0.16394442319870	65.000000000000	0.00000000000000
26.000000000000	0.083805710077286	0.16538570821285	65.000000000000	0.00000000000000
26.010000228882	0.084989242255688	0.16681972146034	65.000000000000	0.00000000000000
26.020000457764	0.086176194250584	0.16824644804001	65.000000000000	0.00000000000000
26.030000686646	0.087366379797459	0.16966588795185	65.000000000000	0.00000000000000
26.040000915527	0.088559925556183	0.17107801139355	65.000000000000	0.00000000000000
26.049999237061	0.089756570756435	0.17248290777206	65.000000000000	0.00000000000000
26.059999465942	0.090956494212151	0.17388045787811	65.000000000000	0.00000000000000
26.069999694824	0.092159375548363	0.17527079582214	65.000000000000	0.00000000000000
26.079999923706	0.093365475535393	0.17665377259254	65.000000000000	0.00000000000000
26.090000152588	0.094574391841888	0.17802961170673	65.000000000000	0.00000000000000
26.100000381470	0.095786474645138	0.17939804494381	65.000000000000	0.00000000000000
26.110000610352	0.097001321613789	0.18075931072235	65.000000000000	0.00000000000000
26.120000839233	0.098219126462936	0.18211328983307	65.000000000000	0.00000000000000
26.129999160767	0.099439725279808	0.18345999717712	65.000000000000	0.00000000000000
26.139999389648	0.10066305845976	0.18479950726032	65.000000000000	0.00000000000000
26.149999618530	0.10188906639814	0.18613180518150	65.000000000000	0.00000000000000
26.159999847412	0.10311775654554	0.18745684623718	65.000000000000	0.00000000000000
26.170000076294	0.10434915870428	0.18877461552620	65.000000000000	0.00000000000000
26.180000305176	0.10558313876390	0.19008517265320	65.000000000000	0.00000000000000
26.190000534058	0.10681962221861	0.19138854742050	65.000000000000	0.00000000000000
26.200000762939	0.10805863887072	0.19268468022346	65.000000000000	0.00000000000000
26.209999084473	0.10930003970861	0.19397366046906	65.000000000000	0.00000000000000
26.219999313354	0.11054385453463	0.19525541365147	65.000000000000	0.00000000000000
26.229999542236	0.11178993433714	0.19653007388115	65.000000000000	0.00000000000000
26.239999771118	0.11303839832544	0.19779750704765	65.000000000000	0.00000000000000
26.250000000000	0.11428909748793	0.19905777275562	65.000000000000	0.00000000000000
26.260000228882	0.11554206907749	0.20031084120274	65.000000000000	0.00000000000000
26.270000457764	0.11679717153311	0.20155680179596	65.000000000000	0.00000000000000
26.280000686646	0.11805442720652	0.20279562473297	65.000000000000	0.00000000000000
26.290000915527	0.11931369453669	0.20402733981609	65.000000000000	0.00000000000000
26.299999237061	0.12057501822710	0.20525194704533	65.000000000000	0.00000000000000
26.309999465942	0.12183842062950	0.20646943151951	65.000000000000	0.00000000000000
26.319999694824	0.12310369312763	0.20767982304096	65.000000000000	0.00000000000000
26.329999923706	0.12437088042498	0.20888313651085	65.000000000000	0.00000000000000
26.340000152588	0.12563994526863	0.21007937192917	65.000000000000	0.00000000000000
26.350000381470	0.12691086530685	0.21126857399940	65.000000000000	0.00000000000000
26.360000610352	0.12818351387978	0.21245071291924	65.000000000000	0.00000000000000
26.370000839233	0.12945792078972	0.21362581849098	65.000000000000	0.00000000000000
26.379999160767	0.13073401153088	0.21479389071465	65.000000000000	0.00000000000000
26.389999389648	0.13201177120209	0.21595495939255	65.000000000000	0.00000000000000
26.399999618530	0.13329117000103	0.21710902452469	65.000000000000	0.00000000000000
26.409999847412	0.13457204401493	0.21825611591339	65.000000000000	0.00000000000000
26.420000076294	0.13585452735424	0.21939624845982	65.000000000000	0.00000000000000
26.430000305176	0.13713850080967	0.22052939236164	65.000000000000	0.00000000000000
26.440000534058	0.13842390477657	0.22165559232235	65.000000000000	0.00000000000000
26.450000762939	0.13971069455147	0.22277489304543	65.000000000000	0.00000000000000
26.459999084473	0.14099891483784	0.22388726472855	65.000000000000	0.00000000000000
26.469999313354	0.14228841662407	0.22499270737171	65.000000000000	0.00000000000000
26.479999542236	0.14357921481133	0.22609129548073	65.000000000000	0.00000000000000
26.489999771118	0.14487129449844	0.22718298435211	65.000000000000	0.00000000000000
26.500000000000	0.14616453647614	0.22826783359051	65.000000000000	0.00000000000000
26.510000228882	0.14745900034904	0.22934585809708	65.000000000000	0.00000000000000
26.520000457764	0.14875455200672	0.23041701316833	65.000000000000	0.00000000000000
26.530000686646	0.15005120635033	0.23148138821125	65.000000000000	0.00000000000000
26.540000915527	0.15134894847870	0.23253892362118	65.000000000000	0.00000000000000
26.549999237061	0.15264765918255	0.23358970880508	65.000000000000	0.00000000000000
26.559999465942	0.15394742786884	0.23463371396065	65.000000000000	0.00000000000000
26.569999694824	0.15524810552597	0.23567098379135	65.000000000000	0.00000000000000
26.579999923706	0.15654970705509	0.23670153319836	65.000000000000	0.00000000000000
26.590000152588	0.15785215795040	0.23772533237934	65.000000000000	0.00000000000000
26.600000381470	0.15915547311306	0.23874245584011	65.000000000000	0.00000000000000
26.610000610352	0.16045956313610	0.23975288867950	65.000000000000	0.00000000000000
26.620000839233	0.16176439821720	0.24075667560101	65.000000000000	0.00000000000000
26.629999160767	0.16306999325752	0.24175380170345	65.000000000000	0.00000000000000
26.639999389648	0.16437625885010	0.24274428188801	65.000000000000	0.00000000000000
26.649999618530	0.16568326950073	0.24372816085815	65.000000000000	0.00000000000000
26.659999847412	0.16699081659317	0.24470546841621	65.000000000000	0.00000000000000
26.670000076294	0.16829895973206	0.24567617475986	65.000000000000	0.00000000000000
26.680000305176	0.16960769891739	0.24664032459259	65.000000000000	0.00000000000000
26.690000534058	0.17091695964336	0.24759793281555	65.000000000000	0.00000000000000
26.700000762939	0.17222666740417	0.24854901432991	65.000000000000	0.00000000000000
26.709999084473	0.17353688180447	0.24949358403683	65.000000000000	0.00000000000000
26.719999313354	0.17484746873379	0.25043168663979	65.000000000000	0.00000000000000
26.729999542236	0.17615847289562	0.25136330723763	65.000000000000	0.00000000000000
26.739999771118	0.17746977508068	0.25228849053383	65.000000000000	0.00000000000000
26.750000000000	0.17878150939941	0.25320723652840	65.000000000000	0.00000000000000
26.760000228882	0.18009346723557	0.25411960482597	65.000000000000	0.00000000000000
26.770000457764	0.18140569329262	0.25502553582191	65.000000000000	0.00000000000000
26.780000686646	0.18271814286709	0.25592511892319	65.000000000000	0.00000000000000
26.790000915527	0.18403080105782	0.25681835412979	65.000000000000	0.00000000000000
26.799999237061	0.18534359335899	0.25770524144173	65.000000000000	0.00000000000000
26.809999465942	0.18665656447411	0.25858581066132	65.000000000000	0.00000000000000
26.819999694824	0.18796963989735	0.25946009159088	65.000000000000	0.00000000000000
26.829999923706	0.18928276002407	0.26032811403275	65.000000000000	0.00000000000000
26.840000152588	0.19059586524963	0.26118984818459	65.000000000000	0.00000000000000
26.850000381470	0.19190905988216	0.26204541325569	65.000000000000	0.00000000000000
26.860000610352	0.19322225451469	0.26289471983910	65.000000000000	0.00000000000000
26.870000839233	0.19453537464142	0.26373782753944	65.000000000000	0.00000000000000
26.879999160767	0.19584842026234	0.26457476615906	65.000000000000	0.00000000000000
26.889999389648	0.19716140627861	0.26540556550026	65.000000000000	0.00000000000000
26.899999618530	0.19847416877747	0.26623022556305	65.000000000000	0.00000000000000
26.909999847412	0.19978681206703	0.26704877614975	65.000000000000	0.00000000000000
26.920000076294	0.20109932124615	0.26786124706268	65.000000000000	0.00000000000000
26.930000305176	0.20241157710552	0.26866766810417	65.000000000000	0.00000000000000
26.940000534058	0.20372353494167	0.26946800947189	65.000000000000	0.00000000000000
26.950000762939	0.20503532886505	0.27026233077049	65.000000000000	0.00000000000000
26.959999084473	0.20634672045708	0.27105066180229	65.000000000000	0.00000000000000
26.969999313354	0.20765784382820	0.27183297276497	65.000000000000	0.00000000000000
26.979999542236	0.20896860957146	0.27260935306549	65.000000000000	0.00000000000000
26.989999771118	0.21027895808220	0.27337980270386	65.000000000000	0.00000000000000
27.000000000000	0.21158896386623	0.27414429187775	65.000000000000	0.00000000000000
27.010000228882	0.21289849281311	0.27490288019180	65.000000000000	0.00000000000000
27.020000457764	0.21420754492283	0.27565562725067	65.000000000000	0.00000000000000
27.030000686646	0.21551613509655	0.27640250325203	65.000000000000	0.00000000000000
27.040000915527	0.21682424843311	0.27714353799820	65.000000000000	0.00000000000000
27.049999237061	0.21813185513020	0.27787876129150	65.000000000000	0.00000000000000
27.059999465942	0.21943889558315	0.27860823273659	65.000000000000	0.00000000000000
27.069999694824	0.22074531018734	0.27933189272881	65.000000000000	0.00000000000000
27.079999923706	0.22205109894276	0.28004983067513	65.000000000000	0.00000000000000
27.090000152588	0.22335626184940	0.28076201677322	65.000000000000	0.00000000000000
27.100000381470	0.22466085851192	0.28146851062775	65.000000000000	0.00000000000000
27.110000610352	0.22596471011639	0.28216931223869	65.000000000000	0.00000000000000
27.120000839233	0.22726787626743	0.28286448121071	65.000000000000	0.00000000000000
27.129999160767	0.22857038676739	0.28355401754379	65.000000000000	0.00000000000000
27.139999389648	0.22987198829651	0.28423792123795	65.000000000000	0.00000000000000
27.149999618530	0.23117293417454	0.28491622209549	65.000000000000	0.00000000000000
27.159999847412	0.23247310519218	0.28558897972107	65.000000000000	0.00000000000000
27.170000076294	0.23377247154713	0.28625616431236	65.000000000000	0.00000000000000
27.180000305176	0.23507097363472	0.28691783547401	65.000000000000	0.00000000000000
27.190000534058	0.23636856675148	0.28757399320602	65.000000000000	0.00000000000000
27.200000762939	0.23766534030437	0.28822469711304	65.000000000000	0.00000000000000
27.209999084473	0.23896120488644	0.28886991739273	65.000000000000	0.00000000000000
27.219999313354	0.24025617539883	0.28950971364975	65.000000000000	0.00000000000000
27.229999542236	0.24155016243458	0.29014408588409	65.000000000000	0.00000000000000
27.239999771118	0.24284318089485	0.29077309370041	65.000000000000	0.00000000000000
27.250000000000	0.24413523077965	0.29139670729637	65.000000000000	0.00000000000000
27.260000228882	0.24542631208897	0.29201495647430	65.000000000000	0.00000000000000
27.270000457764	0.24671639502048	0.29262790083885	65.000000000000	0.00000000000000
27.280000686646	0.24800531566143	0.29323554039001	65.000000000000	0.00000000000000
27.290000915527	0.24929326772690	0.29383790493011	65.000000000000	0.00000000000000
27.299999237061	0.25058016180992	0.29443505406380	65.000000000000	0.00000000000000
27.309999465942	0.25186589360237	0.29502692818642	65.000000000000	0.00000000000000
27.319999694824	0.25315055251122	0.29561355710030	65.000000000000	0.00000000000000
27.329999923706	0.25443407893181	0.29619506001472	65.000000000000	0.00000000000000
