#Parameters = {d=0.26645728643215; l2=5.329145728643; lambda=10.658291457286; r=0.035907783919597}
#"Frequency / GHz"	"S1,1 (lambda=10.6583) [Re]"	"S1,1 (lambda=10.6583) [Im]"	"Ref.Imp. [Re]"	"Ref.Imp. [Im]"
#-----------------------------------------------------------------------------------------------------------
25.000000000000	-0.017554255202413	-0.052955366671085	65.000000000000	0.00000000000000
25.010000228882	-0.017152426764369	-0.050787366926670	65.000000000000	0.00000000000000
25.020000457764	-0.016741102561355	-0.048623483628035	65.000000000000	0.00000000000000
25.030000686646	-0.016320325434208	-0.046463776379824	65.000000000000	0.00000000000000
25.040000915527	-0.015890108421445	-0.044308293610811	65.000000000000	0.00000000000000
25.049999237061	-0.015450483188033	-0.042157117277384	65.000000000000	0.00000000000000
25.059999465942	-0.015001545660198	-0.040010269731283	65.000000000000	0.00000000000000
25.069999694824	-0.014543293043971	-0.037867829203606	65.000000000000	0.00000000000000
25.079999923706	-0.014075798913836	-0.035729840397835	65.000000000000	0.00000000000000
25.090000152588	-0.013599102385342	-0.033596348017454	65.000000000000	0.00000000000000
25.100000381470	-0.013113235123456	-0.031467422842979	65.000000000000	0.00000000000000
25.110000610352	-0.012618270702660	-0.029343105852604	65.000000000000	0.00000000000000
25.120000839233	-0.012114235199988	-0.027223456650972	65.000000000000	0.00000000000000
25.129999160767	-0.011601168662310	-0.025108521804214	65.000000000000	0.00000000000000
25.139999389648	-0.011079139076173	-0.022998353466392	65.000000000000	0.00000000000000
25.149999618530	-0.010548192076385	-0.020892996340990	65.000000000000	0.00000000000000
25.159999847412	-0.010008363984525	-0.018792506307364	65.000000000000	0.00000000000000
25.170000076294	-0.0094597116112709	-0.016696929931641	65.000000000000	0.00000000000000
25.180000305176	-0.0089022750034928	-0.014606319367886	65.000000000000	0.00000000000000
25.190000534058	-0.0083361053839326	-0.012520722113550	65.000000000000	0.00000000000000
25.200000762939	-0.0077612590976059	-0.010440181940794	65.000000000000	0.00000000000000
25.209999084473	-0.0071777752600610	-0.0083647528663278	65.000000000000	0.00000000000000
25.219999313354	-0.0065857158042490	-0.0062944726087153	65.000000000000	0.00000000000000
25.229999542236	-0.0059851170517504	-0.0042293919250369	65.000000000000	0.00000000000000
25.239999771118	-0.0053760386072099	-0.0021695566829294	65.000000000000	0.00000000000000
25.250000000000	-0.0047585275024176	-0.00011500994150992	65.000000000000	0.00000000000000
25.260000228882	-0.0041326335631311	0.0019342054147273	65.000000000000	0.00000000000000
25.270000457764	-0.0034984087105840	0.0039780423976481	65.000000000000	0.00000000000000
25.280000686646	-0.0028559053316712	0.0060164583846927	65.000000000000	0.00000000000000
25.290000915527	-0.0022051723208278	0.0080494126304984	65.000000000000	0.00000000000000
25.299999237061	-0.0015462622977793	0.010076860897243	65.000000000000	0.00000000000000
25.309999465942	-0.00087922631064430	0.012098764069378	65.000000000000	0.00000000000000
25.319999694824	-0.00020411738660187	0.014115080237389	65.000000000000	0.00000000000000
25.329999923706	0.00047901389189065	0.016125768423080	65.000000000000	0.00000000000000
25.340000152588	0.0011701141484082	0.018130790442228	65.000000000000	0.00000000000000
25.350000381470	0.0018691327422857	0.020130105316639	65.000000000000	0.00000000000000
25.360000610352	0.0025760126300156	0.022123672068119	65.000000000000	0.00000000000000
25.370000839233	0.0032907144632190	0.024111459031701	65.000000000000	0.00000000000000
25.379999160767	0.0040131621062756	0.026093425229192	65.000000000000	0.00000000000000
25.389999389648	0.0047433250583708	0.028069529682398	65.000000000000	0.00000000000000
25.399999618530	0.0054811309091747	0.030039740726352	65.000000000000	0.00000000000000
25.409999847412	0.0062265428714454	0.032004021108150	65.000000000000	0.00000000000000
25.420000076294	0.0069794952869415	0.033962339162827	65.000000000000	0.00000000000000
25.430000305176	0.0077399453148246	0.035914652049541	65.000000000000	0.00000000000000
25.440000534058	0.0085078282281756	0.037860926240683	65.000000000000	0.00000000000000
25.450000762939	0.0092830928042531	0.039801139384508	65.000000000000	0.00000000000000
25.459999084473	0.010065694339573	0.041735243052244	65.000000000000	0.00000000000000
25.469999313354	0.010855583474040	0.043663218617439	65.000000000000	0.00000000000000
25.479999542236	0.011652672663331	0.045585025101900	65.000000000000	0.00000000000000
25.489999771118	0.012456942349672	0.047500628978014	65.000000000000	0.00000000000000
25.500000000000	0.013268319889903	0.049410004168749	65.000000000000	0.00000000000000
25.510000228882	0.014086757786572	0.051313124597073	65.000000000000	0.00000000000000
25.520000457764	0.014912196435034	0.053209953010082	65.000000000000	0.00000000000000
25.530000686646	0.015744598582387	0.055100455880165	65.000000000000	0.00000000000000
25.540000915527	0.016583884134889	0.056984618306160	65.000000000000	0.00000000000000
25.549999237061	0.017430003732443	0.058862403035164	65.000000000000	0.00000000000000
25.559999465942	0.018282925710082	0.060733776539564	65.000000000000	0.00000000000000
25.569999694824	0.019142571836710	0.062598727643490	65.000000000000	0.00000000000000
25.579999923706	0.020008876919746	0.064457215368748	65.000000000000	0.00000000000000
25.590000152588	0.020881831645966	0.066309213638306	65.000000000000	0.00000000000000
25.600000381470	0.021761335432529	0.068154707551003	65.000000000000	0.00000000000000
25.610000610352	0.022647358477116	0.069993652403355	65.000000000000	0.00000000000000
25.620000839233	0.023539822548628	0.071826048195362	65.000000000000	0.00000000000000
25.629999160767	0.024438695982099	0.073651850223541	65.000000000000	0.00000000000000
25.639999389648	0.025343915447593	0.075471058487892	65.000000000000	0.00000000000000
25.649999618530	0.026255421340466	0.077283628284931	65.000000000000	0.00000000000000
25.659999847412	0.027173180133104	0.079089544713497	65.000000000000	0.00000000000000
25.670000076294	0.028097111731768	0.080888777971268	65.000000000000	0.00000000000000
25.680000305176	0.029027158394456	0.082681313157082	65.000000000000	0.00000000000000
25.690000534058	0.029963282868266	0.084467135369778	65.000000000000	0.00000000000000
25.700000762939	0.030905432999134	0.086246214807034	65.000000000000	0.00000000000000
25.709999084473	0.031853526830673	0.088018529117107	65.000000000000	0.00000000000000
25.719999313354	0.032807525247335	0.089784078299999	65.000000000000	0.00000000000000
25.729999542236	0.033767398446798	0.091542817652225	65.000000000000	0.00000000000000
25.739999771118	0.034733042120934	0.093294739723206	65.000000000000	0.00000000000000
25.750000000000	0.035704445093870	0.095039829611778	65.000000000000	0.00000000000000
25.760000228882	0.036681521683931	0.096778064966202	65.000000000000	0.00000000000000
25.770000457764	0.037664208561182	0.098509430885315	65.000000000000	0.00000000000000
25.780000686646	0.038652494549751	0.10023391246796	65.000000000000	0.00000000000000
25.790000915527	0.039646338671446	0.10195148736238	65.000000000000	0.00000000000000
25.799999237061	0.040645573288202	0.10366215556860	65.000000000000	0.00000000000000
25.809999465942	0.041650284081697	0.10536586493254	65.000000000000	0.00000000000000
25.819999694824	0.042660310864449	0.10706264525652	65.000000000000	0.00000000000000
25.829999923706	0.043675679713488	0.10875244438648	65.000000000000	0.00000000000000
25.840000152588	0.044696301221848	0.11043526977301	65.000000000000	0.00000000000000
25.850000381470	0.045722045004368	0.11211113631725	65.000000000000	0.00000000000000
25.860000610352	0.046753004193306	0.11377995461226	65.000000000000	0.00000000000000
25.870000839233	0.047789022326469	0.11544177681208	65.000000000000	0.00000000000000
25.879999160767	0.048830106854439	0.11709657311440	65.000000000000	0.00000000000000
25.889999389648	0.049876146018505	0.11874432116747	65.000000000000	0.00000000000000
25.899999618530	0.050927042961121	0.12038503587246	65.000000000000	0.00000000000000
25.909999847412	0.051982894539833	0.12201866507530	65.000000000000	0.00000000000000
25.920000076294	0.053043559193611	0.12364523112774	65.000000000000	0.00000000000000
25.930000305176	0.054108954966068	0.12526473402977	65.000000000000	0.00000000000000
25.940000534058	0.055179078131914	0.12687714397907	65.000000000000	0.00000000000000
25.950000762939	0.056253839284182	0.12848244607449	65.000000000000	0.00000000000000
25.959999084473	0.057333257049322	0.13008062541485	65.000000000000	0.00000000000000
25.969999313354	0.058417197316885	0.13167169690132	65.000000000000	0.00000000000000
25.979999542236	0.059505604207516	0.13325564563274	65.000000000000	0.00000000000000
25.989999771118	0.060598496347666	0.13483245670795	65.000000000000	0.00000000000000
26.000000000000	0.061695761978626	0.13640215992928	65.000000000000	0.00000000000000
26.010000228882	0.062797412276268	0.13796468079090	65.000000000000	0.00000000000000
26.020000457764	0.063903279602528	0.13952007889748	65.000000000000	0.00000000000000
26.030000686646	0.065013378858566	0.14106832444668	65.000000000000	0.00000000000000
26.040000915527	0.066127762198448	0.14260938763618	65.000000000000	0.00000000000000
26.049999237061	0.067246176302433	0.14414329826832	65.000000000000	0.00000000000000
26.059999465942	0.068368740379810	0.14567002654076	65.000000000000	0.00000000000000
26.069999694824	0.069495290517807	0.14718960225582	65.000000000000	0.00000000000000
26.079999923706	0.070625782012939	0.14870201051235	65.000000000000	0.00000000000000
26.090000152588	0.071760207414627	0.15020723640919	65.000000000000	0.00000000000000
26.100000381470	0.072898618876934	0.15170522034168	65.000000000000	0.00000000000000
26.110000610352	0.074040785431862	0.15319606661797	65.000000000000	0.00000000000000
26.120000839233	0.075186684727669	0.15467974543571	65.000000000000	0.00000000000000
26.129999160767	0.076336368918419	0.15615619719028	65.000000000000	0.00000000000000
26.139999389648	0.077489703893661	0.15762546658516	65.000000000000	0.00000000000000
26.149999618530	0.078646585345268	0.15908758342266	65.000000000000	0.00000000000000
26.159999847412	0.079807087779045	0.16054248809814	65.000000000000	0.00000000000000
26.170000076294	0.080971211194992	0.16199015080929	65.000000000000	0.00000000000000
26.180000305176	0.082138717174530	0.16343066096306	65.000000000000	0.00000000000000
26.190000534058	0.083309613168240	0.16486401855946	65.000000000000	0.00000000000000
26.200000762939	0.084483884274960	0.16629016399384	65.000000000000	0.00000000000000
26.209999084473	0.085661537945271	0.16770909726620	65.000000000000	0.00000000000000
26.219999313354	0.086842440068722	0.16912086308002	65.000000000000	0.00000000000000
26.229999542236	0.088026583194733	0.17052543163300	65.000000000000	0.00000000000000
26.239999771118	0.089213885366917	0.17192281782627	65.000000000000	0.00000000000000
26.250000000000	0.090404286980629	0.17331305146217	65.000000000000	0.00000000000000
26.260000228882	0.091597788035870	0.17469608783722	65.000000000000	0.00000000000000
26.270000457764	0.092794410884380	0.17607189714909	65.000000000000	0.00000000000000
26.280000686646	0.093993917107582	0.17744059860706	65.000000000000	0.00000000000000
26.290000915527	0.095196425914764	0.17880214750767	65.000000000000	0.00000000000000
26.299999237061	0.096401743590832	0.18015649914742	65.000000000000	0.00000000000000
26.309999465942	0.097609966993332	0.18150371313095	65.000000000000	0.00000000000000
26.319999694824	0.098820976912975	0.18284377455711	65.000000000000	0.00000000000000
26.329999923706	0.10003474354744	0.18417669832706	65.000000000000	0.00000000000000
26.340000152588	0.10125117003918	0.18550248444080	65.000000000000	0.00000000000000
26.350000381470	0.10247027128935	0.18682110309601	65.000000000000	0.00000000000000
26.360000610352	0.10369198769331	0.18813261389732	65.000000000000	0.00000000000000
26.370000839233	0.10491626709700	0.18943701684475	65.000000000000	0.00000000000000
26.379999160767	0.10614308714867	0.19073429703712	65.000000000000	0.00000000000000
26.389999389648	0.10737237334251	0.19202445447445	65.000000000000	0.00000000000000
26.399999618530	0.10860408097506	0.19330753386021	65.000000000000	0.00000000000000
26.409999847412	0.10983815044165	0.19458350539207	65.000000000000	0.00000000000000
26.420000076294	0.11107455939054	0.19585238397121	65.000000000000	0.00000000000000
26.430000305176	0.11231330782175	0.19711419939995	65.000000000000	0.00000000000000
26.440000534058	0.11355428397655	0.19836895167828	65.000000000000	0.00000000000000
26.450000762939	0.11479743570089	0.19961664080620	65.000000000000	0.00000000000000
26.459999084473	0.11604279279709	0.20085726678371	65.000000000000	0.00000000000000
26.469999313354	0.11729022115469	0.20209087431431	65.000000000000	0.00000000000000
26.479999542236	0.11853975057602	0.20331744849682	65.000000000000	0.00000000000000
26.489999771118	0.11979130655527	0.20453697443008	65.000000000000	0.00000000000000
26.500000000000	0.12104486674070	0.20574951171875	65.000000000000	0.00000000000000
26.510000228882	0.12230036407709	0.20695504546165	65.000000000000	0.00000000000000
26.520000457764	0.12355774641037	0.20815357565880	65.000000000000	0.00000000000000
26.530000686646	0.12481701374054	0.20934516191483	65.000000000000	0.00000000000000
26.540000915527	0.12607809901237	0.21052974462509	65.000000000000	0.00000000000000
26.549999237061	0.12734089791775	0.21170738339424	65.000000000000	0.00000000000000
26.559999465942	0.12860555946827	0.21287807822227	65.000000000000	0.00000000000000
26.569999694824	0.12987183034420	0.21404185891151	65.000000000000	0.00000000000000
26.579999923706	0.13113975524902	0.21519868075848	65.000000000000	0.00000000000000
26.590000152588	0.13240933418274	0.21634860336781	65.000000000000	0.00000000000000
26.600000381470	0.13368043303490	0.21749165654182	65.000000000000	0.00000000000000
26.610000610352	0.13495305180550	0.21862781047821	65.000000000000	0.00000000000000
26.620000839233	0.13622719049454	0.21975706517696	65.000000000000	0.00000000000000
26.629999160767	0.13750283420086	0.22087948024273	65.000000000000	0.00000000000000
26.639999389648	0.13877984881401	0.22199505567551	65.000000000000	0.00000000000000
26.649999618530	0.14005826413631	0.22310383617878	65.000000000000	0.00000000000000
26.659999847412	0.14133796095848	0.22420576214790	65.000000000000	0.00000000000000
26.670000076294	0.14261899888515	0.22530089318752	65.000000000000	0.00000000000000
26.680000305176	0.14390124380589	0.22638922929764	65.000000000000	0.00000000000000
26.690000534058	0.14518474042416	0.22747078537941	65.000000000000	0.00000000000000
26.700000762939	0.14646944403648	0.22854560613632	65.000000000000	0.00000000000000
26.709999084473	0.14775525033474	0.22961366176605	65.000000000000	0.00000000000000
26.719999313354	0.14904218912125	0.23067499697208	65.000000000000	0.00000000000000
26.729999542236	0.15033018589020	0.23172962665558	65.000000000000	0.00000000000000
26.739999771118	0.15161916613579	0.23277753591537	65.000000000000	0.00000000000000
26.750000000000	0.15290921926498	0.23381878435612	65.000000000000	0.00000000000000
26.760000228882	0.15420022606850	0.23485334217548	65.000000000000	0.00000000000000
26.770000457764	0.15549206733704	0.23588125407696	65.000000000000	0.00000000000000
26.780000686646	0.15678489208221	0.23690256476402	65.000000000000	0.00000000000000
26.790000915527	0.15807855129242	0.23791722953320	65.000000000000	0.00000000000000
26.799999237061	0.15937298536301	0.23892527818680	65.000000000000	0.00000000000000
26.809999465942	0.16066820919514	0.23992675542831	65.000000000000	0.00000000000000
26.819999694824	0.16196420788765	0.24092166125774	65.000000000000	0.00000000000000
26.829999923706	0.16326090693474	0.24191002547741	65.000000000000	0.00000000000000
26.840000152588	0.16455827653408	0.24289183318615	65.000000000000	0.00000000000000
26.850000381470	0.16585627198219	0.24386711418629	65.000000000000	0.00000000000000
26.860000610352	0.16715489327908	0.24483592808247	65.000000000000	0.00000000000000
26.870000839233	0.16845403611660	0.24579824507236	65.000000000000	0.00000000000000
26.879999160767	0.16975378990173	0.24675408005714	65.000000000000	0.00000000000000
26.889999389648	0.17105402052402	0.24770350754261	65.000000000000	0.00000000000000
26.899999618530	0.17235466837883	0.24864646792412	65.000000000000	0.00000000000000
26.909999847412	0.17365586757660	0.24958303570747	65.000000000000	0.00000000000000
26.920000076294	0.17495742440224	0.25051319599152	65.000000000000	0.00000000000000
26.930000305176	0.17625935375690	0.25143697857857	65.000000000000	0.00000000000000
26.940000534058	0.17756159603596	0.25235441327095	65.000000000000	0.00000000000000
26.950000762939	0.17886419594288	0.25326550006866	65.000000000000	0.00000000000000
26.959999084473	0.18016709387302	0.25417029857635	65.000000000000	0.00000000000000
26.969999313354	0.18147015571594	0.25506874918938	65.000000000000	0.00000000000000
26.979999542236	0.18277356028557	0.25596097111702	65.000000000000	0.00000000000000
26.989999771118	0.18407702445984	0.25684690475464	65.000000000000	0.00000000000000
27.000000000000	0.18538072705269	0.25772657990456	65.000000000000	0.00000000000000
27.010000228882	0.18668454885483	0.25860002636909	65.000000000000	0.00000000000000
27.020000457764	0.18798844516277	0.25946730375290	65.000000000000	0.00000000000000
27.030000686646	0.18929243087769	0.26032838225365	65.000000000000	0.00000000000000
27.040000915527	0.19059640169144	0.26118329167366	65.000000000000	0.00000000000000
27.049999237061	0.19190043210983	0.26203203201294	65.000000000000	0.00000000000000
27.059999465942	0.19320446252823	0.26287466287613	65.000000000000	0.00000000000000
27.069999694824	0.19450843334198	0.26371121406555	65.000000000000	0.00000000000000
27.079999923706	0.19581227004528	0.26454165577888	65.000000000000	0.00000000000000
27.090000152588	0.19711603224277	0.26536604762077	65.000000000000	0.00000000000000
27.100000381470	0.19841964542866	0.26618435978889	65.000000000000	0.00000000000000
27.110000610352	0.19972316920757	0.26699668169022	65.000000000000	0.00000000000000
27.120000839233	0.20102642476559	0.26780298352242	65.000000000000	0.00000000000000
27.129999160767	0.20232951641083	0.26860329508781	65.000000000000	0.00000000000000
27.139999389648	0.20363231003284	0.26939761638641	65.000000000000	0.00000000000000
27.149999618530	0.20493485033512	0.27018606662750	65.000000000000	0.00000000000000
27.159999847412	0.20623715221882	0.27096855640411	65.000000000000	0.00000000000000
27.170000076294	0.20753903687000	0.27174511551857	65.000000000000	0.00000000000000
27.180000305176	0.20884062349796	0.27251583337784	65.000000000000	0.00000000000000
27.190000534058	0.21014185249805	0.27328068017960	65.000000000000	0.00000000000000
27.200000762939	0.21144266426563	0.27403968572617	65.000000000000	0.00000000000000
27.209999084473	0.21274305880070	0.27479287981987	65.000000000000	0.00000000000000
27.219999313354	0.21404297649860	0.27554029226303	65.000000000000	0.00000000000000
27.229999542236	0.21534241735935	0.27628189325333	65.000000000000	0.00000000000000
27.239999771118	0.21664139628410	0.27701774239540	65.000000000000	0.00000000000000
27.250000000000	0.21793983876705	0.27774783968925	65.000000000000	0.00000000000000
27.260000228882	0.21923770010471	0.27847227454185	65.000000000000	0.00000000000000
27.270000457764	0.22053496539593	0.27919098734856	65.000000000000	0.00000000000000
27.280000686646	0.22183172404766	0.27990406751633	65.000000000000	0.00000000000000
27.290000915527	0.22312772274017	0.28061145544052	65.000000000000	0.00000000000000
27.299999237061	0.22442319989204	0.28131324052811	65.000000000000	0.00000000000000
27.309999465942	0.22571797668934	0.28200942277908	65.000000000000	0.00000000000000
27.319999694824	0.22701208293438	0.28270000219345	65.000000000000	0.00000000000000
