#Parameters = {d=0.21218592964824; l2=4.2437185929648; lambda=8.4874371859296; r=0.028594175879397}
#"Frequency / GHz"	"S1,1 (lambda=8.48744) [Re]"	"S1,1 (lambda=8.48744) [Im]"	"Ref.Imp. [Re]"	"Ref.Imp. [Im]"
#-----------------------------------------------------------------------------------------------------------
25.000000000000	0.59635102748871	-0.61224955320358	65.000000000000	0.00000000000000
25.010000228882	0.59536892175674	-0.61252528429031	65.000000000000	0.00000000000000
25.020000457764	0.59438437223434	-0.61279934644699	65.000000000000	0.00000000000000
25.030000686646	0.59339714050293	-0.61307168006897	65.000000000000	0.00000000000000
25.040000915527	0.59240758419037	-0.61334240436554	65.000000000000	0.00000000000000
25.049999237061	0.59141540527344	-0.61361128091812	65.000000000000	0.00000000000000
25.059999465942	0.59042072296143	-0.61387848854065	65.000000000000	0.00000000000000
25.069999694824	0.58942359685898	-0.61414396762848	65.000000000000	0.00000000000000
25.079999923706	0.58842396736145	-0.61440765857697	65.000000000000	0.00000000000000
25.090000152588	0.58742183446884	-0.61466956138611	65.000000000000	0.00000000000000
25.100000381470	0.58641725778580	-0.61492967605591	65.000000000000	0.00000000000000
25.110000610352	0.58541023731232	-0.61518800258636	65.000000000000	0.00000000000000
25.120000839233	0.58440071344376	-0.61544454097748	65.000000000000	0.00000000000000
25.129999160767	0.58338874578476	-0.61569917201996	65.000000000000	0.00000000000000
25.139999389648	0.58237427473068	-0.61595195531845	65.000000000000	0.00000000000000
25.149999618530	0.58135735988617	-0.61620289087296	65.000000000000	0.00000000000000
25.159999847412	0.58033812046051	-0.61645185947418	65.000000000000	0.00000000000000
25.170000076294	0.57931631803513	-0.61669903993607	65.000000000000	0.00000000000000
25.180000305176	0.57829201221466	-0.61694437265396	65.000000000000	0.00000000000000
25.190000534058	0.57726544141769	-0.61718767881393	65.000000000000	0.00000000000000
25.200000762939	0.57623624801636	-0.61742907762527	65.000000000000	0.00000000000000
25.209999084473	0.57520467042923	-0.61766844987869	65.000000000000	0.00000000000000
25.219999313354	0.57417070865631	-0.61790591478348	65.000000000000	0.00000000000000
25.229999542236	0.57313442230225	-0.61814153194427	65.000000000000	0.00000000000000
25.239999771118	0.57209563255310	-0.61837500333786	65.000000000000	0.00000000000000
25.250000000000	0.57105439901352	-0.61860650777817	65.000000000000	0.00000000000000
25.260000228882	0.57001096010208	-0.61883598566055	65.000000000000	0.00000000000000
25.270000457764	0.56896489858627	-0.61906337738037	65.000000000000	0.00000000000000
25.280000686646	0.56791651248932	-0.61928886175156	65.000000000000	0.00000000000000
25.290000915527	0.56686574220657	-0.61951225996017	65.000000000000	0.00000000000000
25.299999237061	0.56581264734268	-0.61973357200623	65.000000000000	0.00000000000000
25.309999465942	0.56475704908371	-0.61995273828506	65.000000000000	0.00000000000000
25.319999694824	0.56369930505753	-0.62016993761063	65.000000000000	0.00000000000000
25.329999923706	0.56263911724091	-0.62038493156433	65.000000000000	0.00000000000000
25.340000152588	0.56157642602921	-0.62059783935547	65.000000000000	0.00000000000000
25.350000381470	0.56051146984100	-0.62080860137939	65.000000000000	0.00000000000000
25.360000610352	0.55944412946701	-0.62101727724075	65.000000000000	0.00000000000000
25.370000839233	0.55837452411652	-0.62122368812561	65.000000000000	0.00000000000000
25.379999160767	0.55730265378952	-0.62142801284790	65.000000000000	0.00000000000000
25.389999389648	0.55622839927673	-0.62163019180298	65.000000000000	0.00000000000000
25.399999618530	0.55515170097351	-0.62183010578156	65.000000000000	0.00000000000000
25.409999847412	0.55407273769379	-0.62202793359756	65.000000000000	0.00000000000000
25.420000076294	0.55299162864685	-0.62222325801849	65.000000000000	0.00000000000000
25.430000305176	0.55190795660019	-0.62241667509079	65.000000000000	0.00000000000000
25.440000534058	0.55082225799561	-0.62260764837265	65.000000000000	0.00000000000000
25.450000762939	0.54973387718201	-0.62279659509659	65.000000000000	0.00000000000000
25.459999084473	0.54864341020584	-0.62298309803009	65.000000000000	0.00000000000000
25.469999313354	0.54755043983459	-0.62316757440567	65.000000000000	0.00000000000000
25.479999542236	0.54645562171936	-0.62334930896759	65.000000000000	0.00000000000000
25.489999771118	0.54535794258118	-0.62352931499481	65.000000000000	0.00000000000000
25.500000000000	0.54425859451294	-0.62370651960373	65.000000000000	0.00000000000000
25.510000228882	0.54315698146820	-0.62388139963150	65.000000000000	0.00000000000000
25.520000457764	0.54205268621445	-0.62405425310135	65.000000000000	0.00000000000000
25.530000686646	0.54094612598419	-0.62422484159470	65.000000000000	0.00000000000000
25.540000915527	0.53983753919601	-0.62439280748367	65.000000000000	0.00000000000000
25.549999237061	0.53872644901276	-0.62455862760544	65.000000000000	0.00000000000000
25.559999465942	0.53761333227158	-0.62472194433212	65.000000000000	0.00000000000000
25.569999694824	0.53649824857712	-0.62488257884979	65.000000000000	0.00000000000000
25.579999923706	0.53538060188293	-0.62504112720490	65.000000000000	0.00000000000000
25.590000152588	0.53426045179367	-0.62519752979279	65.000000000000	0.00000000000000
25.600000381470	0.53313857316971	-0.62535107135773	65.000000000000	0.00000000000000
25.610000610352	0.53201448917389	-0.62550210952759	65.000000000000	0.00000000000000
25.620000839233	0.53088784217834	-0.62565100193024	65.000000000000	0.00000000000000
25.629999160767	0.52975898981094	-0.62579756975174	65.000000000000	0.00000000000000
25.639999389648	0.52862817049026	-0.62594133615494	65.000000000000	0.00000000000000
25.649999618530	0.52749490737915	-0.62608289718628	65.000000000000	0.00000000000000
25.659999847412	0.52635967731476	-0.62622177600861	65.000000000000	0.00000000000000
25.670000076294	0.52522218227386	-0.62635815143585	65.000000000000	0.00000000000000
25.680000305176	0.52408260107040	-0.62649208307266	65.000000000000	0.00000000000000
25.690000534058	0.52294075489044	-0.62662339210510	65.000000000000	0.00000000000000
25.700000762939	0.52179676294327	-0.62675231695175	65.000000000000	0.00000000000000
25.709999084473	0.52065050601959	-0.62687855958939	65.000000000000	0.00000000000000
25.719999313354	0.51950180530548	-0.62700265645981	65.000000000000	0.00000000000000
25.729999542236	0.51835155487061	-0.62712359428406	65.000000000000	0.00000000000000
25.739999771118	0.51719850301743	-0.62724250555038	65.000000000000	0.00000000000000
25.750000000000	0.51604366302490	-0.62735861539841	65.000000000000	0.00000000000000
25.760000228882	0.51488661766052	-0.62747210264206	65.000000000000	0.00000000000000
25.770000457764	0.51372742652893	-0.62758290767670	65.000000000000	0.00000000000000
25.780000686646	0.51256638765335	-0.62769097089767	65.000000000000	0.00000000000000
25.790000915527	0.51140278577805	-0.62779664993286	65.000000000000	0.00000000000000
25.799999237061	0.51023709774017	-0.62789970636368	65.000000000000	0.00000000000000
25.809999465942	0.50906950235367	-0.62799996137619	65.000000000000	0.00000000000000
25.819999694824	0.50789970159531	-0.62809765338898	65.000000000000	0.00000000000000
25.829999923706	0.50672763586044	-0.62819260358810	65.000000000000	0.00000000000000
25.840000152588	0.50555360317230	-0.62828487157822	65.000000000000	0.00000000000000
25.850000381470	0.50437748432159	-0.62837445735931	65.000000000000	0.00000000000000
25.860000610352	0.50319927930832	-0.62846136093140	65.000000000000	0.00000000000000
25.870000839233	0.50201880931854	-0.62854552268982	65.000000000000	0.00000000000000
25.879999160767	0.50083631277084	-0.62862700223923	65.000000000000	0.00000000000000
25.889999389648	0.49965193867683	-0.62870568037033	65.000000000000	0.00000000000000
25.899999618530	0.49846515059471	-0.62878161668777	65.000000000000	0.00000000000000
25.909999847412	0.49727663397789	-0.62885481119156	65.000000000000	0.00000000000000
25.920000076294	0.49608573317528	-0.62892514467239	65.000000000000	0.00000000000000
25.930000305176	0.49489280581474	-0.62899279594421	65.000000000000	0.00000000000000
25.940000534058	0.49369782209396	-0.62905752658844	65.000000000000	0.00000000000000
25.950000762939	0.49250084161758	-0.62911951541901	65.000000000000	0.00000000000000
25.959999084473	0.49130189418793	-0.62917864322662	65.000000000000	0.00000000000000
25.969999313354	0.49010074138641	-0.62923508882523	65.000000000000	0.00000000000000
25.979999542236	0.48889756202698	-0.62928855419159	65.000000000000	0.00000000000000
25.989999771118	0.48769238591194	-0.62933915853500	65.000000000000	0.00000000000000
26.000000000000	0.48648506402969	-0.62938690185547	65.000000000000	0.00000000000000
26.010000228882	0.48527583479881	-0.62943172454834	65.000000000000	0.00000000000000
26.020000457764	0.48406442999840	-0.62947368621826	65.000000000000	0.00000000000000
26.030000686646	0.48285120725632	-0.62951278686523	65.000000000000	0.00000000000000
26.040000915527	0.48163571953773	-0.62954896688461	65.000000000000	0.00000000000000
26.049999237061	0.48041823506355	-0.62958216667175	65.000000000000	0.00000000000000
26.059999465942	0.47919884324074	-0.62961238622665	65.000000000000	0.00000000000000
26.069999694824	0.47797754406929	-0.62963968515396	65.000000000000	0.00000000000000
26.079999923706	0.47675397992134	-0.62966406345367	65.000000000000	0.00000000000000
26.090000152588	0.47552865743637	-0.62968540191650	65.000000000000	0.00000000000000
26.100000381470	0.47430109977722	-0.62970381975174	65.000000000000	0.00000000000000
26.110000610352	0.47307184338570	-0.62971913814545	65.000000000000	0.00000000000000
26.120000839233	0.47184029221535	-0.62973147630692	65.000000000000	0.00000000000000
26.129999160767	0.47060689330101	-0.62974077463150	65.000000000000	0.00000000000000
26.139999389648	0.46937158703804	-0.62974709272385	65.000000000000	0.00000000000000
26.149999618530	0.46813425421715	-0.62975031137466	65.000000000000	0.00000000000000
26.159999847412	0.46689495444298	-0.62975037097931	65.000000000000	0.00000000000000
26.170000076294	0.46565356850624	-0.62974745035172	65.000000000000	0.00000000000000
26.180000305176	0.46441036462784	-0.62974137067795	65.000000000000	0.00000000000000
26.190000534058	0.46316519379616	-0.62973225116730	65.000000000000	0.00000000000000
26.200000762939	0.46191814541817	-0.62971997261047	65.000000000000	0.00000000000000
26.209999084473	0.46066895127296	-0.62970459461212	65.000000000000	0.00000000000000
26.219999313354	0.45941790938377	-0.62968605756760	65.000000000000	0.00000000000000
26.229999542236	0.45816496014595	-0.62966430187225	65.000000000000	0.00000000000000
26.239999771118	0.45691001415253	-0.62963938713074	65.000000000000	0.00000000000000
26.250000000000	0.45565333962440	-0.62961137294769	65.000000000000	0.00000000000000
26.260000228882	0.45439448952675	-0.62958008050919	65.000000000000	0.00000000000000
26.270000457764	0.45313391089439	-0.62954556941986	65.000000000000	0.00000000000000
26.280000686646	0.45187124609947	-0.62950789928436	65.000000000000	0.00000000000000
26.290000915527	0.45060673356056	-0.62946683168411	65.000000000000	0.00000000000000
26.299999237061	0.44934040307999	-0.62942266464233	65.000000000000	0.00000000000000
26.309999465942	0.44807216525078	-0.62937515974045	65.000000000000	0.00000000000000
26.319999694824	0.44680202007294	-0.62932443618774	65.000000000000	0.00000000000000
26.329999923706	0.44552999734879	-0.62927025556564	65.000000000000	0.00000000000000
26.340000152588	0.44425621628761	-0.62921291589737	65.000000000000	0.00000000000000
26.350000381470	0.44298031926155	-0.62915217876434	65.000000000000	0.00000000000000
26.360000610352	0.44170266389847	-0.62908810377121	65.000000000000	0.00000000000000
26.370000839233	0.44042325019836	-0.62902069091797	65.000000000000	0.00000000000000
26.379999160767	0.43914189934731	-0.62894994020462	65.000000000000	0.00000000000000
26.389999389648	0.43785876035690	-0.62887573242188	65.000000000000	0.00000000000000
26.399999618530	0.43657368421555	-0.62879824638367	65.000000000000	0.00000000000000
26.409999847412	0.43528673052788	-0.62871724367142	65.000000000000	0.00000000000000
26.420000076294	0.43399813771248	-0.62863284349442	65.000000000000	0.00000000000000
26.430000305176	0.43270763754845	-0.62854492664337	65.000000000000	0.00000000000000
26.440000534058	0.43141534924507	-0.62845367193222	65.000000000000	0.00000000000000
26.450000762939	0.43012109398842	-0.62835884094238	65.000000000000	0.00000000000000
26.459999084473	0.42882522940636	-0.62826061248779	65.000000000000	0.00000000000000
26.469999313354	0.42752751708031	-0.62815886735916	65.000000000000	0.00000000000000
26.479999542236	0.42622801661491	-0.62805354595184	65.000000000000	0.00000000000000
26.489999771118	0.42492663860321	-0.62794470787048	65.000000000000	0.00000000000000
26.500000000000	0.42362368106842	-0.62783235311508	65.000000000000	0.00000000000000
26.510000228882	0.42231878638268	-0.62771636247635	65.000000000000	0.00000000000000
26.520000457764	0.42101216316223	-0.62759691476822	65.000000000000	0.00000000000000
26.530000686646	0.41970396041870	-0.62747377157211	65.000000000000	0.00000000000000
26.540000915527	0.41839370131493	-0.62734705209732	65.000000000000	0.00000000000000
26.549999237061	0.41708195209503	-0.62721675634384	65.000000000000	0.00000000000000
26.559999465942	0.41576838493347	-0.62708276510239	65.000000000000	0.00000000000000
26.569999694824	0.41445299983025	-0.62694507837296	65.000000000000	0.00000000000000
26.579999923706	0.41313612461090	-0.62680381536484	65.000000000000	0.00000000000000
26.590000152588	0.41181731224060	-0.62665885686874	65.000000000000	0.00000000000000
26.600000381470	0.41049706935883	-0.62651014328003	65.000000000000	0.00000000000000
26.610000610352	0.40917482972145	-0.62635767459869	65.000000000000	0.00000000000000
26.620000839233	0.40785124897957	-0.62620157003403	65.000000000000	0.00000000000000
26.629999160767	0.40652567148209	-0.62604159116745	65.000000000000	0.00000000000000
26.639999389648	0.40519866347313	-0.62587791681290	65.000000000000	0.00000000000000
26.649999618530	0.40386980772018	-0.62571042776108	65.000000000000	0.00000000000000
26.659999847412	0.40253943204880	-0.62553924322128	65.000000000000	0.00000000000000
26.670000076294	0.40120732784271	-0.62536418437958	65.000000000000	0.00000000000000
26.680000305176	0.39987370371819	-0.62518531084061	65.000000000000	0.00000000000000
26.690000534058	0.39853835105896	-0.62500256299973	65.000000000000	0.00000000000000
26.700000762939	0.39720153808594	-0.62481600046158	65.000000000000	0.00000000000000
26.709999084473	0.39586302638054	-0.62462544441223	65.000000000000	0.00000000000000
26.719999313354	0.39452305436134	-0.62443101406097	65.000000000000	0.00000000000000
26.729999542236	0.39318132400513	-0.62423276901245	65.000000000000	0.00000000000000
26.739999771118	0.39183807373047	-0.62403047084808	65.000000000000	0.00000000000000
26.750000000000	0.39049342274666	-0.62382429838181	65.000000000000	0.00000000000000
26.760000228882	0.38914698362350	-0.62361413240433	65.000000000000	0.00000000000000
26.770000457764	0.38779896497726	-0.62340009212494	65.000000000000	0.00000000000000
26.780000686646	0.38644969463348	-0.62318193912506	65.000000000000	0.00000000000000
26.790000915527	0.38509872555733	-0.62295979261398	65.000000000000	0.00000000000000
26.799999237061	0.38374620676041	-0.62273359298706	65.000000000000	0.00000000000000
26.809999465942	0.38239231705666	-0.62250345945358	65.000000000000	0.00000000000000
26.819999694824	0.38103684782982	-0.62226915359497	65.000000000000	0.00000000000000
26.829999923706	0.37967994809151	-0.62203079462051	65.000000000000	0.00000000000000
26.840000152588	0.37832164764404	-0.62178832292557	65.000000000000	0.00000000000000
26.850000381470	0.37696185708046	-0.62154179811478	65.000000000000	0.00000000000000
26.860000610352	0.37560051679611	-0.62129110097885	65.000000000000	0.00000000000000
26.870000839233	0.37423798441887	-0.62103629112244	65.000000000000	0.00000000000000
26.879999160767	0.37287375330925	-0.62077724933624	65.000000000000	0.00000000000000
26.889999389648	0.37150833010674	-0.62051403522491	65.000000000000	0.00000000000000
26.899999618530	0.37014138698578	-0.62024676799774	65.000000000000	0.00000000000000
26.909999847412	0.36877316236496	-0.61997514963150	65.000000000000	0.00000000000000
26.920000076294	0.36740341782570	-0.61969923973083	65.000000000000	0.00000000000000
26.930000305176	0.36603245139122	-0.61941921710968	65.000000000000	0.00000000000000
26.940000534058	0.36466011404991	-0.61913478374481	65.000000000000	0.00000000000000
26.950000762939	0.36328649520874	-0.61884623765945	65.000000000000	0.00000000000000
26.959999084473	0.36191153526306	-0.61855328083038	65.000000000000	0.00000000000000
26.969999313354	0.36053520441055	-0.61825603246689	65.000000000000	0.00000000000000
26.979999542236	0.35915762186050	-0.61795449256897	65.000000000000	0.00000000000000
26.989999771118	0.35777887701988	-0.61764854192734	65.000000000000	0.00000000000000
27.000000000000	0.35639885067940	-0.61733829975128	65.000000000000	0.00000000000000
27.010000228882	0.35501742362976	-0.61702352762222	65.000000000000	0.00000000000000
27.020000457764	0.35363480448723	-0.61670452356339	65.000000000000	0.00000000000000
27.030000686646	0.35225120186806	-0.61638092994690	65.000000000000	0.00000000000000
27.040000915527	0.35086613893509	-0.61605304479599	65.000000000000	0.00000000000000
27.049999237061	0.34947985410690	-0.61572062969208	65.000000000000	0.00000000000000
27.059999465942	0.34809255599976	-0.61538380384445	65.000000000000	0.00000000000000
27.069999694824	0.34670406579971	-0.61504244804382	65.000000000000	0.00000000000000
27.079999923706	0.34531429409981	-0.61469662189484	65.000000000000	0.00000000000000
27.090000152588	0.34392371773720	-0.61434620618820	65.000000000000	0.00000000000000
27.100000381470	0.34253168106079	-0.61399126052856	65.000000000000	0.00000000000000
27.110000610352	0.34113889932632	-0.61363184452057	65.000000000000	0.00000000000000
27.120000839233	0.33974468708038	-0.61326771974564	65.000000000000	0.00000000000000
27.129999160767	0.33834972977638	-0.61289912462234	65.000000000000	0.00000000000000
27.139999389648	0.33695346117020	-0.61252593994141	65.000000000000	0.00000000000000
27.149999618530	0.33555626869202	-0.61214810609818	65.000000000000	0.00000000000000
27.159999847412	0.33415806293488	-0.61176556348801	65.000000000000	0.00000000000000
27.170000076294	0.33275884389877	-0.61137843132019	65.000000000000	0.00000000000000
27.180000305176	0.33135870099068	-0.61098664999008	65.000000000000	0.00000000000000
27.190000534058	0.32995757460594	-0.61059015989304	65.000000000000	0.00000000000000
27.200000762939	0.32855546474457	-0.61018890142441	65.000000000000	0.00000000000000
27.209999084473	0.32715243101120	-0.60978299379349	65.000000000000	0.00000000000000
27.219999313354	0.32574853301048	-0.60937237739563	65.000000000000	0.00000000000000
27.229999542236	0.32434374094009	-0.60895699262619	65.000000000000	0.00000000000000
27.239999771118	0.32293805480003	-0.60853677988052	65.000000000000	0.00000000000000
27.250000000000	0.32153162360191	-0.60811179876328	65.000000000000	0.00000000000000
27.260000228882	0.32012426853180	-0.60768198966980	65.000000000000	0.00000000000000
27.270000457764	0.31871604919434	-0.60724741220474	65.000000000000	0.00000000000000
27.280000686646	0.31730705499649	-0.60680806636810	65.000000000000	0.00000000000000
27.290000915527	0.31589725613594	-0.60636371374130	65.000000000000	0.00000000000000
27.299999237061	0.31448686122894	-0.60591453313828	65.000000000000	0.00000000000000
27.309999465942	0.31307572126389	-0.60546046495438	65.000000000000	0.00000000000000
27.319999694824	0.31166356801987	-0.60500162839890	65.000000000000	0.00000000000000
27.329999923706	0.31025099754333	-0.60453772544861	65.000000000000	0.00000000000000
